(1768226372.250823) slcan0 7DF#0201000000000000
(1768226372.253930) slcan0 7E8#064100BE3FB80300
(1768226373.241233) slcan0 7DF#0201000000000000
(1768226373.244625) slcan0 7E8#064100BE3FB80300
(1768226373.826643) slcan0 7DF#0201200000000000
(1768226373.833673) slcan0 7E8#064120A005A00100
(1768226374.321002) slcan0 7DF#0201400000000000
(1768226374.323894) slcan0 7E8#0641406AD0000000
(1768226375.582664) slcan0 7DF#0201000000000000
(1768226375.593613) slcan0 7E8#064100BE3FB80300
(1768226376.167543) slcan0 7DF#0209020000000000
(1768226376.661607) slcan0 7DF#0209040000000000
(1768226377.382995) slcan0 7DF#02090A0000000000
(1768226378.057879) slcan0 7DF#0201000000000000
(1768226378.063529) slcan0 7E8#064100BE3FB80300
(1768226378.463159) slcan0 7DF#0201000000000000
(1768226378.473483) slcan0 7E8#064100BE3FB80300
(1768226378.596909) slcan0 7DF#0201000000000000
(1768226378.604085) slcan0 7E8#064100BE3FB80300
(1768226378.823061) slcan0 7DF#0201000000000000
(1768226378.833527) slcan0 7E8#064100BE3FB80300
(1768226379.048234) slcan0 7DF#0201000000000000
(1768226379.053910) slcan0 7E8#064100BE3FB80300
(1768226379.406977) slcan0 7DF#0201000000000000
(1768226379.413604) slcan0 7E8#064100BE3FB80300
(1768226379.902040) slcan0 7DF#0201000000000000
(1768226379.913426) slcan0 7E8#064100BE3FB80300
(1768226380.035962) slcan0 7DF#0201000000000000
(1768226380.043662) slcan0 7E8#064100BE3FB80300
(1768226380.351451) slcan0 7DF#0201000000000000
(1768226380.353913) slcan0 7E8#064100BE3FB80300
(1768226380.801403) slcan0 7DF#0201000000000000
(1768226380.803475) slcan0 7E8#064100BE3FB80300
(1768226381.071610) slcan0 7DF#0201000000000000
(1768226381.073755) slcan0 7E8#064100BE3FB80300
(1768226381.476666) slcan0 7DF#0201000000000000
(1768226381.483583) slcan0 7E8#064100BE3FB80300
(1768226381.791384) slcan0 7DF#0201000000000000
(1768226381.793707) slcan0 7E8#064100BE3FB80300
(1768226382.107385) slcan0 7DF#0201000000000000
(1768226382.113605) slcan0 7E8#064100BE3FB80300
(1768226382.466485) slcan0 7DF#0201000000000000
(1768226382.473552) slcan0 7E8#064100BE3FB80300
(1768226382.692374) slcan0 7DF#0201000000000000
(1768226382.703361) slcan0 7E8#064100BE3FB80300
(1768226382.826450) slcan0 7DF#0201000000000000
(1768226382.833489) slcan0 7E8#064100BE3FB80300
(1768226383.277423) slcan0 7DF#0201000000000000
(1768226383.283478) slcan0 7E8#064100BE3FB80300
(1768226383.411692) slcan0 7DF#0201000000000000
(1768226383.413704) slcan0 7E8#064100BE3FB80300
(1768226383.637738) slcan0 7DF#0201000000000000
(1768226383.643681) slcan0 7E8#064100BE3FB80300
(1768226384.086841) slcan0 7DF#0201000000000000
(1768226384.094279) slcan0 7E8#064100BE3FB80300
(1768226384.312042) slcan0 7DF#0201000000000000
(1768226384.323275) slcan0 7E8#064100BE3FB80300
(1768226384.898046) slcan0 7DF#0201010000000000
(1768226384.903456) slcan0 7E8#0641010007610000
(1768226385.166736) slcan0 7DF#0201030000000000
(1768226385.173341) slcan0 7E8#0441030200000000
(1768226385.346343) slcan0 7DF#0201040000000000
(1768226385.353292) slcan0 7E8#0341043200000000
(1768226385.480512) slcan0 7DF#0201050000000000
(1768226385.483412) slcan0 7E8#0341055C00000000
(1768226385.706643) slcan0 7DF#0201010000000000
(1768226385.713509) slcan0 7E8#0641010007610000
(1768226385.840528) slcan0 7DF#0201030000000000
(1768226385.843479) slcan0 7E8#0441030200000000
(1768226385.977486) slcan0 7DF#0201040000000000
(1768226385.984385) slcan0 7E8#0341043200000000
(1768226386.111219) slcan0 7DF#0201050000000000
(1768226386.123451) slcan0 7E8#0341055C00000000
(1768226386.246504) slcan0 7DF#0201060000000000
(1768226386.253405) slcan0 7E8#0341068300000000
(1768226386.381282) slcan0 7DF#0201070000000000
(1768226386.383632) slcan0 7E8#0341077800000000
(1768226386.607561) slcan0 7DF#0201010000000000
(1768226386.613895) slcan0 7E8#0641010007610000
(1768226386.787356) slcan0 7DF#0201030000000000
(1768226386.793436) slcan0 7E8#0441030200000000
(1768226386.921531) slcan0 7DF#0201040000000000
(1768226386.923756) slcan0 7E8#0341043100000000
(1768226387.056557) slcan0 7DF#0201060000000000
(1768226387.063759) slcan0 7E8#0341068500000000
(1768226387.191702) slcan0 7DF#0201070000000000
(1768226387.193898) slcan0 7E8#0341077800000000
(1768226387.462880) slcan0 7DF#0201010000000000
(1768226387.473780) slcan0 7E8#0641010007610000
(1768226387.551876) slcan0 7DF#0201030000000000
(1768226387.564786) slcan0 7E8#0441030200000000
(1768226387.687471) slcan0 7DF#0201040000000000
(1768226387.693173) slcan0 7E8#0341043300000000
(1768226387.776145) slcan0 7DF#0201050000000000
(1768226387.783376) slcan0 7E8#0341055C00000000
(1768226387.911289) slcan0 7DF#0201060000000000
(1768226387.913470) slcan0 7E8#0341068100000000
(1768226388.001464) slcan0 7DF#0201070000000000
(1768226388.003362) slcan0 7E8#0341077800000000
(1768226388.181538) slcan0 7DF#0201010000000000
(1768226388.183426) slcan0 7E8#0641010007610000
(1768226388.272440) slcan0 7DF#0201030000000000
(1768226388.283323) slcan0 7E8#0441030200000000
(1768226388.361501) slcan0 7DF#0201040000000000
(1768226388.363352) slcan0 7E8#0341043300000000
(1768226388.452368) slcan0 7DF#0201060000000000
(1768226388.463165) slcan0 7E8#0341068300000000
(1768226388.541330) slcan0 7DF#0201070000000000
(1768226388.543363) slcan0 7E8#0341077800000000
(1768226388.722491) slcan0 7DF#0201010000000000
(1768226388.733322) slcan0 7E8#0641010007610000
(1768226388.811625) slcan0 7DF#0201030000000000
(1768226388.813439) slcan0 7E8#0441030200000000
(1768226388.902501) slcan0 7DF#0201040000000000
(1768226388.913220) slcan0 7E8#0341043200000000
(1768226388.991502) slcan0 7DF#0201050000000000
(1768226388.993420) slcan0 7E8#0341055C00000000
(1768226389.082715) slcan0 7DF#0201060000000000
(1768226389.093337) slcan0 7E8#0341068500000000
(1768226389.216614) slcan0 7DF#0201070000000000
(1768226389.223370) slcan0 7E8#0341077800000000
(1768226389.397717) slcan0 7DF#0201010000000000
(1768226389.403387) slcan0 7E8#0641010007610000
(1768226389.486460) slcan0 7DF#0201030000000000
(1768226389.493409) slcan0 7E8#0441030200000000
(1768226389.576022) slcan0 7DF#0201040000000000
(1768226389.583382) slcan0 7E8#0341043100000000
(1768226389.666074) slcan0 7DF#0201060000000000
(1768226389.673363) slcan0 7E8#0341068400000000
(1768226389.756062) slcan0 7DF#0201070000000000
(1768226389.763357) slcan0 7E8#0341077800000000
(1768226389.937042) slcan0 7DF#0201010000000000
(1768226389.943185) slcan0 7E8#0641010007610000
(1768226390.026847) slcan0 7DF#0201030000000000
(1768226390.033164) slcan0 7E8#0441030200000000
(1768226390.116824) slcan0 7DF#0201040000000000
(1768226390.123224) slcan0 7E8#0341043200000000
(1768226390.251714) slcan0 7DF#0201050000000000
(1768226390.263344) slcan0 7E8#0341055C00000000
(1768226390.341915) slcan0 7DF#0201060000000000
(1768226390.353239) slcan0 7E8#0341068100000000
(1768226390.431916) slcan0 7DF#0201070000000000
(1768226390.443747) slcan0 7E8#0341077800000000
(1768226390.612920) slcan0 7DF#0201010000000000
(1768226390.623503) slcan0 7E8#0641010007610000
(1768226390.701772) slcan0 7DF#0201030000000000
(1768226390.713380) slcan0 7E8#0441030200000000
(1768226390.791903) slcan0 7DF#0201040000000000
(1768226390.803616) slcan0 7E8#0341043300000000
(1768226390.926806) slcan0 7DF#0201060000000000
(1768226390.933271) slcan0 7E8#0341068100000000
(1768226391.016954) slcan0 7DF#0201070000000000
(1768226391.023326) slcan0 7E8#0341077800000000
(1768226391.197848) slcan0 7DF#0201010000000000
(1768226391.203201) slcan0 7E8#0641010007610000
(1768226391.286476) slcan0 7DF#0201030000000000
(1768226391.293196) slcan0 7E8#0441030200000000
(1768226391.376145) slcan0 7DF#0201040000000000
(1768226391.383228) slcan0 7E8#0341043300000000
(1768226391.466063) slcan0 7DF#0201050000000000
(1768226391.473138) slcan0 7E8#0341055C00000000
(1768226391.556258) slcan0 7DF#0201060000000000
(1768226391.563408) slcan0 7E8#0341068500000000
(1768226391.646186) slcan0 7DF#0201070000000000
(1768226391.653227) slcan0 7E8#0341077800000000
(1768226391.828112) slcan0 7DF#0201010000000000
(1768226391.833282) slcan0 7E8#0641010007610000
(1768226391.916985) slcan0 7DF#0201030000000000
(1768226391.923280) slcan0 7E8#0441030200000000
(1768226392.006195) slcan0 7DF#0201040000000000
(1768226392.013171) slcan0 7E8#0341043200000000
(1768226392.096282) slcan0 7DF#0201060000000000
(1768226392.103188) slcan0 7E8#0341068600000000
(1768226392.186361) slcan0 7DF#0201070000000000
(1768226392.193376) slcan0 7E8#0341077800000000
(1768226392.501372) slcan0 7DF#0201010000000000
(1768226392.503328) slcan0 7E8#0641010007610000
(1768226392.592547) slcan0 7DF#0201030000000000
(1768226392.603404) slcan0 7E8#0441030200000000
(1768226392.726501) slcan0 7DF#0201040000000000
(1768226392.733332) slcan0 7E8#0341043300000000
(1768226392.816762) slcan0 7DF#0201050000000000
(1768226392.823245) slcan0 7E8#0341055C00000000
(1768226392.906604) slcan0 7DF#0201060000000000
(1768226392.913190) slcan0 7E8#0341068200000000
(1768226393.041734) slcan0 7DF#0201070000000000
(1768226393.053167) slcan0 7E8#0341077800000000
(1768226393.222540) slcan0 7DF#0201010000000000
(1768226393.233206) slcan0 7E8#0641010007610000
(1768226393.311006) slcan0 7DF#02010F0000000000
(1768226393.313223) slcan0 7E8#03410F2500000000
(1768226393.445987) slcan0 7DF#0201100000000000
(1768226393.453145) slcan0 7E8#0441100137000000
(1768226393.581166) slcan0 7DF#0201110000000000
(1768226393.583322) slcan0 7E8#0341112600000000
(1768226393.716064) slcan0 7DF#0201140000000000
(1768226393.723263) slcan0 7E8#0441142B83000000
(1768226393.896809) slcan0 7DF#0201150000000000
(1768226393.903119) slcan0 7E8#0441159CFF000000
(1768226394.031806) slcan0 7DF#02011F0000000000
(1768226394.043448) slcan0 7E8#04411F0231000000
(1768226394.167076) slcan0 7DF#0201210000000000
(1768226394.173363) slcan0 7E8#0441210000000000
(1768226394.301918) slcan0 7DF#0201230000000000
(1768226394.313380) slcan0 7E8#044123012A000000
(1768226394.437041) slcan0 7DF#02012E0000000000
(1768226394.443433) slcan0 7E8#03412E0000000000
(1768226394.571910) slcan0 7DF#0201300000000000
(1768226394.583916) slcan0 7E8#034130FF00000000
(1768226394.706958) slcan0 7DF#0201310000000000
(1768226394.713264) slcan0 7E8#044131867E000000
(1768226394.841758) slcan0 7DF#0201330000000000
(1768226394.853090) slcan0 7E8#0341336100000000
(1768226394.976972) slcan0 7DF#02010F0000000000
(1768226394.983071) slcan0 7E8#03410F2500000000
(1768226395.111829) slcan0 7DF#0201100000000000
(1768226395.123435) slcan0 7E8#0441100139000000
(1768226395.247108) slcan0 7DF#0201110000000000
(1768226395.253077) slcan0 7E8#0341112600000000
(1768226395.381664) slcan0 7DF#0201140000000000
(1768226395.393164) slcan0 7E8#0441148D80000000
(1768226395.516315) slcan0 7DF#0201150000000000
(1768226395.523129) slcan0 7E8#0441159CFF000000
(1768226395.651273) slcan0 7DF#02011F0000000000
(1768226395.653207) slcan0 7E8#04411F0232000000
(1768226395.787542) slcan0 7DF#0201210000000000
(1768226395.793261) slcan0 7E8#0441210000000000
(1768226395.920473) slcan0 7DF#0201230000000000
(1768226395.923245) slcan0 7E8#044123011F000000
(1768226396.057519) slcan0 7DF#02012E0000000000
(1768226396.063168) slcan0 7E8#03412E0000000000
(1768226396.191316) slcan0 7DF#0201300000000000
(1768226396.193187) slcan0 7E8#034130FF00000000
(1768226396.327358) slcan0 7DF#0201310000000000
(1768226396.333304) slcan0 7E8#044131867E000000
(1768226396.461486) slcan0 7DF#0201330000000000
(1768226396.463405) slcan0 7E8#0341336100000000
(1768226396.597602) slcan0 7DF#02010F0000000000
(1768226396.603191) slcan0 7E8#03410F2500000000
(1768226396.686460) slcan0 7DF#0201100000000000
(1768226396.693419) slcan0 7E8#0441100134000000
(1768226396.776560) slcan0 7DF#0201110000000000
(1768226396.782971) slcan0 7E8#0341112600000000
(1768226396.866702) slcan0 7DF#0201140000000000
(1768226396.873843) slcan0 7E8#0441142E85000000
(1768226397.001556) slcan0 7DF#0201150000000000
(1768226397.013006) slcan0 7E8#0441159CFF000000
(1768226397.136617) slcan0 7DF#0201100000000000
(1768226397.143263) slcan0 7E8#0441100139000000
(1768226397.271726) slcan0 7DF#0201110000000000
(1768226397.283480) slcan0 7E8#0341112600000000
(1768226397.406332) slcan0 7DF#0201140000000000
(1768226397.413406) slcan0 7E8#0441148086000000
(1768226397.540878) slcan0 7DF#0201150000000000
(1768226397.543381) slcan0 7E8#0441159BFF000000
(1768226397.720998) slcan0 7DF#02011F0000000000
(1768226397.723336) slcan0 7E8#04411F0234000000
(1768226397.856067) slcan0 7DF#0201210000000000
(1768226397.863242) slcan0 7E8#0441210000000000
(1768226397.991214) slcan0 7DF#0201230000000000
(1768226397.993351) slcan0 7E8#0441230128000000
(1768226398.126836) slcan0 7DF#0201110000000000
(1768226398.133286) slcan0 7E8#0341112600000000
(1768226398.262084) slcan0 7DF#0201140000000000
(1768226398.273338) slcan0 7E8#0441149F82000000
(1768226398.443273) slcan0 7DF#0201150000000000
(1768226398.453150) slcan0 7E8#0441159CFF000000
(1768226398.577074) slcan0 7DF#02011F0000000000
(1768226398.583043) slcan0 7E8#04411F0235000000
(1768226398.711114) slcan0 7DF#0201210000000000
(1768226398.713036) slcan0 7E8#0441210000000000
(1768226398.847368) slcan0 7DF#0201230000000000
(1768226398.853012) slcan0 7E8#0441230120000000
(1768226398.981368) slcan0 7DF#02012E0000000000
(1768226398.984298) slcan0 7E8#03412E0000000000
(1768226399.117610) slcan0 7DF#0201300000000000
(1768226399.122995) slcan0 7E8#034130FF00000000
(1768226399.251426) slcan0 7DF#0201310000000000
(1768226399.263059) slcan0 7E8#044131867E000000
(1768226399.386705) slcan0 7DF#0201330000000000
(1768226399.393130) slcan0 7E8#0341336100000000
(1768226399.521531) slcan0 7DF#0201420000000000
(1768226399.533015) slcan0 7E8#044142374F000000
(1768226399.656368) slcan0 7DF#0201430000000000
(1768226399.662976) slcan0 7E8#044143003D000000
(1768226399.790570) slcan0 7DF#0201110000000000
(1768226399.792864) slcan0 7E8#0341112500000000
(1768226399.880760) slcan0 7DF#0201140000000000
(1768226399.882944) slcan0 7E8#0441148E84000000
(1768226400.016856) slcan0 7DF#0201150000000000
(1768226400.023244) slcan0 7E8#0441159CFF000000
(1768226400.105884) slcan0 7DF#02011F0000000000
(1768226400.112959) slcan0 7E8#04411F0237000000
(1768226400.196588) slcan0 7DF#0201210000000000
(1768226400.203014) slcan0 7E8#0441210000000000
(1768226400.286538) slcan0 7DF#0201230000000000
(1768226400.293000) slcan0 7E8#0441230124000000
(1768226400.376576) slcan0 7DF#02012E0000000000
(1768226400.383035) slcan0 7E8#03412E0000000000
(1768226400.466621) slcan0 7DF#0201300000000000
(1768226400.472865) slcan0 7E8#034130FF00000000
(1768226400.556615) slcan0 7DF#0201310000000000
(1768226400.562911) slcan0 7E8#044131867E000000
(1768226400.646511) slcan0 7DF#0201330000000000
(1768226400.652866) slcan0 7E8#0341336100000000
(1768226400.736625) slcan0 7DF#0201420000000000
(1768226400.742986) slcan0 7E8#04414236C1000000
(1768226400.871755) slcan0 7DF#0201430000000000
(1768226400.882961) slcan0 7E8#044143003D000000
(1768226401.006554) slcan0 7DF#0201110000000000
(1768226401.013394) slcan0 7E8#0341112500000000
(1768226401.096791) slcan0 7DF#0201210000000000
(1768226401.102983) slcan0 7E8#0441210000000000
(1768226401.231862) slcan0 7DF#0201230000000000
(1768226401.243324) slcan0 7E8#0441230126000000
(1768226401.366431) slcan0 7DF#02012E0000000000
(1768226401.373094) slcan0 7E8#03412E0000000000
(1768226401.501368) slcan0 7DF#0201300000000000
(1768226401.503089) slcan0 7E8#034130FF00000000
(1768226401.636361) slcan0 7DF#0201310000000000
(1768226401.643162) slcan0 7E8#044131867E000000
(1768226401.770579) slcan0 7DF#0201330000000000
(1768226401.773203) slcan0 7E8#0341336100000000
(1768226401.905606) slcan0 7DF#0201420000000000
(1768226401.912801) slcan0 7E8#0441423720000000
(1768226402.041535) slcan0 7DF#02012E0000000000
(1768226402.052822) slcan0 7E8#03412E0000000000
(1768226402.176543) slcan0 7DF#0201300000000000
(1768226402.183000) slcan0 7E8#034130FF00000000
(1768226402.311597) slcan0 7DF#0201310000000000
(1768226402.323204) slcan0 7E8#044131867E000000
(1768226402.446796) slcan0 7DF#0201330000000000
(1768226402.453036) slcan0 7E8#0341336100000000
(1768226402.581865) slcan0 7DF#0201420000000000
(1768226402.593058) slcan0 7E8#0441423720000000
(1768226402.716808) slcan0 7DF#0201430000000000
(1768226402.723207) slcan0 7E8#044143003D000000
(1768226402.851996) slcan0 7DF#0201450000000000
(1768226402.863640) slcan0 7E8#0341450B00000000
(1768226402.987061) slcan0 7DF#0201470000000000
(1768226402.993286) slcan0 7E8#0341472500000000
(1768226403.122106) slcan0 7DF#0201490000000000
(1768226403.132783) slcan0 7E8#0341492500000000
(1768226403.257179) slcan0 7DF#02014A0000000000
(1768226403.268007) slcan0 7E8#03414A1300000000
(1768226403.391259) slcan0 7DF#02014C0000000000
(1768226403.393119) slcan0 7E8#03414C0F00000000
(1768226403.525915) slcan0 7DF#0201030000000000
(1768226403.533017) slcan0 7E8#0441030200000000
(1768226403.660438) slcan0 7DF#0201110000000000
(1768226403.662801) slcan0 7E8#0341112500000000
(1768226403.795559) slcan0 7DF#0201100000000000
(1768226403.802994) slcan0 7E8#0441100126000000
(1768226403.930704) slcan0 7DF#02010C0000000000
(1768226403.932899) slcan0 7E8#04410C13F2000000
(1768226404.111744) slcan0 7DF#02012E0000000000
(1768226404.122961) slcan0 7E8#03412E0000000000
(1768226404.201454) slcan0 7DF#0201300000000000
(1768226404.212874) slcan0 7E8#034130FF00000000
(1768226404.291429) slcan0 7DF#0201430000000000
(1768226404.302857) slcan0 7E8#044143003B000000
(1768226404.426602) slcan0 7DF#0201450000000000
(1768226404.432806) slcan0 7E8#0341450B00000000
(1768226404.561506) slcan0 7DF#0201470000000000
(1768226404.572796) slcan0 7E8#0341472400000000
(1768226404.696516) slcan0 7DF#0201490000000000
(1768226404.702756) slcan0 7E8#0341492500000000
(1768226404.831608) slcan0 7DF#02014A0000000000
(1768226404.842880) slcan0 7E8#03414A1300000000
(1768226404.966683) slcan0 7DF#02014C0000000000
(1768226404.973188) slcan0 7E8#03414C0F00000000
(1768226405.101544) slcan0 7DF#0201030000000000
(1768226405.112900) slcan0 7E8#0441030200000000
(1768226405.236865) slcan0 7DF#0201110000000000
(1768226405.242946) slcan0 7E8#0341112500000000
(1768226405.371670) slcan0 7DF#0201100000000000
(1768226405.382772) slcan0 7E8#0441100131000000
(1768226405.551824) slcan0 7DF#02010C0000000000
(1768226405.562816) slcan0 7E8#04410C13F8000000
(1768226405.686630) slcan0 7DF#02010D0000000000
(1768226405.693214) slcan0 7E8#03410D0000000000
(1768226405.866187) slcan0 7DF#0201430000000000
(1768226405.873008) slcan0 7E8#044143003C000000
(1768226405.956436) slcan0 7DF#0201450000000000
(1768226405.962837) slcan0 7E8#0341450B00000000
(1768226406.090454) slcan0 7DF#0201470000000000
(1768226406.092837) slcan0 7E8#0341472400000000
(1768226406.226721) slcan0 7DF#0201470000000000
(1768226406.233176) slcan0 7E8#0341472400000000
(1768226406.361379) slcan0 7DF#0201490000000000
(1768226406.372888) slcan0 7E8#0341492500000000
(1768226406.496804) slcan0 7DF#02014A0000000000
(1768226406.502963) slcan0 7E8#03414A1300000000
(1768226406.631654) slcan0 7DF#02014C0000000000
(1768226406.642813) slcan0 7E8#03414C0F00000000
(1768226406.766854) slcan0 7DF#0201030000000000
(1768226406.773150) slcan0 7E8#0441030200000000
(1768226406.902161) slcan0 7DF#0201110000000000
(1768226406.912908) slcan0 7E8#0341112500000000
(1768226407.037059) slcan0 7DF#0201100000000000
(1768226407.042879) slcan0 7E8#044110012B000000
(1768226407.397333) slcan0 7DF#0201490000000000
(1768226407.403126) slcan0 7E8#0341492600000000
(1768226407.531283) slcan0 7DF#02014A0000000000
(1768226407.543447) slcan0 7E8#03414A1300000000
(1768226407.666641) slcan0 7DF#02014C0000000000
(1768226407.673140) slcan0 7E8#03414C0F00000000
(1768226407.801634) slcan0 7DF#0201030000000000
(1768226407.812798) slcan0 7E8#0441030200000000
(1768226407.936823) slcan0 7DF#0201110000000000
(1768226407.942957) slcan0 7E8#0341112500000000
(1768226408.071350) slcan0 7DF#0201100000000000
(1768226408.082995) slcan0 7E8#0441100137000000
(1768226408.387405) slcan0 7DF#02010C0000000000
(1768226408.393349) slcan0 7E8#04410C13E8000000
(1768226408.566522) slcan0 7DF#02010D0000000000
(1768226408.573228) slcan0 7E8#03410D0000000000
(1768226408.836731) slcan0 7DF#0201490000000000
(1768226408.843056) slcan0 7E8#0341492600000000
(1768226409.016798) slcan0 7DF#02014A0000000000
(1768226409.022733) slcan0 7E8#03414A1300000000
(1768226409.151765) slcan0 7DF#02014C0000000000
(1768226409.162658) slcan0 7E8#03414C0F00000000
(1768226409.286964) slcan0 7DF#0201030000000000
(1768226409.293230) slcan0 7E8#0441030200000000
(1768226409.377052) slcan0 7DF#0201110000000000
(1768226409.382743) slcan0 7E8#0341112500000000
(1768226409.467169) slcan0 7DF#0201100000000000
(1768226409.474113) slcan0 7E8#0441100129000000
(1768226409.737294) slcan0 7DF#02010C0000000000
(1768226409.742709) slcan0 7E8#04410C142A000000
(1768226409.917477) slcan0 7DF#02010D0000000000
(1768226409.922904) slcan0 7E8#03410D0000000000
(1768226410.142759) slcan0 7DF#0201490000000000
(1768226410.152745) slcan0 7E8#0341492500000000
(1768226410.231949) slcan0 7DF#02014A0000000000
(1768226410.242779) slcan0 7E8#03414A1300000000
(1768226410.321897) slcan0 7DF#02014C0000000000
(1768226410.332714) slcan0 7E8#03414C0F00000000
(1768226410.412065) slcan0 7DF#0201030000000000
(1768226410.422961) slcan0 7E8#0441030200000000
(1768226410.502290) slcan0 7DF#0201110000000000
(1768226410.512770) slcan0 7E8#0341112500000000
(1768226410.636873) slcan0 7DF#0201100000000000
(1768226410.642687) slcan0 7E8#0441100129000000
(1768226410.951573) slcan0 7DF#02010C0000000000
(1768226410.962712) slcan0 7E8#04410C13F6000000
(1768226411.085820) slcan0 7DF#02010D0000000000
(1768226411.092823) slcan0 7E8#03410D0000000000
(1768226411.311970) slcan0 7DF#0201490000000000
(1768226411.322721) slcan0 7E8#0341492600000000
(1768226411.401195) slcan0 7DF#02014A0000000000
(1768226411.412719) slcan0 7E8#03414A1300000000
(1768226411.491895) slcan0 7DF#02014C0000000000
(1768226411.503409) slcan0 7E8#03414C0F00000000
(1768226411.581993) slcan0 7DF#0201030000000000
(1768226411.592742) slcan0 7E8#0441030200000000
(1768226411.671823) slcan0 7DF#0201030000000000
(1768226411.682588) slcan0 7E8#0441030200000000
(1768226411.807068) slcan0 7DF#0201110000000000
(1768226411.812982) slcan0 7E8#0341112500000000
(1768226411.942158) slcan0 7DF#0201100000000000
(1768226411.952706) slcan0 7E8#044110012B000000
(1768226412.257099) slcan0 7DF#02010C0000000000
(1768226412.262706) slcan0 7E8#04410C13DA000000
(1768226412.392180) slcan0 7DF#02010D0000000000
(1768226412.402764) slcan0 7E8#03410D0000000000
(1768226412.662483) slcan0 7DF#02010B0000000000
(1768226412.672589) slcan0 7E8#03410B2100000000
(1768226412.796658) slcan0 7DF#0201030000000000
(1768226412.802575) slcan0 7E8#0441030200000000
(1768226412.886638) slcan0 7DF#0201110000000000
(1768226412.892576) slcan0 7E8#0341112500000000
(1768226412.976822) slcan0 7DF#0201100000000000
(1768226412.982675) slcan0 7E8#0441100129000000
(1768226413.292608) slcan0 7DF#02010C0000000000
(1768226413.302560) slcan0 7E8#04410C13CC000000
(1768226413.426417) slcan0 7DF#02010D0000000000
(1768226413.432660) slcan0 7E8#03410D0000000000
(1768226413.651701) slcan0 7DF#0201330000000000
(1768226413.662631) slcan0 7E8#0341336100000000
(1768226413.785583) slcan0 7DF#02010B0000000000
(1768226413.792899) slcan0 7E8#03410B2000000000
(1768226413.965813) slcan0 7DF#0201030000000000
(1768226413.972633) slcan0 7E8#0441030200000000
(1768226414.056783) slcan0 7DF#0201110000000000
(1768226414.062536) slcan0 7E8#0341112500000000
(1768226414.146924) slcan0 7DF#0201100000000000
(1768226414.152892) slcan0 7E8#0441100129000000
(1768226414.417989) slcan0 7DF#02010C0000000000
(1768226414.422671) slcan0 7E8#04410C141C000000
(1768226414.507268) slcan0 7DF#02010D0000000000
(1768226414.512559) slcan0 7E8#03410D0000000000
(1768226414.732290) slcan0 7DF#02010B0000000000
(1768226414.742700) slcan0 7E8#03410B2000000000
(1768226414.866623) slcan0 7DF#0201030000000000
(1768226414.872721) slcan0 7E8#0441030200000000
(1768226414.956807) slcan0 7DF#0201110000000000
(1768226414.962621) slcan0 7E8#0341112500000000
(1768226415.091722) slcan0 7DF#0201100000000000
(1768226415.102729) slcan0 7E8#0441100126000000
(1768226415.408082) slcan0 7DF#02010C0000000000
(1768226415.412670) slcan0 7E8#04410C13EA000000
(1768226415.542152) slcan0 7DF#02010D0000000000
(1768226415.552916) slcan0 7E8#03410D0000000000
(1768226415.723292) slcan0 7DF#02010B0000000000
(1768226415.732641) slcan0 7E8#03410B2100000000
(1768226415.856035) slcan0 7DF#0201030000000000
(1768226415.863355) slcan0 7E8#0441030200000000
(1768226415.945578) slcan0 7DF#0201110000000000
(1768226415.952458) slcan0 7E8#0341112500000000
(1768226416.171863) slcan0 7DF#0201100000000000
(1768226416.182560) slcan0 7E8#0441100129000000
(1768226416.486971) slcan0 7DF#02010C0000000000
(1768226416.492518) slcan0 7E8#04410C1410000000
(1768226416.576249) slcan0 7DF#02010D0000000000
(1768226416.582671) slcan0 7E8#03410D0000000000
(1768226416.711771) slcan0 7DF#02010B0000000000
(1768226416.722469) slcan0 7E8#03410B2000000000
(1768226416.802181) slcan0 7DF#0201030000000000
(1768226416.812539) slcan0 7E8#0441030200000000
(1768226416.892065) slcan0 7DF#0201110000000000
(1768226416.902612) slcan0 7E8#0341112500000000
(1768226417.027116) slcan0 7DF#0201100000000000
(1768226417.032744) slcan0 7E8#0441100129000000
(1768226417.342957) slcan0 7DF#0201030000000000
(1768226417.352440) slcan0 7E8#0441030200000000
(1768226417.477207) slcan0 7DF#0201110000000000
(1768226417.482889) slcan0 7E8#0341112500000000
(1768226417.612450) slcan0 7DF#0201100000000000
(1768226417.622439) slcan0 7E8#0441100123000000
(1768226417.881412) slcan0 7DF#02010C0000000000
(1768226417.892784) slcan0 7E8#04410C13FC000000
(1768226418.016513) slcan0 7DF#02010D0000000000
(1768226418.022562) slcan0 7E8#03410D0000000000
(1768226418.693073) slcan0 7E1#0221050000000000
(1768226418.698382) slcan0 7E9#10826105138C0000
(1768226418.698660) slcan0 7E1#3000000000000000
(1768226418.702742) slcan0 7E9#2139383802C910C3
(1768226418.708010) slcan0 7E9#22FFFFFFFFFF039A
(1768226418.710123) slcan0 7E9#23006400640064FF
(1768226418.712533) slcan0 7E9#2401550064FFFF00
(1768226418.716973) slcan0 7E9#25039C00630063FF
(1768226418.718356) slcan0 7E9#26006301540063FF
(1768226418.720147) slcan0 7E9#27FF0113E200000F
(1768226418.722516) slcan0 7E9#28032E032C5C6100
(1768226418.726743) slcan0 7E9#29000024E00044FF
(1768226418.728483) slcan0 7E9#2A000000FFFF0FFF
(1768226418.730275) slcan0 7E9#2B0FFF0000FFFF00
(1768226418.732838) slcan0 7E9#2C0A0900FF000000
(1768226418.738751) slcan0 7E9#2DFFFFFFFFFF1AAC
(1768226418.740279) slcan0 7E9#2EFF805603E3032D
(1768226418.742724) slcan0 7E9#2FFFFF000000FFFF
(1768226418.744992) slcan0 7E9#20FFFFFFFFFF00FF
(1768226418.746642) slcan0 7E9#2100FF0101454000
(1768226418.748484) slcan0 7E9#2200FF10FFFF0000
(1768226419.908104) slcan0 7DF#0201030000000000
(1768226419.912454) slcan0 7E8#0441030200000000
(1768226420.041636) slcan0 7DF#0201110000000000
(1768226420.052464) slcan0 7E8#0341112500000000
(1768226420.221263) slcan0 7DF#0201100000000000
(1768226420.232528) slcan0 7E8#0441100129000000
(1768226420.447358) slcan0 7DF#02010C0000000000
(1768226420.452537) slcan0 7E8#04410C1406000000
(1768226420.581376) slcan0 7DF#02010D0000000000
(1768226420.592414) slcan0 7E8#03410D0000000000
(1768226420.897733) slcan0 7E1#0221050000000000
(1768226420.900373) slcan0 7E9#1082610513B40000
(1768226420.900564) slcan0 7E1#3000000000000000
(1768226420.909132) slcan0 7E9#2139381B02C910C3
(1768226420.910208) slcan0 7E9#22FFFFFFFFFF039A
(1768226420.912244) slcan0 7E9#23006400640064FF
(1768226420.916726) slcan0 7E9#2401550064FFFF00
(1768226420.918248) slcan0 7E9#25039A00630063FF
(1768226420.920189) slcan0 7E9#26006301540063FF
(1768226420.922342) slcan0 7E9#27FF01140000000F
(1768226420.927621) slcan0 7E9#28032C032C5C6100
(1768226420.928323) slcan0 7E9#29000024E00030FF
(1768226420.930190) slcan0 7E9#2A000000FFFF0FFF
(1768226420.932322) slcan0 7E9#2B0FFF0000FFFF00
(1768226420.937683) slcan0 7E9#2C0A0900FF000000
(1768226420.938388) slcan0 7E9#2DFFFFFFFFFF1AAC
(1768226420.940152) slcan0 7E9#2EFF804C03E3032C
(1768226420.942665) slcan0 7E9#2FFFFF000000FFFF
(1768226420.947741) slcan0 7E9#20FFFFFFFFFF00FF
(1768226420.948299) slcan0 7E9#2100FF0101454000
(1768226420.950140) slcan0 7E9#2200FF10FFFF0000
(1768226422.068049) slcan0 7E0#0221000000000000
(1768226422.072497) slcan0 7E8#10D2610000076100
(1768226422.072713) slcan0 7E0#3000000000000000
(1768226422.076656) slcan0 7E8#21FFFFFFFF54FFFF
(1768226422.077948) slcan0 7E8#22FFFFFFFF02FF82
(1768226422.079863) slcan0 7E8#2378FFFF78FF055A
(1768226422.082518) slcan0 7E8#24FFFF830125012C
(1768226422.086483) slcan0 7E8#25FFFF3313F4A301
(1768226422.087762) slcan0 7E8#262900215D256100
(1768226422.089798) slcan0 7E8#27FF0C017FFFFFFF
(1768226422.092276) slcan0 7E8#28FFFFFFFFFF4E25
(1768226422.096658) slcan0 7E8#29DA2613000F0FFF
(1768226422.097668) slcan0 7E8#2AFFFFFFFFFFFFFF
(1768226422.099701) slcan0 7E8#2B2C9BFFFFFFFFFF
(1768226422.102428) slcan0 7E8#2CFFFFFFFFFFFFFF
(1768226422.108988) slcan0 7E8#2DFFFFFFFFFFFFFF
(1768226422.109674) slcan0 7E8#2EFFFF36636538FF
(1768226422.112334) slcan0 7E8#2FFFFFFFFF09FFFF
(1768226422.116679) slcan0 7E8#20FFFFFFFFFFFF19
(1768226422.117685) slcan0 7E8#2100FFFFFFFFA900
(1768226422.119698) slcan0 7E8#22FF00FF01FFFFFF
(1768226422.122280) slcan0 7E8#23FFFF408800FF02
(1768226422.126907) slcan0 7E8#2403FFFF00FFFFFF
(1768226422.127772) slcan0 7E8#25112CFF61FFFFFF
(1768226422.129842) slcan0 7E8#26FFFFFFFFFFFFFF
(1768226422.132558) slcan0 7E8#27FFFFFFFFFFFFFF
(1768226422.137713) slcan0 7E8#28FFFFFFFFFFFFFF
(1768226422.139699) slcan0 7E8#29FFFFFFFFFFFFFF
(1768226422.142485) slcan0 7E8#2AFFFFFFFFFFFFFF
(1768226422.146522) slcan0 7E8#2BFFFFFFFFFFFFFF
(1768226422.147800) slcan0 7E8#2CFFFFFFFFFFFFFF
(1768226422.149744) slcan0 7E8#2DFFFFFFFFFFFFFF
(1768226422.152398) slcan0 7E8#2EFF000000000000
(1768226423.732006) slcan0 7DF#0201030000000000
(1768226423.742334) slcan0 7E8#0441030200000000
(1768226423.821981) slcan0 7DF#0201110000000000
(1768226423.832386) slcan0 7E8#0341112500000000
(1768226423.958044) slcan0 7DF#0201100000000000
(1768226423.962701) slcan0 7E8#044110012B000000
(1768226424.182201) slcan0 7DF#02010C0000000000
(1768226424.192370) slcan0 7E8#04410C13E6000000
(1768226424.272314) slcan0 7DF#02010D0000000000
(1768226424.282400) slcan0 7E8#03410D0000000000
(1768226424.677579) slcan0 7E1#0221050000000000
(1768226424.680039) slcan0 7E9#1082610513A40000
(1768226424.680318) slcan0 7E1#3000000000000000
(1768226424.684739) slcan0 7E9#2139384E02C410C3
(1768226424.686628) slcan0 7E9#22FFFFFFFFFF039A
(1768226424.688068) slcan0 7E9#23006400640064FF
(1768226424.690004) slcan0 7E9#2401550064FFFF00
(1768226424.692182) slcan0 7E9#25039C00630063FF
(1768226424.695978) slcan0 7E9#26006301540063FF
(1768226424.698132) slcan0 7E9#27FF01140000000F
(1768226424.699933) slcan0 7E9#28032C032B5C6100
(1768226424.702193) slcan0 7E9#29000024E00044FF
(1768226424.708654) slcan0 7E9#2A000000FFFF0FFF
(1768226424.709984) slcan0 7E9#2B0FFF0000FFFF00
(1768226424.712201) slcan0 7E9#2C0A0900FF000000
(1768226424.716339) slcan0 7E9#2DFFFFFFFFFF1AAC
(1768226424.718095) slcan0 7E9#2EFF805C03E3032B
(1768226424.720022) slcan0 7E9#2FFFFF000000FFFF
(1768226424.726769) slcan0 7E9#20FFFFFFFFFF00FF
(1768226424.728221) slcan0 7E9#2100FF0101454000
(1768226424.730021) slcan0 7E9#2200FF10FFFF0000
(1768226425.892751) slcan0 7E0#0221000000000000
(1768226425.902345) slcan0 7E8#10D2610000076100
(1768226425.902569) slcan0 7E0#3000000000000000
(1768226425.908859) slcan0 7E8#21FFFFFFFF54FFFF
(1768226425.909734) slcan0 7E8#22FFFFFFFF02FF85
(1768226425.912342) slcan0 7E8#2378FFFF7DFF0567
(1768226425.916512) slcan0 7E8#24FFFF810126012C
(1768226425.917682) slcan0 7E8#25FFFF321408A301
(1768226425.919700) slcan0 7E8#262900205D256100
(1768226425.922612) slcan0 7E8#27FF0C007EFFFFFF
(1768226425.926679) slcan0 7E8#28FFFFFFFFFF4D25
(1768226425.927754) slcan0 7E8#29DA2613000F0FFF
(1768226425.929799) slcan0 7E8#2AFFFFFFFFFFFFFF
(1768226425.932616) slcan0 7E8#2B3D9CFFFFFFFFFF
(1768226425.937659) slcan0 7E8#2CFFFFFFFFFFFFFF
(1768226425.939734) slcan0 7E8#2DFFFFFFFFFFFFFF
(1768226425.942253) slcan0 7E8#2EFFFF377E6538FF
(1768226425.944860) slcan0 7E8#2FFFFFFFFF09FFFF
(1768226425.946672) slcan0 7E8#20FFFFFFFFFFFF19
(1768226425.947622) slcan0 7E8#2100FFFFFFFFA900
(1768226425.949666) slcan0 7E8#22FF00FF01FFFFFF
(1768226425.952094) slcan0 7E8#23FFFF408800FF02
(1768226425.956423) slcan0 7E8#2403FFFF00FFFFFF
(1768226425.957747) slcan0 7E8#25112CFF61FFFFFF
(1768226425.959526) slcan0 7E8#26FFFFFFFFFFFFFF
(1768226425.962349) slcan0 7E8#27FFFFFFFFFFFFFF
(1768226425.964618) slcan0 7E8#28FFFFFFFFFFFFFF
(1768226425.966606) slcan0 7E8#29FFFFFFFFFFFFFF
(1768226425.967532) slcan0 7E8#2AFFFFFFFFFFFFFF
(1768226425.969980) slcan0 7E8#2BFFFFFFFFFFFFFF
(1768226425.972150) slcan0 7E8#2CFFFFFFFFFFFFFF
(1768226425.976213) slcan0 7E8#2DFFFFFFFFFFFFFF
(1768226425.977593) slcan0 7E8#2EFF000000000000
(1768226427.512156) slcan0 7DF#0201030000000000
(1768226427.522324) slcan0 7E8#0441030200000000
(1768226427.648269) slcan0 7DF#0201110000000000
(1768226427.652348) slcan0 7E8#0341112500000000
(1768226427.783281) slcan0 7DF#0201100000000000
(1768226427.792181) slcan0 7E8#0441100123000000
(1768226428.006865) slcan0 7DF#02010C0000000000
(1768226428.012331) slcan0 7E8#04410C13DA000000
(1768226428.096655) slcan0 7DF#02010D0000000000
(1768226428.102512) slcan0 7E8#03410D0000000000
(1768226428.548010) slcan0 7E1#0221050000000000
(1768226428.550026) slcan0 7E9#1082610513900000
(1768226428.550334) slcan0 7E1#3000000000000000
(1768226428.556451) slcan0 7E9#213937CE02C910C3
(1768226428.558134) slcan0 7E9#22FFFFFFFFFF039A
(1768226428.559982) slcan0 7E9#23006400640064FF
(1768226428.564727) slcan0 7E9#2401550064FFFF00
(1768226428.566918) slcan0 7E9#25038C00620062FF
(1768226428.568089) slcan0 7E9#26006201510062FF
(1768226428.570012) slcan0 7E9#27FF0113EA00000F
(1768226428.572100) slcan0 7E9#28032E032C5C6100
(1768226428.576054) slcan0 7E9#29000024E00044FF
(1768226428.578044) slcan0 7E9#2A000000FFFF0FFF
(1768226428.579989) slcan0 7E9#2B0FFF0000FFFF00
(1768226428.582756) slcan0 7E9#2C0A0900FF000000
(1768226428.586554) slcan0 7E9#2DFFFFFFFFFF1AAC
(1768226428.587973) slcan0 7E9#2EFF805A03E3032E
(1768226428.590009) slcan0 7E9#2FFFFF000000FFFF
(1768226428.592174) slcan0 7E9#20FFFFFFFFFF00FF
(1768226428.595885) slcan0 7E9#2100FF0101454000
(1768226428.597982) slcan0 7E9#2200FF10FFFF0000
(1768226429.717347) slcan0 7E0#0221000000000000
(1768226429.722558) slcan0 7E8#10D2610000076100
(1768226429.722763) slcan0 7E0#3000000000000000
(1768226429.729563) slcan0 7E8#21FFFFFFFF54FFFF
(1768226429.732470) slcan0 7E8#22FFFFFFFF02FF81
(1768226429.737615) slcan0 7E8#2378FFFF79FF0541
(1768226429.739684) slcan0 7E8#24FFFF830124012C
(1768226429.742426) slcan0 7E8#25FFFF311406A301
(1768226429.744494) slcan0 7E8#262600205D256100
(1768226429.746513) slcan0 7E8#27FF0C017FFFFFFF
(1768226429.747561) slcan0 7E8#28FFFFFFFFFF4D25
(1768226429.749522) slcan0 7E8#29DA2613000F0FFF
(1768226429.752451) slcan0 7E8#2AFFFFFFFFFFFFFF
(1768226429.756292) slcan0 7E8#2BA09CFFFFFFFFFF
(1768226429.757573) slcan0 7E8#2CFFFFFFFFFFFFFF
(1768226429.759525) slcan0 7E8#2DFFFFFFFFFFFFFF
(1768226429.763178) slcan0 7E8#2EFFFF37376538FF
(1768226429.764859) slcan0 7E8#2FFFFFFFFF09FFFF
(1768226429.767243) slcan0 7E8#20FFFFFFFFFFFF19
(1768226429.767512) slcan0 7E8#2100FFFFFFFFA900
(1768226429.769549) slcan0 7E8#22FF00FF01FFFFFF
(1768226429.772426) slcan0 7E8#23FFFF408800FF02
(1768226429.776039) slcan0 7E8#2403FFFF00FFFFFF
(1768226429.777500) slcan0 7E8#25112CFF61FFFFFF
(1768226429.779543) slcan0 7E8#26FFFFFFFFFFFFFF
(1768226429.782534) slcan0 7E8#27FFFFFFFFFFFFFF
(1768226429.788096) slcan0 7E8#28FFFFFFFFFFFFFF
(1768226429.789565) slcan0 7E8#29FFFFFFFFFFFFFF
(1768226429.792333) slcan0 7E8#2AFFFFFFFFFFFFFF
(1768226429.795770) slcan0 7E8#2BFFFFFFFFFFFFFF
(1768226429.797484) slcan0 7E8#2CFFFFFFFFFFFFFF
(1768226429.799514) slcan0 7E8#2DFFFFFFFFFFFFFF
(1768226429.802341) slcan0 7E8#2EFF000000000000
(1768226431.336791) slcan0 7DF#0201030000000000
(1768226431.341939) slcan0 7E8#0441030200000000
(1768226431.425873) slcan0 7DF#0201110000000000
(1768226431.432234) slcan0 7E8#0341112500000000
(1768226431.562024) slcan0 7DF#0201100000000000
(1768226431.572338) slcan0 7E8#0441100126000000
(1768226431.786048) slcan0 7DF#02010C0000000000
(1768226431.792129) slcan0 7E8#04410C13F2000000
(1768226431.876285) slcan0 7DF#02010D0000000000
(1768226431.882050) slcan0 7E8#03410D0000000000
(1768226432.282600) slcan0 7E1#0221050000000000
(1768226432.286493) slcan0 7E9#1082610513B40000
(1768226432.286651) slcan0 7E1#3000000000000000
(1768226432.289990) slcan0 7E9#2139385302C410C3
(1768226432.292237) slcan0 7E9#22FFFFFFFFFF039A
(1768226432.296028) slcan0 7E9#23006400640064FF
(1768226432.297963) slcan0 7E9#2401550064FFFF00
(1768226432.300001) slcan0 7E9#25039B00630063FF
(1768226432.302210) slcan0 7E9#26006301540063FF
(1768226432.308401) slcan0 7E9#27FF01140800000F
(1768226432.309983) slcan0 7E9#28032D032B5C6100
(1768226432.312229) slcan0 7E9#29000024E00044FF
(1768226432.316210) slcan0 7E9#2A000000FFFF0FFF
(1768226432.318746) slcan0 7E9#2B0FFF0000FFFF00
(1768226432.320026) slcan0 7E9#2C0A0900FF000000
(1768226432.322186) slcan0 7E9#2DFFFFFFFFFF1AAC
(1768226432.326717) slcan0 7E9#2EFF805403E3032C
(1768226432.327942) slcan0 7E9#2FFFFF000000FFFF
(1768226432.329958) slcan0 7E9#20FFFFFFFFFF00FF
(1768226432.332204) slcan0 7E9#2100FF0101454000
(1768226432.337655) slcan0 7E9#2200FF10FFFF0000
(1768226433.497918) slcan0 7E0#0221000000000000
(1768226433.502362) slcan0 7E8#10D2610000076100
(1768226433.502521) slcan0 7E0#3000000000000000
(1768226433.509901) slcan0 7E8#21FFFFFFFF54FFFF
(1768226433.512598) slcan0 7E8#22FFFFFFFF02FF80
(1768226433.514613) slcan0 7E8#2378FFFF78FF0535
(1768226433.516364) slcan0 7E8#24FFFF84011D012C
(1768226433.517402) slcan0 7E8#25FFFF3313E0A301
(1768226433.519430) slcan0 7E8#262300205D256100
(1768226433.522041) slcan0 7E8#27FF0C007FFFFFFF
(1768226433.527387) slcan0 7E8#28FFFFFFFFFF4D25
(1768226433.529377) slcan0 7E8#29DA2613000F0FFF
(1768226433.532073) slcan0 7E8#2AFFFFFFFFFFFFFF
(1768226433.537320) slcan0 7E8#2B319CFFFFFFFFFF
(1768226433.539439) slcan0 7E8#2CFFFFFFFFFFFFFF
(1768226433.542295) slcan0 7E8#2DFFFFFFFFFFFFFF
(1768226433.544678) slcan0 7E8#2EFFFF37376438FF
(1768226433.546492) slcan0 7E8#2FFFFFFFFF09FFFF
(1768226433.547464) slcan0 7E8#20FFFFFFFFFFFF19
(1768226433.549281) slcan0 7E8#2100FFFFFFFFA900
(1768226433.552220) slcan0 7E8#22FF00FF01FFFFFF
(1768226433.556402) slcan0 7E8#23FFFF408800FF02
(1768226433.557443) slcan0 7E8#2403FFFF00FFFFFF
(1768226433.559410) slcan0 7E8#25122CFF61FFFFFF
(1768226433.562412) slcan0 7E8#26FFFFFFFFFFFFFF
(1768226433.566886) slcan0 7E8#27FFFFFFFFFFFFFF
(1768226433.567274) slcan0 7E8#28FFFFFFFFFFFFFF
(1768226433.569375) slcan0 7E8#29FFFFFFFFFFFFFF
(1768226433.572197) slcan0 7E8#2AFFFFFFFFFFFFFF
(1768226433.575893) slcan0 7E8#2BFFFFFFFFFFFFFF
(1768226433.577402) slcan0 7E8#2CFFFFFFFFFFFFFF
(1768226433.579395) slcan0 7E8#2DFFFFFFFFFFFFFF
(1768226433.582043) slcan0 7E8#2EFF000000000000
(1768226435.116311) slcan0 7DF#0201030000000000
(1768226435.122112) slcan0 7E8#0441030200000000
(1768226435.252424) slcan0 7DF#0201110000000000
(1768226435.262545) slcan0 7E8#0341112500000000
(1768226435.387445) slcan0 7DF#0201100000000000
(1768226435.396107) slcan0 7E8#044110012B000000
(1768226435.702379) slcan0 7DF#02010C0000000000
(1768226435.712494) slcan0 7E8#04410C13FC000000
(1768226435.791682) slcan0 7DF#02010D0000000000
(1768226435.802082) slcan0 7E8#03410D0000000000
(1768226436.288010) slcan0 7E1#0221050000000000
(1768226436.292096) slcan0 7E9#1082610513B00000
(1768226436.292348) slcan0 7E1#3000000000000000
(1768226436.297924) slcan0 7E9#213A385F02C910C3
(1768226436.299844) slcan0 7E9#22FFFFFFFFFF039A
(1768226436.301967) slcan0 7E9#23006400640064FF
(1768226436.308331) slcan0 7E9#2401540064FFFF00
(1768226436.309755) slcan0 7E9#25039D00630063FF
(1768226436.312033) slcan0 7E9#26006301530063FF
(1768226436.315850) slcan0 7E9#27FF01140C00000F
(1768226436.318056) slcan0 7E9#28032A03295C6100
(1768226436.319609) slcan0 7E9#29000024E0001DFF
(1768226436.321921) slcan0 7E9#2A000000FFFF0FFF
(1768226436.326426) slcan0 7E9#2B0FFF0000FFFF00
(1768226436.327843) slcan0 7E9#2C0A0900FF000000
(1768226436.329605) slcan0 7E9#2DFFFFFFFFFF1AAC
(1768226436.331890) slcan0 7E9#2EFF805C03E3032B
(1768226436.337250) slcan0 7E9#2FFFFF000000FFFF
(1768226436.337976) slcan0 7E9#20FFFFFFFFFF00FF
(1768226436.339707) slcan0 7E9#2100FF0101454000
(1768226436.341940) slcan0 7E9#2200FF10FFFF0000
(1768226437.366305) slcan0 7E0#0221000000000000
(1768226437.371994) slcan0 7E8#10D2610000076100
(1768226437.372362) slcan0 7E0#3000000000000000
(1768226437.376096) slcan0 7E8#21FFFFFFFF54FFFF
(1768226437.377132) slcan0 7E8#22FFFFFFFF02FF81
(1768226437.379144) slcan0 7E8#2378FFFF79FF0551
(1768226437.382848) slcan0 7E8#24FFFF830120012C
(1768226437.385580) slcan0 7E8#25FFFF32140CA301
(1768226437.387141) slcan0 7E8#262600205D256100
(1768226437.389292) slcan0 7E8#27FF0C017FFFFFFF
(1768226437.392237) slcan0 7E8#28FFFFFFFFFF4D25
(1768226437.395852) slcan0 7E8#29DA2613000F0FFF
(1768226437.397329) slcan0 7E8#2AFFFFFFFFFFFFFF
(1768226437.399242) slcan0 7E8#2B9C9CFFFFFFFFFF
(1768226437.402296) slcan0 7E8#2CFFFFFFFFFFFFFF
(1768226437.408016) slcan0 7E8#2DFFFFFFFFFFFFFF
(1768226437.409281) slcan0 7E8#2EFFFF37086538FF
(1768226437.412188) slcan0 7E8#2FFFFFFFFF09FFFF
(1768226437.416372) slcan0 7E8#20FFFFFFFFFFFF19
(1768226437.417348) slcan0 7E8#2100FFFFFFFFA900
(1768226437.419162) slcan0 7E8#22FF00FF01FFFFFF
(1768226437.421920) slcan0 7E8#23FFFF408800FF02
(1768226437.426709) slcan0 7E8#2403FFFF00FFFFFF
(1768226437.427196) slcan0 7E8#25122DFF61FFFFFF
(1768226437.429158) slcan0 7E8#26FFFFFFFFFFFFFF
(1768226437.431878) slcan0 7E8#27FFFFFFFFFFFFFF
(1768226437.436557) slcan0 7E8#28FFFFFFFFFFFFFF
(1768226437.437148) slcan0 7E8#29FFFFFFFFFFFFFF
(1768226437.439282) slcan0 7E8#2AFFFFFFFFFFFFFF
(1768226437.442832) slcan0 7E8#2BFFFFFFFFFFFFFF
(1768226437.446099) slcan0 7E8#2CFFFFFFFFFFFFFF
(1768226437.447166) slcan0 7E8#2DFFFFFFFFFFFFFF
(1768226437.449148) slcan0 7E8#2EFF000000000000
(1768226438.987254) slcan0 7DF#0201030000000000
(1768226438.991751) slcan0 7E8#0441030200000000
(1768226439.121080) slcan0 7DF#0201110000000000
(1768226439.133024) slcan0 7E8#0341112500000000
(1768226439.256245) slcan0 7DF#0201100000000000
(1768226439.262426) slcan0 7E8#0441100126000000
(1768226439.571323) slcan0 7DF#02010C0000000000
(1768226439.581979) slcan0 7E8#04410C13FC000000
(1768226439.752267) slcan0 7DF#02010D0000000000
(1768226439.762963) slcan0 7E8#03410D0000000000
(1768226440.022215) slcan0 7DF#02010B0000000000
(1768226440.032800) slcan0 7E8#03410B2000000000
(1768226440.156319) slcan0 7DF#0201030000000000
(1768226440.163050) slcan0 7E8#0441030200000000
(1768226440.246292) slcan0 7DF#0201110000000000
(1768226440.252456) slcan0 7E8#0341112500000000
(1768226440.336206) slcan0 7DF#0201100000000000
(1768226440.342351) slcan0 7E8#0441100123000000
(1768226440.606391) slcan0 7DF#0201030000000000
(1768226440.612424) slcan0 7E8#0441030200000000
(1768226440.741632) slcan0 7DF#0201110000000000
(1768226440.752518) slcan0 7E8#0341112500000000
(1768226440.876350) slcan0 7DF#0201100000000000
(1768226440.882112) slcan0 7E8#0441100126000000
(1768226441.191448) slcan0 7DF#02010C0000000000
(1768226441.201833) slcan0 7E8#04410C13F8000000
(1768226441.372392) slcan0 7DF#02010D0000000000
(1768226441.381901) slcan0 7E8#03410D0000000000
(1768226441.642565) slcan0 7DF#02010B0000000000
(1768226441.652403) slcan0 7E8#03410B2000000000
(1768226441.776538) slcan0 7DF#0201030000000000
(1768226441.782982) slcan0 7E8#0441030200000000
(1768226441.866553) slcan0 7DF#0201110000000000
(1768226441.872184) slcan0 7E8#0341112500000000
(1768226441.956528) slcan0 7DF#0201100000000000
(1768226441.967058) slcan0 7E8#0441100126000000
(1768226442.181475) slcan0 7DF#02010C0000000000
(1768226442.191966) slcan0 7E8#04410C13EA000000
(1768226442.316497) slcan0 7DF#02010D0000000000
(1768226442.321905) slcan0 7E8#03410D0000000000
(1768226442.542645) slcan0 7DF#02010B0000000000
(1768226442.552321) slcan0 7E8#03410B2000000000
(1768226442.631753) slcan0 7DF#0201030000000000
(1768226442.641979) slcan0 7E8#0441030200000000
(1768226442.721753) slcan0 7DF#0201110000000000
(1768226442.732154) slcan0 7E8#0341112500000000
(1768226442.811758) slcan0 7DF#0201100000000000
(1768226442.821913) slcan0 7E8#0441100126000000
(1768226443.127744) slcan0 7DF#02010C0000000000
(1768226443.131991) slcan0 7E8#04410C13EA000000
(1768226443.216754) slcan0 7DF#02010D0000000000
(1768226443.221926) slcan0 7E8#03410D0000000000
(1768226443.397758) slcan0 7DF#02010B0000000000
(1768226443.401848) slcan0 7E8#03410B2000000000
(1768226443.487927) slcan0 7DF#0201030000000000
(1768226443.491700) slcan0 7E8#0441030200000000
(1768226443.576024) slcan0 7DF#0201490000000000
(1768226443.581818) slcan0 7E8#0341492500000000
(1768226443.710945) slcan0 7DF#02014A0000000000
(1768226443.721753) slcan0 7E8#03414A1300000000
(1768226443.846244) slcan0 7DF#02014C0000000000
(1768226443.856592) slcan0 7E8#03414C0F00000000
(1768226443.981229) slcan0 7DF#0201030000000000
(1768226443.991776) slcan0 7E8#0441030200000000
(1768226444.116356) slcan0 7DF#0201110000000000
(1768226444.121884) slcan0 7E8#0341112500000000
(1768226444.251394) slcan0 7DF#0201100000000000
(1768226444.262613) slcan0 7E8#0441100126000000
(1768226444.522619) slcan0 7DF#02010C0000000000
(1768226444.532260) slcan0 7E8#04410C13D2000000
(1768226444.656596) slcan0 7DF#02010D0000000000
(1768226444.664164) slcan0 7E8#03410D0000000000
(1768226444.836781) slcan0 7DF#0201490000000000
(1768226444.841872) slcan0 7E8#0341492500000000
(1768226444.927961) slcan0 7DF#02014A0000000000
(1768226444.932118) slcan0 7E8#03414A1300000000
(1768226445.016874) slcan0 7DF#02014C0000000000
(1768226445.021819) slcan0 7E8#03414C0F00000000
(1768226445.107997) slcan0 7DF#0201030000000000
(1768226445.111778) slcan0 7E8#0441030200000000
(1768226445.197911) slcan0 7DF#0201110000000000
(1768226445.201831) slcan0 7E8#0341112500000000
(1768226445.331751) slcan0 7DF#0201100000000000
(1768226445.341658) slcan0 7E8#0441100129000000
(1768226445.646973) slcan0 7DF#02010C0000000000
(1768226445.652014) slcan0 7E8#04410C1402000000
(1768226445.735983) slcan0 7DF#02010D0000000000
(1768226445.742004) slcan0 7E8#03410D0000000000
(1768226445.871011) slcan0 7DF#0201490000000000
(1768226445.883080) slcan0 7E8#0341492500000000
(1768226445.961430) slcan0 7DF#02014A0000000000
(1768226445.971853) slcan0 7E8#03414A1300000000
(1768226446.050953) slcan0 7DF#02014C0000000000
(1768226446.067811) slcan0 7E8#03414C0F00000000
(1768226446.141142) slcan0 7DF#0201030000000000
(1768226446.152051) slcan0 7E8#0441030200000000
(1768226446.231145) slcan0 7DF#0201110000000000
(1768226446.241819) slcan0 7E8#0341112500000000
(1768226446.321135) slcan0 7DF#0201100000000000
(1768226446.332058) slcan0 7E8#0441100126000000
(1768226446.547082) slcan0 7DF#0201310000000000
(1768226446.552191) slcan0 7E8#044131867E000000
(1768226446.680940) slcan0 7DF#0201330000000000
(1768226446.691539) slcan0 7E8#0341336100000000
(1768226446.816205) slcan0 7DF#0201420000000000
(1768226446.821801) slcan0 7E8#0441423737000000
(1768226446.951194) slcan0 7DF#0201430000000000
(1768226446.962679) slcan0 7E8#044143003C000000
(1768226447.086389) slcan0 7DF#0201450000000000
(1768226447.091635) slcan0 7E8#0341450B00000000
(1768226447.221328) slcan0 7DF#0201470000000000
(1768226447.231992) slcan0 7E8#0341472400000000
(1768226447.356293) slcan0 7DF#0201490000000000
(1768226447.365395) slcan0 7E8#0341492500000000
(1768226447.491243) slcan0 7DF#02014A0000000000
(1768226447.501644) slcan0 7E8#03414A1300000000
(1768226447.626392) slcan0 7DF#02014C0000000000
(1768226447.631956) slcan0 7E8#03414C0F00000000
(1768226447.761293) slcan0 7DF#0201030000000000
(1768226447.771973) slcan0 7E8#0441030200000000
(1768226447.896600) slcan0 7DF#0201110000000000
(1768226447.902159) slcan0 7E8#0341112500000000
(1768226448.031615) slcan0 7DF#0201100000000000
(1768226448.041783) slcan0 7E8#0441100126000000
(1768226448.257615) slcan0 7DF#0201300000000000
(1768226448.265687) slcan0 7E8#034130FF00000000
(1768226448.391659) slcan0 7DF#0201310000000000
(1768226448.401841) slcan0 7E8#044131867E000000
(1768226448.526790) slcan0 7DF#0201330000000000
(1768226448.532025) slcan0 7E8#0341336100000000
(1768226448.661578) slcan0 7DF#0201420000000000
(1768226448.671861) slcan0 7E8#04414236C1000000
(1768226448.796728) slcan0 7DF#0201430000000000
(1768226448.802061) slcan0 7E8#044143003C000000
(1768226448.931783) slcan0 7DF#0201450000000000
(1768226448.941672) slcan0 7E8#0341450B00000000
(1768226449.066920) slcan0 7DF#0201470000000000
(1768226449.072069) slcan0 7E8#0341472400000000
(1768226449.201869) slcan0 7DF#0201490000000000
(1768226449.211879) slcan0 7E8#0341492500000000
(1768226449.336849) slcan0 7DF#02014A0000000000
(1768226449.341526) slcan0 7E8#03414A1300000000
(1768226449.470862) slcan0 7DF#02014C0000000000
(1768226449.481618) slcan0 7E8#03414C0F00000000
(1768226449.605972) slcan0 7DF#0201030000000000
(1768226449.611559) slcan0 7E8#0441030200000000
(1768226449.741009) slcan0 7DF#0201110000000000
(1768226449.751902) slcan0 7E8#0341112500000000
(1768226449.922021) slcan0 7DF#0201100000000000
(1768226449.931984) slcan0 7E8#0441100126000000
(1768226450.147128) slcan0 7DF#02010C0000000000
(1768226450.151826) slcan0 7E8#04410C1400000000
(1768226450.281093) slcan0 7DF#02010D0000000000
(1768226450.291601) slcan0 7E8#03410D0000000000
(1768226450.416388) slcan0 7DF#0201300000000000
(1768226450.426111) slcan0 7E8#034130FF00000000
(1768226450.506461) slcan0 7DF#0201310000000000
(1768226450.511823) slcan0 7E8#044131867E000000
(1768226450.596461) slcan0 7DF#0201330000000000
(1768226450.602039) slcan0 7E8#0341336100000000
(1768226450.686225) slcan0 7DF#0201420000000000
(1768226450.691593) slcan0 7E8#044142367B000000
(1768226450.776372) slcan0 7DF#0201430000000000
(1768226450.782148) slcan0 7E8#044143003B000000
(1768226450.866573) slcan0 7DF#0201450000000000
(1768226450.872433) slcan0 7E8#0341450B00000000
(1768226450.956438) slcan0 7DF#0201470000000000
(1768226450.966145) slcan0 7E8#0341472400000000
(1768226451.046585) slcan0 7DF#0201490000000000
(1768226451.052416) slcan0 7E8#0341492500000000
(1768226451.136506) slcan0 7DF#02014A0000000000
(1768226451.142166) slcan0 7E8#03414A1300000000
(1768226451.226620) slcan0 7DF#02014C0000000000
(1768226451.232285) slcan0 7E8#03414C0F00000000
(1768226451.316509) slcan0 7DF#0201030000000000
(1768226451.322533) slcan0 7E8#0441030200000000
(1768226451.406422) slcan0 7DF#0201110000000000
(1768226451.411776) slcan0 7E8#0341112500000000
(1768226451.496588) slcan0 7DF#0201100000000000
(1768226451.502255) slcan0 7E8#0441100126000000
(1768226451.631521) slcan0 7DF#02011F0000000000
(1768226451.641743) slcan0 7E8#04411F026A000000
(1768226451.766574) slcan0 7DF#0201210000000000
(1768226451.772493) slcan0 7E8#0441210000000000
(1768226451.901696) slcan0 7DF#0201230000000000
(1768226451.911624) slcan0 7E8#0441230121000000
(1768226452.036739) slcan0 7DF#02012E0000000000
(1768226452.041917) slcan0 7E8#03412E0000000000
(1768226452.172845) slcan0 7DF#0201300000000000
(1768226452.181658) slcan0 7E8#034130FF00000000
(1768226452.306678) slcan0 7DF#0201310000000000
(1768226452.311490) slcan0 7E8#044131867E000000
(1768226452.442891) slcan0 7DF#0201330000000000
(1768226452.456512) slcan0 7E8#0341336100000000
(1768226452.576830) slcan0 7DF#0201420000000000
(1768226452.581875) slcan0 7E8#0441423795000000
(1768226452.712890) slcan0 7DF#0201430000000000
(1768226452.721771) slcan0 7E8#044143003B000000
(1768226452.846880) slcan0 7DF#0201450000000000
(1768226452.852110) slcan0 7E8#0341450B00000000
(1768226452.982888) slcan0 7DF#0201470000000000
(1768226452.991458) slcan0 7E8#0341472400000000
(1768226453.116930) slcan0 7DF#0201490000000000
(1768226453.122355) slcan0 7E8#0341492500000000
(1768226453.251041) slcan0 7DF#02014A0000000000
(1768226453.265768) slcan0 7E8#03414A1300000000
(1768226453.385980) slcan0 7DF#02014C0000000000
(1768226453.391515) slcan0 7E8#03414C0F00000000
(1768226453.522195) slcan0 7DF#0201030000000000
(1768226453.531925) slcan0 7E8#0441030200000000
(1768226453.655990) slcan0 7DF#0201110000000000
(1768226453.665755) slcan0 7E8#0341112500000000
(1768226453.836198) slcan0 7DF#0201100000000000
(1768226453.841909) slcan0 7E8#0441100126000000
(1768226454.152195) slcan0 7DF#02010C0000000000
(1768226454.165924) slcan0 7E8#04410C1404000000
(1768226454.332188) slcan0 7DF#02011F0000000000
(1768226454.341533) slcan0 7E8#04411F026D000000
(1768226454.421234) slcan0 7DF#0201210000000000
(1768226454.432064) slcan0 7E8#0441210000000000
(1768226454.511432) slcan0 7DF#0201230000000000
(1768226454.522139) slcan0 7E8#0441230124000000
(1768226454.601268) slcan0 7DF#02012E0000000000
(1768226454.611392) slcan0 7E8#03412E0000000000
(1768226454.691171) slcan0 7DF#0201300000000000
(1768226454.701432) slcan0 7E8#034130FF00000000
(1768226454.781513) slcan0 7DF#0201310000000000
(1768226454.791524) slcan0 7E8#044131867E000000
(1768226454.871532) slcan0 7DF#0201330000000000
(1768226454.881530) slcan0 7E8#0341336100000000
(1768226454.961560) slcan0 7DF#0201420000000000
(1768226454.971753) slcan0 7E8#0441423737000000
(1768226455.051661) slcan0 7DF#0201430000000000
(1768226455.066070) slcan0 7E8#044143003B000000
(1768226455.141573) slcan0 7DF#0201450000000000
(1768226455.151706) slcan0 7E8#0341450B00000000
(1768226455.231661) slcan0 7DF#0201470000000000
(1768226455.241540) slcan0 7E8#0341472400000000
(1768226455.457554) slcan0 7DF#0201010000000000
(1768226455.467373) slcan0 7E8#0641010007610000
(1768226455.591830) slcan0 7DF#0201030000000000
(1768226455.601661) slcan0 7E8#0441030200000000
(1768226455.726858) slcan0 7DF#0201000000000000
(1768226455.731926) slcan0 7E8#064100BE3FB80300
(1768226455.952901) slcan0 7DF#0201000000000000
(1768226455.965778) slcan0 7E8#064100BE3FB80300
(1768226456.176947) slcan0 7DF#0201000000000000
(1768226456.181806) slcan0 7E8#064100BE3FB80300
(1768226456.402002) slcan0 7DF#0201000000000000
(1768226456.412594) slcan0 7E8#064100BE3FB80300
(1768226456.627111) slcan0 7DF#0201000000000000
(1768226456.632322) slcan0 7E8#064100BE3FB80300
(1768226456.852254) slcan0 7DF#0201000000000000
(1768226456.862624) slcan0 7E8#064100BE3FB80300
(1768226457.077184) slcan0 7DF#0201000000000000
(1768226457.081841) slcan0 7E8#064100BE3FB80300
(1768226457.302372) slcan0 7DF#0201000000000000
(1768226457.311331) slcan0 7E8#064100BE3FB80300
(1768226457.527353) slcan0 7DF#0201000000000000
(1768226457.532084) slcan0 7E8#064100BE3FB80300
(1768226457.752456) slcan0 7DF#0201000000000000
(1768226457.765405) slcan0 7E8#064100BE3FB80300
(1768226457.977449) slcan0 7DF#0201000000000000
(1768226457.981588) slcan0 7E8#064100BE3FB80300
(1768226458.246574) slcan0 7DF#0201000000000000
(1768226458.251752) slcan0 7E8#064100BE3FB80300
(1768226458.427695) slcan0 7DF#0201000000000000
(1768226458.432102) slcan0 7E8#064100BE3FB80300
(1768226458.652773) slcan0 7DF#0201000000000000
(1768226458.666050) slcan0 7E8#064100BE3FB80300
(1768226458.877893) slcan0 7DF#0201000000000000
(1768226458.881647) slcan0 7E8#064100BE3FB80300
(1768226459.101954) slcan0 7DF#0201000000000000
(1768226459.111263) slcan0 7E8#064100BE3FB80300
(1768226459.327164) slcan0 7DF#0201000000000000
(1768226459.332055) slcan0 7E8#064100BE3FB80300
(1768226459.552118) slcan0 7DF#0201000000000000
(1768226459.566162) slcan0 7E8#064100BE3FB80300
(1768226459.777125) slcan0 7DF#0201000000000000
(1768226459.781434) slcan0 7E8#064100BE3FB80300
(1768226460.002140) slcan0 7DF#0201000000000000
(1768226460.011364) slcan0 7E8#064100BE3FB80300
(1768226460.227433) slcan0 7DF#0201000000000000
(1768226460.232010) slcan0 7E8#064100BE3FB80300
(1768226460.452564) slcan0 7DF#0201000000000000
(1768226460.465366) slcan0 7E8#064100BE3FB80300
(1768226460.677515) slcan0 7DF#0201000000000000
(1768226460.681152) slcan0 7E8#064100BE3FB80300
(1768226460.903055) slcan0 7DF#0201000000000000
(1768226460.911608) slcan0 7E8#064100BE3FB80300
(1768226461.171126) slcan0 7DF#0201000000000000
(1768226461.181447) slcan0 7E8#064100BE3FB80300
(1768226461.352438) slcan0 7DF#0201000000000000
(1768226461.365488) slcan0 7E8#064100BE3FB80300
(1768226461.577405) slcan0 7DF#0201000000000000
(1768226461.581493) slcan0 7E8#064100BE3FB80300
(1768226461.846570) slcan0 7DF#0201000000000000
(1768226461.852119) slcan0 7E8#064100BE3FB80300
(1768226462.027766) slcan0 7DF#0201000000000000
(1768226462.032214) slcan0 7E8#064100BE3FB80300
(1768226462.252834) slcan0 7DF#0201000000000000
(1768226462.265514) slcan0 7E8#064100BE3FB80300
(1768226462.521842) slcan0 7DF#0201000000000000
(1768226462.532209) slcan0 7E8#064100BE3FB80300
(1768226462.702927) slcan0 7DF#0201000000000000
(1768226462.711181) slcan0 7E8#064100BE3FB80300
(1768226462.927053) slcan0 7DF#0201000000000000
(1768226462.932240) slcan0 7E8#064100BE3FB80300
(1768226463.196230) slcan0 7DF#0201000000000000
(1768226463.201274) slcan0 7E8#064100BE3FB80300
(1768226463.377199) slcan0 7DF#0201000000000000
(1768226463.381106) slcan0 7E8#064100BE3FB80300
(1768226463.602374) slcan0 7DF#0201000000000000
(1768226463.611597) slcan0 7E8#064100BE3FB80300
(1768226463.871499) slcan0 7DF#0201000000000000
(1768226463.881318) slcan0 7E8#064100BE3FB80300
(1768226464.052811) slcan0 7DF#0201000000000000
(1768226464.065768) slcan0 7E8#064100BE3FB80300
(1768226464.277865) slcan0 7DF#0201000000000000
(1768226464.281068) slcan0 7E8#064100BE3FB80300

