(1768226189.771533) slcan0 263#0221080000000000
(1768226189.778979) slcan0 663#102A61087FF1FFFF
(1768226189.779015) slcan0 263#3000000000000000
(1768226189.785103) slcan0 663#210026B67ACD817E
(1768226189.786812) slcan0 663#2284000000C849FF
(1768226189.790640) slcan0 663#2313FF1004FF00FF
(1768226189.794810) slcan0 663#243333FFFF004EFF
(1768226189.799224) slcan0 663#25FFFFFF00004B42
(1768226189.805379) slcan0 663#263C000000000000
(1768226189.869636) slcan0 263#0221080000000000
(1768226189.875216) slcan0 663#102A61087FF1FFFF
(1768226189.875392) slcan0 263#3000000000000000
(1768226189.878867) slcan0 663#210026B67ACD817E
(1768226189.885458) slcan0 663#2284000000C848FF
(1768226189.886911) slcan0 663#2313FF1004FF00FF
(1768226189.890560) slcan0 663#243333FFFF004EFF
(1768226189.895013) slcan0 663#25FFFFFF00004B42
(1768226189.898951) slcan0 663#263C000000000000
(1768226189.965428) slcan0 263#021A8A0000000000
(1768226189.966761) slcan0 663#10125A8A33383732
(1768226189.966937) slcan0 263#3000000000000000
(1768226189.970701) slcan0 663#21302D373652312A
(1768226189.975556) slcan0 663#2200000000000000
(1768226190.050648) slcan0 263#0221080000000000
(1768226190.055362) slcan0 663#102A61087FF1FFFF
(1768226190.055629) slcan0 263#3000000000000000
(1768226190.058812) slcan0 663#210026B67BCD817E
(1768226190.065916) slcan0 663#2284000000C848FF
(1768226190.066776) slcan0 663#2313FF1004FF00FF
(1768226190.070787) slcan0 663#243333FFFF004EFF
(1768226190.075392) slcan0 663#25FFFFFF00004B42
(1768226190.079014) slcan0 663#263C000000000000
(1768226190.130613) slcan0 263#021A8E0000000000
(1768226190.135165) slcan0 663#10125A8E33383732
(1768226190.135424) slcan0 263#3000000000000000
(1768226190.138955) slcan0 663#21302D3736523100
(1768226190.146487) slcan0 663#2200000000000000
(1768226190.222609) slcan0 263#0221080000000000
(1768226190.226538) slcan0 663#102A61087FF1FFFF
(1768226190.226876) slcan0 263#3000000000000000
(1768226190.231008) slcan0 663#210026B67BCD817E
(1768226190.235503) slcan0 663#2284000000C848FF
(1768226190.238882) slcan0 663#2313FF1004FF00FF
(1768226190.246538) slcan0 663#243333FFFF004EFF
(1768226190.250340) slcan0 663#25FFFFFF00004B42
(1768226190.255270) slcan0 663#263C000000000000
(1768226190.374755) slcan0 263#0221080000000000
(1768226190.378957) slcan0 663#102A61087FF1FFFF
(1768226190.379160) slcan0 263#3000000000000000
(1768226190.385194) slcan0 663#210026B67ACD817E
(1768226190.386682) slcan0 663#2284000000C848FF
(1768226190.390579) slcan0 663#2313FF1004FF00FF
(1768226190.395121) slcan0 663#243333FFFF004EFF
(1768226190.399270) slcan0 663#25FFFFFF00004B42
(1768226190.405506) slcan0 663#263C000000000000
(1768226190.460772) slcan0 263#0221080000000000
(1768226190.465824) slcan0 663#102A61087FF1FFFF
(1768226190.466175) slcan0 263#3000000000000000
(1768226190.470975) slcan0 663#210026B67ACD817E
(1768226190.476558) slcan0 663#2284000000C848FF
(1768226190.478925) slcan0 663#2313FF1004FF00FF
(1768226190.485595) slcan0 663#243333FFFF004EFF
(1768226190.486611) slcan0 663#25FFFFFF00004B42
(1768226190.490569) slcan0 663#263C000000000000
(1768226190.550855) slcan0 263#0221080000000000
(1768226190.555592) slcan0 663#102A61087FF1FFFF
(1768226190.555845) slcan0 263#3000000000000000
(1768226190.558877) slcan0 663#210026B67BCD817E
(1768226190.565556) slcan0 663#2285000000C848FF
(1768226190.566602) slcan0 663#2313FF1004FF00FF
(1768226190.570673) slcan0 663#243333FFFF004EFF
(1768226190.576109) slcan0 663#25FFFFFF00004B42
(1768226190.579201) slcan0 663#263C000000000000
(1768226190.642016) slcan0 263#041800FF00000000
(1768226190.646991) slcan0 663#0258000000000000
(1768226190.721839) slcan0 263#0221080000000000
(1768226190.726577) slcan0 663#102A61087FF1FFFF
(1768226190.726836) slcan0 263#3000000000000000
(1768226190.730887) slcan0 663#210026B67BCD817E
(1768226190.735817) slcan0 663#2284000000C848FF
(1768226190.738988) slcan0 663#2313FF1004FF00FF
(1768226190.746357) slcan0 663#243333FFFF004EFF
(1768226190.750913) slcan0 663#25FFFFFF00004B42
(1768226190.755403) slcan0 663#263C000000000000
(1768226190.826975) slcan0 263#0221080000000000
(1768226190.831137) slcan0 663#102A61087FF1FFFF
(1768226190.831269) slcan0 263#3000000000000000
(1768226190.838865) slcan0 663#210026B67BCD817E
(1768226190.847082) slcan0 663#2285000000C848FF
(1768226190.850988) slcan0 663#2313FF1004FF00FF
(1768226190.855535) slcan0 663#243333FFFF004EFF
(1768226190.858780) slcan0 663#25FFFFFF00004B42
(1768226190.865551) slcan0 663#263C000000000000
(1768226190.903006) slcan0 263#0221080000000000
(1768226190.906638) slcan0 663#102A61087FF1FFFF
(1768226190.906805) slcan0 263#3000000000000000
(1768226190.910594) slcan0 663#210026B67ACE817E
(1768226190.917886) slcan0 663#2284000000C848FF
(1768226190.919126) slcan0 663#2313FF1004FF00FF
(1768226190.925459) slcan0 663#243333FFFF004EFF
(1768226190.926531) slcan0 663#25FFFFFF00004B42
(1768226190.930952) slcan0 663#263C000000000000
(1768226191.070925) slcan0 263#0221080000000000
(1768226191.074839) slcan0 663#102A61087FF1FFFF
(1768226191.075000) slcan0 263#3000000000000000
(1768226191.078787) slcan0 663#210026B67ACD817E
(1768226191.085421) slcan0 663#2285000000C847FF
(1768226191.086444) slcan0 663#2313FF1004FF00FF
(1768226191.090330) slcan0 663#243333FFFF004EFF
(1768226191.095131) slcan0 663#25FFFFFF00004B42
(1768226191.098887) slcan0 663#263C000000000000
(1768226191.121955) slcan0 263#0221080000000000
(1768226191.126503) slcan0 663#102A61087FF1FFFF
(1768226191.126742) slcan0 263#3000000000000000
(1768226191.131076) slcan0 663#210026B67ACD817E
(1768226191.135088) slcan0 663#2284000000C847FF
(1768226191.138777) slcan0 663#2313FF1004FF00FF
(1768226191.146601) slcan0 663#243333FFFF004EFF
(1768226191.150427) slcan0 663#25FFFFFF00004B42
(1768226191.155348) slcan0 663#263C000000000000
(1768226191.179062) slcan0 263#0221080000000000
(1768226191.185401) slcan0 663#102A61087FF1FFFF
(1768226191.185581) slcan0 263#3000000000000000
(1768226191.190197) slcan0 663#210026B67ACD817E
(1768226191.194683) slcan0 663#2284000000C848FF
(1768226191.198916) slcan0 663#2313FF1004FF00FF
(1768226191.205528) slcan0 663#243333FFFF004EFF
(1768226191.206362) slcan0 663#25FFFFFF00004B42
(1768226191.210196) slcan0 663#263C000000000000
(1768226191.258063) slcan0 263#0221080000000000
(1768226191.266141) slcan0 663#102A61087FF1FFFF
(1768226191.266155) slcan0 263#3000000000000000
(1768226191.270280) slcan0 663#210026B67ACD817E
(1768226191.275442) slcan0 663#2284000000C847FF
(1768226191.278920) slcan0 663#2313FF1004FF00FF
(1768226191.285323) slcan0 663#243333FFFF004EFF
(1768226191.286463) slcan0 663#25FFFFFF00004B42
(1768226191.290420) slcan0 663#263C000000000000
(1768226191.349107) slcan0 263#0221080000000000
(1768226191.350438) slcan0 663#102A61087FF1FFFF
(1768226191.350562) slcan0 263#3000000000000000
(1768226191.354915) slcan0 663#210026B67ACD817E
(1768226191.359155) slcan0 663#2284000000C847FF
(1768226191.365517) slcan0 663#2313FF1004FF00FF
(1768226191.366426) slcan0 663#243333FFFF004EFF
(1768226191.370347) slcan0 663#25FFFFFF00004B42
(1768226191.375071) slcan0 663#263C000000000000
(1768226191.433068) slcan0 263#0221080000000000
(1768226191.439382) slcan0 663#102A61087FF1FFFF
(1768226191.439620) slcan0 263#3000000000000000
(1768226191.446466) slcan0 663#210026B67BCD817E
(1768226191.450278) slcan0 663#2284000000C847FF
(1768226191.455296) slcan0 663#2313FF1004FF00FF
(1768226191.458916) slcan0 663#243333FFFF004EFF
(1768226191.465471) slcan0 663#25FFFFFF00004B42
(1768226191.466359) slcan0 663#263C000000000000
(1768226191.513206) slcan0 263#0221080000000000
(1768226191.519254) slcan0 663#102A61087FF1FFFF
(1768226191.519429) slcan0 263#3000000000000000
(1768226191.525406) slcan0 663#210026B67BCD817E
(1768226191.526421) slcan0 663#2284000000C848FF
(1768226191.531014) slcan0 663#2313FF1004FF00FF
(1768226191.535110) slcan0 663#243333FFFF004EFF
(1768226191.539339) slcan0 663#25FFFFFF00004B42
(1768226191.546404) slcan0 663#263C000000000000
(1768226191.614129) slcan0 263#0221080000000000
(1768226191.619743) slcan0 663#102A61087FF1FFFF
(1768226191.619989) slcan0 263#3000000000000000
(1768226191.625932) slcan0 663#210026B67ACD817E
(1768226191.626390) slcan0 663#2284000000C848FF
(1768226191.630897) slcan0 663#2313FF1004FF00FF
(1768226191.635317) slcan0 663#243333FFFF004EFF
(1768226191.639099) slcan0 663#25FFFFFF00004B42
(1768226191.646165) slcan0 663#263C000000000000
(1768226191.689185) slcan0 263#0221080000000000
(1768226191.690352) slcan0 663#102A61087FF1FFFF
(1768226191.690493) slcan0 263#3000000000000000
(1768226191.694904) slcan0 663#210026B67BCD817E
(1768226191.699100) slcan0 663#2284000000C848FF
(1768226191.705561) slcan0 663#2313FF1004FF00FF
(1768226191.706369) slcan0 663#243333FFFF004EFF
(1768226191.710353) slcan0 663#25FFFFFF00004B42
(1768226191.717038) slcan0 663#263C000000000000
(1768226191.777167) slcan0 263#0221080000000000
(1768226191.779220) slcan0 663#102A61087FF1FFFF
(1768226191.779426) slcan0 263#3000000000000000
(1768226191.785184) slcan0 663#210026B67BCD817E
(1768226191.786358) slcan0 663#2284000000C848FF
(1768226191.790353) slcan0 663#2313FF1004FF00FF
(1768226191.794768) slcan0 663#243333FFFF004EFF
(1768226191.799866) slcan0 663#25FFFFFF00004B42
(1768226191.805664) slcan0 663#263C000000000000
(1768226191.859210) slcan0 263#0221080000000000
(1768226191.865745) slcan0 663#102A61087FF1FFFF
(1768226191.866094) slcan0 263#3000000000000000
(1768226191.870347) slcan0 663#210026B67BCD817E
(1768226191.875354) slcan0 663#2284000000C848FF
(1768226191.878917) slcan0 663#2313FF1004FF00FF
(1768226191.885332) slcan0 663#243333FFFF004EFF
(1768226191.886380) slcan0 663#25FFFFFF00004A42
(1768226191.890172) slcan0 663#263C000000000000
(1768226191.948159) slcan0 263#041800FF00000000
(1768226191.951015) slcan0 663#0258000000000000
(1768226192.027172) slcan0 263#0221080000000000
(1768226192.031279) slcan0 663#102A61087FF1FFFF
(1768226192.031317) slcan0 263#3000000000000000
(1768226192.039129) slcan0 663#210026B67ACD817E
(1768226192.046658) slcan0 663#2285000000C848FF
(1768226192.050247) slcan0 663#2313FF1004FF00FF
(1768226192.055242) slcan0 663#243333FFFF004EFF
(1768226192.059115) slcan0 663#25FFFFFF00004B42
(1768226192.065600) slcan0 663#263C000000000000
(1768226192.195177) slcan0 263#0221080000000000
(1768226192.199345) slcan0 663#102A61087FF1FFFF
(1768226192.199576) slcan0 263#3000000000000000
(1768226192.205434) slcan0 663#210026B67BCD817E
(1768226192.206348) slcan0 663#2284000000C848FF
(1768226192.209958) slcan0 663#2313FF1004FF00FF
(1768226192.216908) slcan0 663#243333FFFF004EFF
(1768226192.218893) slcan0 663#25FFFFFF00004B42
(1768226192.225550) slcan0 663#263C000000000000
(1768226192.285227) slcan0 263#0221080000000000
(1768226192.290154) slcan0 663#102A61087FF1FFFF
(1768226192.290331) slcan0 263#3000000000000000
(1768226192.295186) slcan0 663#210026B67ACD817E
(1768226192.298861) slcan0 663#2285000000C847FF
(1768226192.305365) slcan0 663#2313FF1004FF00FF
(1768226192.306313) slcan0 663#243333FFFF004EFF
(1768226192.309968) slcan0 663#25FFFFFF00004B42
(1768226192.316982) slcan0 663#263C000000000000
(1768226192.388352) slcan0 263#0221080000000000
(1768226192.390098) slcan0 663#102A61087FF1FFFF
(1768226192.390320) slcan0 263#3000000000000000
(1768226192.394787) slcan0 663#210026B67BCD817E
(1768226192.399264) slcan0 663#2284000000C847FF
(1768226192.406263) slcan0 663#2313FF1004FF00FF
(1768226192.410212) slcan0 663#243333FFFF004EFF
(1768226192.417112) slcan0 663#25FFFFFF00004B42
(1768226192.419019) slcan0 663#263C000000000000
(1768226192.458456) slcan0 263#0221080000000000
(1768226192.466616) slcan0 663#102A61087FF1FFFF
(1768226192.466797) slcan0 263#3000000000000000
(1768226192.470163) slcan0 663#210026B67ACD817E
(1768226192.475180) slcan0 663#2284000000C847FF
(1768226192.478920) slcan0 663#2313FF1004FF00FF
(1768226192.486580) slcan0 663#243333FFFF004EFF
(1768226192.490208) slcan0 663#25FFFFFF00004B42
(1768226192.494823) slcan0 663#263C000000000000
(1768226192.539532) slcan0 263#0221080000000000
(1768226192.546872) slcan0 663#102A61087FF1FFFF
(1768226192.547100) slcan0 263#3000000000000000
(1768226192.550160) slcan0 663#210026B67ACD817E
(1768226192.555045) slcan0 663#2285000000C847FF
(1768226192.559391) slcan0 663#2313FF1004FF00FF
(1768226192.565771) slcan0 663#243333FFFF004EFF
(1768226192.566449) slcan0 663#25FFFFFF00004B42
(1768226192.570190) slcan0 663#263C000000000000
(1768226192.626423) slcan0 263#0221080000000000
(1768226192.630991) slcan0 663#102A61087FF1FFFF
(1768226192.631227) slcan0 263#3000000000000000
(1768226192.638958) slcan0 663#210026B67BCD817E
(1768226192.647111) slcan0 663#2285000000C847FF
(1768226192.650075) slcan0 663#2313FF1004FF00FF
(1768226192.655361) slcan0 663#243333FFFF004EFF
(1768226192.658880) slcan0 663#25FFFFFF00004B42
(1768226192.665655) slcan0 663#263C000000000000
(1768226192.706423) slcan0 263#0221080000000000
(1768226192.710167) slcan0 663#102A61087FF1FFFF
(1768226192.710351) slcan0 263#3000000000000000
(1768226192.717213) slcan0 663#210026B67ACD817E
(1768226192.718924) slcan0 663#2284000000C847FF
(1768226192.725527) slcan0 663#2313FF1004FF00FF
(1768226192.726147) slcan0 663#243333FFFF004EFF
(1768226192.730835) slcan0 663#25FFFFFF00004B42
(1768226192.735263) slcan0 663#263C000000000000
(1768226192.797701) slcan0 263#0221080000000000
(1768226192.805684) slcan0 663#102A61087FF1FFFF
(1768226192.805829) slcan0 263#3000000000000000
(1768226192.810357) slcan0 663#210026B67BCD817E
(1768226192.816628) slcan0 663#2284000000C847FF
(1768226192.818918) slcan0 663#2313FF1004FF00FF
(1768226192.822064) slcan0 663#243333FFFF004EFF
(1768226192.826784) slcan0 663#25FFFFFF00004B42
(1768226192.830864) slcan0 663#263C000000000000
(1768226192.900700) slcan0 263#0221080000000000
(1768226192.905737) slcan0 663#102A61087FF1FFFF
(1768226192.906129) slcan0 263#3000000000000000
(1768226192.910209) slcan0 663#210026B67ACD817E
(1768226192.917118) slcan0 663#2285000000C847FF
(1768226192.919120) slcan0 663#2313FF1004FF00FF
(1768226192.925617) slcan0 663#243333FFFF004EFF
(1768226192.926397) slcan0 663#25FFFFFF00004B42
(1768226192.931183) slcan0 663#263C000000000000
(1768226192.966777) slcan0 263#0221080000000000
(1768226192.970243) slcan0 663#102A61087FF1FFFF
(1768226192.970265) slcan0 263#3000000000000000
(1768226192.974590) slcan0 663#210026B67BCD817E
(1768226192.979053) slcan0 663#2284000000C847FF
(1768226192.985215) slcan0 663#2313FF1004FF00FF
(1768226192.986471) slcan0 663#243333FFFF004EFF
(1768226192.990092) slcan0 663#25FFFFFF00004B42
(1768226192.994448) slcan0 663#263C000000000000
(1768226193.049765) slcan0 263#0221080000000000
(1768226193.054750) slcan0 663#102A61087FF1FFFF
(1768226193.054895) slcan0 263#3000000000000000
(1768226193.059289) slcan0 663#210026B67BCD817E
(1768226193.066476) slcan0 663#2284000000C847FF
(1768226193.070258) slcan0 663#2313FF1004FF00FF
(1768226193.075423) slcan0 663#243333FFFF004EFF
(1768226193.078952) slcan0 663#25FFFFFF00004B42
(1768226193.086231) slcan0 663#263C000000000000
(1768226193.153863) slcan0 263#0221080000000000
(1768226193.159436) slcan0 663#102A61087FF1FFFF
(1768226193.159462) slcan0 263#3000000000000000
(1768226193.165392) slcan0 663#210026B67ACD817E
(1768226193.166227) slcan0 663#2284000000C848FF
(1768226193.170069) slcan0 663#2313FF1004FF00FF
(1768226193.174420) slcan0 663#243333FFFF004EFF
(1768226193.178800) slcan0 663#25FFFFFF00004B42
(1768226193.186862) slcan0 663#263C000000000000
(1768226193.222809) slcan0 263#0221080000000000
(1768226193.226142) slcan0 663#102A61087FF1FFFF
(1768226193.226372) slcan0 263#3000000000000000
(1768226193.230992) slcan0 663#210026B67ACD817E
(1768226193.234868) slcan0 663#2284000000C848FF
(1768226193.239096) slcan0 663#2313FF1004FF00FF
(1768226193.247183) slcan0 663#243333FFFF004EFF
(1768226193.250158) slcan0 663#25FFFFFF00004B42
(1768226193.255007) slcan0 663#263C000000000000
(1768226193.332006) slcan0 263#041800FF00000000
(1768226193.339317) slcan0 663#0258000000000000
(1768226193.417987) slcan0 263#0221080000000000
(1768226193.425675) slcan0 663#102A61087FF1FFFF
(1768226193.425912) slcan0 263#3000000000000000
(1768226193.431154) slcan0 663#210026B67BCD817E
(1768226193.435501) slcan0 663#2285000000C848FF
(1768226193.439148) slcan0 663#2313FF1004FF00FF
(1768226193.446425) slcan0 663#243333FFFF004EFF
(1768226193.450069) slcan0 663#25FFFFFF00004B42
(1768226193.454751) slcan0 663#263C000000000000
(1768226193.482911) slcan0 263#0221080000000000
(1768226193.486192) slcan0 663#102A61087FF1FFFF
(1768226193.486397) slcan0 263#3000000000000000
(1768226193.489955) slcan0 663#210026B67ACD817E
(1768226193.494744) slcan0 663#2284000000C848FF
(1768226193.498919) slcan0 663#2313FF1004FF00FF
(1768226193.505157) slcan0 663#243333FFFF004EFF
(1768226193.506141) slcan0 663#25FFFFFF00004B42
(1768226193.509842) slcan0 663#263C000000000000
(1768226193.618155) slcan0 263#0221080000000000
(1768226193.625352) slcan0 663#102A61087FF1FFFF
(1768226193.625419) slcan0 263#3000000000000000
(1768226193.630731) slcan0 663#210026B67ACD817E
(1768226193.634644) slcan0 663#2284000000C848FF
(1768226193.639204) slcan0 663#2313FF1004FF00FF
(1768226193.646086) slcan0 663#243333FFFF004EFF
(1768226193.649915) slcan0 663#25FFFFFF00004B42
(1768226193.654588) slcan0 663#263C000000000000
(1768226193.704169) slcan0 263#0221080000000000
(1768226193.706188) slcan0 663#102A61087FF1FFFF
(1768226193.706406) slcan0 263#3000000000000000
(1768226193.710067) slcan0 663#210026B67ACD817E
(1768226193.716833) slcan0 663#2284000000C847FF
(1768226193.718924) slcan0 663#2313FF1004FF00FF
(1768226193.725375) slcan0 663#243333FFFF004EFF
(1768226193.726123) slcan0 663#25FFFFFF00004B42
(1768226193.730939) slcan0 663#263C000000000000
(1768226193.785230) slcan0 263#0221080000000000
(1768226193.790582) slcan0 663#102A61087FF1FFFF
(1768226193.790762) slcan0 263#3000000000000000
(1768226193.794995) slcan0 663#210026B67BCD817E
(1768226193.799032) slcan0 663#2284000000C847FF
(1768226193.805119) slcan0 663#2313FF1004FF00FF
(1768226193.806036) slcan0 663#243333FFFF004EFF
(1768226193.810016) slcan0 663#25FFFFFF00004B42
(1768226193.816610) slcan0 663#263C000000000000
(1768226193.869335) slcan0 263#0221080000000000
(1768226193.874914) slcan0 663#102A61087FF1FFFF
(1768226193.875136) slcan0 263#3000000000000000
(1768226193.879090) slcan0 663#210026B67ACD817E
(1768226193.884986) slcan0 663#2285000000C847FF
(1768226193.886097) slcan0 663#2313FF1004FF00FF
(1768226193.890625) slcan0 663#243333FFFF004EFF
(1768226193.894515) slcan0 663#25FFFFFF00004B42
(1768226193.898817) slcan0 663#263C000000000000
(1768226193.962289) slcan0 263#0221080000000000
(1768226193.965973) slcan0 663#102A61087FF1FFFF
(1768226193.966172) slcan0 263#3000000000000000
(1768226193.969966) slcan0 663#210026B67ACD817E
(1768226193.974884) slcan0 663#2284000000C847FF
(1768226193.978746) slcan0 663#2313FF1004FF00FF
(1768226193.981957) slcan0 663#243333FFFF004EFF
(1768226193.986043) slcan0 663#25FFFFFF00004B42
(1768226193.990328) slcan0 663#263C000000000000
(1768226194.043503) slcan0 263#0221080000000000
(1768226194.046881) slcan0 663#102A61087FF1FFFF
(1768226194.047083) slcan0 263#3000000000000000
(1768226194.049950) slcan0 663#210026B67BCD817E
(1768226194.054747) slcan0 663#2285000000C847FF
(1768226194.059158) slcan0 663#2313FF1004FF00FF
(1768226194.065357) slcan0 663#243333FFFF004EFF
(1768226194.066163) slcan0 663#25FFFFFF00004B42
(1768226194.069935) slcan0 663#263C000000000000
(1768226194.133340) slcan0 263#0221080000000000
(1768226194.138790) slcan0 663#102A61087FF1FFFF
(1768226194.138948) slcan0 263#3000000000000000
(1768226194.146470) slcan0 663#210026B67BCD817E
(1768226194.151285) slcan0 663#2285000000C847FF
(1768226194.155175) slcan0 663#2313FF1004FF00FF
(1768226194.158783) slcan0 663#243333FFFF004EFF
(1768226194.165163) slcan0 663#25FFFFFF00004B42
(1768226194.166420) slcan0 663#263C000000000000
(1768226194.209390) slcan0 263#0221080000000000
(1768226194.216691) slcan0 663#102A61087FF1FFFF
(1768226194.216870) slcan0 263#3000000000000000
(1768226194.218835) slcan0 663#210026B67BCD817E
(1768226194.224958) slcan0 663#2285000000C847FF
(1768226194.226259) slcan0 663#2313FF1004FF00FF
(1768226194.230977) slcan0 663#243333FFFF004EFF
(1768226194.234774) slcan0 663#25FFFFFF00004B42
(1768226194.238906) slcan0 663#263C000000000000
(1768226194.303273) slcan0 263#0221080000000000
(1768226194.305800) slcan0 663#102A61087FF1FFFF
(1768226194.306079) slcan0 263#3000000000000000
(1768226194.309757) slcan0 663#210026B67BCD817E
(1768226194.316990) slcan0 663#2284000000C847FF
(1768226194.318817) slcan0 663#2313FF1004FF00FF
(1768226194.321792) slcan0 663#243333FFFF004EFF
(1768226194.325758) slcan0 663#25FFFFFF00004B42
(1768226194.331514) slcan0 663#263C000000000000
(1768226194.384399) slcan0 263#0221080000000000
(1768226194.385855) slcan0 663#102A61087FF1FFFF
(1768226194.386019) slcan0 263#3000000000000000
(1768226194.389759) slcan0 663#210026B67BCD817E
(1768226194.395219) slcan0 663#2285000000C847FF
(1768226194.398878) slcan0 663#2313FF1004FF00FF
(1768226194.401739) slcan0 663#243333FFFF004EFF
(1768226194.405823) slcan0 663#25FFFFFF00004B42
(1768226194.409856) slcan0 663#263C000000000000
(1768226194.474451) slcan0 263#0221080000000000
(1768226194.479026) slcan0 663#102A61087FF1FFFF
(1768226194.479247) slcan0 263#3000000000000000
(1768226194.484918) slcan0 663#210026B67ACD817E
(1768226194.485853) slcan0 663#2284000000C847FF
(1768226194.489780) slcan0 663#2313FF1004FF00FF
(1768226194.495370) slcan0 663#243333FFFF004EFF
(1768226194.498766) slcan0 663#25FFFFFF00004B42
(1768226194.505457) slcan0 663#263C000000000000
(1768226194.551569) slcan0 263#0221080000000000
(1768226194.558859) slcan0 663#102A61087FF1FFFF
(1768226194.559106) slcan0 263#3000000000000000
(1768226194.565336) slcan0 663#210026B67BCD817E
(1768226194.565837) slcan0 663#2284000000C847FF
(1768226194.569724) slcan0 663#2313FF1004FF00FF
(1768226194.575529) slcan0 663#243333FFFF004EFF
(1768226194.578712) slcan0 663#25FFFFFF00004B42
(1768226194.581865) slcan0 663#263C000000000000
(1768226194.659655) slcan0 263#041800FF00000000
(1768226194.665067) slcan0 663#0258000000000000
(1768226194.744750) slcan0 263#0221080000000000
(1768226194.746380) slcan0 663#102A61087FF1FFFF
(1768226194.746634) slcan0 263#3000000000000000
(1768226194.749851) slcan0 663#210026B67BCD817E
(1768226194.755593) slcan0 663#2285000000C847FF
(1768226194.758746) slcan0 663#2313FF1004FF00FF
(1768226194.761707) slcan0 663#243333FFFF004EFF
(1768226194.765846) slcan0 663#25FFFFFF00004B42
(1768226194.769731) slcan0 663#263C000000000000
(1768226194.810691) slcan0 263#0221080000000000
(1768226194.817875) slcan0 663#102A61087FF1FFFF
(1768226194.818001) slcan0 263#3000000000000000
(1768226194.821669) slcan0 663#210026B67BCD817E
(1768226194.825971) slcan0 663#2284000000C847FF
(1768226194.829919) slcan0 663#2313FF1004FF00FF
(1768226194.834980) slcan0 663#243333FFFF005EFF
(1768226194.838992) slcan0 663#25FFFFFF00004B42
(1768226194.845931) slcan0 663#263C000000000000
(1768226194.905677) slcan0 263#0221080000000000
(1768226194.909832) slcan0 663#102A61087FF1FFFF
(1768226194.909977) slcan0 263#3000000000000000
(1768226194.917326) slcan0 663#210026B67BCD817E
(1768226194.918927) slcan0 663#2284000000C848FF
(1768226194.925323) slcan0 663#2313FF1004FF00FF
(1768226194.925988) slcan0 663#243333FFFF004EFF
(1768226194.929836) slcan0 663#25FFFFFF00004B42
(1768226194.935925) slcan0 663#263C000000000000
(1768226194.988826) slcan0 263#0221080000000000
(1768226194.990138) slcan0 663#102A61087FF1FFFF
(1768226194.990424) slcan0 263#3000000000000000
(1768226194.996205) slcan0 663#210026B67ACD817E
(1768226194.998943) slcan0 663#2285000000C848FF
(1768226195.001793) slcan0 663#2313FF1004FF00FF
(1768226195.005972) slcan0 663#243333FFFF004EFF
(1768226195.009770) slcan0 663#25FFFFFF00004B42
(1768226195.016653) slcan0 663#263C000000000000
(1768226195.078850) slcan0 263#0221080000000000
(1768226195.084683) slcan0 663#102A61087FF1FFFF
(1768226195.084881) slcan0 263#3000000000000000
(1768226195.085931) slcan0 663#210026B67BCD817E
(1768226195.089661) slcan0 663#2284000000C848FF
(1768226195.094421) slcan0 663#2313FF1004FF00FF
(1768226195.098793) slcan0 663#243333FFFF004EFF
(1768226195.101660) slcan0 663#25FFFFFF00004B42
(1768226195.105863) slcan0 663#263C000000000000
(1768226195.160904) slcan0 263#0221080000000000
(1768226195.165777) slcan0 663#102A61087FF1FFFF
(1768226195.166024) slcan0 263#3000000000000000
(1768226195.169798) slcan0 663#210026B67ACD817E
(1768226195.175373) slcan0 663#2284000000C848FF
(1768226195.178564) slcan0 663#2313FF1004FF00FF
(1768226195.181576) slcan0 663#243333FFFF004EFF
(1768226195.185905) slcan0 663#25FFFFFF00004B42
(1768226195.189696) slcan0 663#263C000000000000
(1768226195.245829) slcan0 263#0221080000000000
(1768226195.249730) slcan0 663#102A61087FF1FFFF
(1768226195.249992) slcan0 263#3000000000000000
(1768226195.254616) slcan0 663#210026B67BCD817E
(1768226195.258952) slcan0 663#2284000000C848FF
(1768226195.261665) slcan0 663#2313FF1004FF00FF
(1768226195.265714) slcan0 663#243333FFFF004EFF
