(1768226257.455355) slcan0 7E4#013E000000000000
(1768226257.465645) slcan0 7EC#017E000000000000
(1768226257.610050) slcan0 7E4#021A8A0000000000
(1768226257.623234) slcan0 7EC#10125A8A39363531
(1768226257.623411) slcan0 7E4#3000000000000000
(1768226257.633030) slcan0 7EC#21302D383550422A
(1768226257.644137) slcan0 7EC#2200000000000000
(1768226257.782996) slcan0 7E4#021A8E0000000000
(1768226257.792629) slcan0 7EC#10125A8E39363531
(1768226257.792886) slcan0 7E4#3000000000000000
(1768226257.802955) slcan0 7EC#21302D3835503000
(1768226257.814384) slcan0 7EC#2200000000000000
(1768226257.964974) slcan0 7E4#0221010000000000
(1768226257.972819) slcan0 7EC#102B61019A9A9999
(1768226257.973120) slcan0 7E4#3000000000000000
(1768226257.982502) slcan0 7EC#2103057F4D7F8F85
(1768226257.992235) slcan0 7EC#22FFFF3F5A3F593F
(1768226258.002811) slcan0 7EC#23613F4A3F4E8364
(1768226258.014236) slcan0 7EC#241FFF0221090003
(1768226258.023605) slcan0 7EC#2598750514971594
(1768226258.033316) slcan0 7EC#2600000000000000
(1768226258.533280) slcan0 271#013E000000000000
(1768226258.537270) slcan0 671#017E000000000000
(1768226258.637112) slcan0 271#021A8A0000000000
(1768226258.647084) slcan0 671#10125A8A33363737
(1768226258.647209) slcan0 271#3000000000000000
(1768226258.657148) slcan0 671#21352D373652322A
(1768226258.667203) slcan0 671#2200000000000000
(1768226258.883187) slcan0 271#021A8E0000000000
(1768226258.887080) slcan0 671#10125A8E33363737
(1768226258.887276) slcan0 271#3000000000000000
(1768226258.897264) slcan0 671#21352D3736523000
(1768226258.907403) slcan0 671#2200000000000000
(1768226259.078218) slcan0 271#0221080000000000
(1768226259.087226) slcan0 671#1066610820B800FF
(1768226259.087244) slcan0 271#3000000000000000
(1768226259.097196) slcan0 671#210B24FFFFFFFF80
(1768226259.107145) slcan0 671#22FFFFFFFFFFFFFF
(1768226259.117385) slcan0 671#23FFFF001572FFFF
(1768226259.127273) slcan0 671#24FFFFFF01FFFFFF
(1768226259.137244) slcan0 671#25FFFF54FF08FFFF
(1768226259.147252) slcan0 671#2600100007400244
(1768226259.157174) slcan0 671#2700060007000030
(1768226259.167195) slcan0 671#28FFE10D30370BFF
(1768226259.177170) slcan0 671#29FFFFFFFFFFFFFF
(1768226259.187106) slcan0 671#2AFFFFFFFFFFFFFF
(1768226259.197279) slcan0 671#2BFFFFFFFFFFFFFF
(1768226259.207253) slcan0 671#2CFFFFFFFFFFFFFF
(1768226259.217184) slcan0 671#2DFFFFFFFFFFFFFF
(1768226259.227241) slcan0 671#2EFFFFFFFFFF0000
(1768226259.674488) slcan0 7DF#0201000000000000
(1768226259.677828) slcan0 7E8#064100BE3FB80300
(1768226259.836321) slcan0 7DF#07010020406080A0
(1768226259.837684) slcan0 7E8#10104100BE3FB803
(1768226259.838066) slcan0 7E0#3000000000000000
(1768226259.844073) slcan0 7E8#2120A005A001406A
(1768226259.845713) slcan0 7E8#22D0000000000000
(1768226259.927191) slcan0 7DF#0301050F00000000
(1768226259.937791) slcan0 7E8#054105580F230000
(1768226260.342659) slcan0 7E0#013E000000000000
(1768226260.347920) slcan0 7E8#017E000000000000
(1768226260.526400) slcan0 7E0#021A8A0000000000
(1768226260.527788) slcan0 7E8#10125A8A33333938
(1768226260.527993) slcan0 7E0#3000000000000000
(1768226260.533117) slcan0 7E8#21302D373652302A
(1768226260.533607) slcan0 7E8#2200000000000000
(1768226260.626243) slcan0 7E0#021A8E0000000000
(1768226260.627842) slcan0 7E8#10125A8E33333938
(1768226260.628129) slcan0 7E0#3000000000000000
(1768226260.632853) slcan0 7E8#21302D3736523000
(1768226260.633682) slcan0 7E8#2200000000000000
(1768226260.777275) slcan0 7E0#0221000000000000
(1768226260.787971) slcan0 7E8#10D2610000076100
(1768226260.788346) slcan0 7E0#3000000000000000
(1768226260.789586) slcan0 7E8#21FFFFFFFF4BFFFF
(1768226260.792724) slcan0 7E8#22FFFFFFFF02FF7C
(1768226260.793587) slcan0 7E8#2378FFFF75FF05BA
(1768226260.795524) slcan0 7E8#24FFFF80012A012C
(1768226260.797695) slcan0 7E8#25FFFF311546AE01
(1768226260.804205) slcan0 7E8#265D002358236100
(1768226260.805657) slcan0 7E8#27FF0C017EFFFFFF
(1768226260.808039) slcan0 7E8#28FFFFFFFFFF5727
(1768226260.814147) slcan0 7E8#29D82613001111FF
(1768226260.815630) slcan0 7E8#2AFFFFFFFFFFFFFF
(1768226260.817659) slcan0 7E8#2B7FFFFFFFFFFFFF
(1768226260.823915) slcan0 7E8#2CFFFFFFFFFFFFFF
(1768226260.826018) slcan0 7E8#2DFFFFFFFFFFFFFF
(1768226260.827650) slcan0 7E8#2EFFFF37956538FF
(1768226260.832577) slcan0 7E8#2FFFFFFFFF09FFFF
(1768226260.833664) slcan0 7E8#20FFFFFFFFFFFF19
(1768226260.835667) slcan0 7E8#2100FFFFFFFFA900
(1768226260.837671) slcan0 7E8#22FF00FF01FFFFFF
(1768226260.844819) slcan0 7E8#23FFFF008800FF02
(1768226260.845650) slcan0 7E8#2401FFFF00FFFFFF
(1768226260.847694) slcan0 7E8#25132AFF61FFFFFF
(1768226260.852893) slcan0 7E8#26FFFFFFFFFFFFFF
(1768226260.853657) slcan0 7E8#27FFFFFFFFFFFFFF
(1768226260.855596) slcan0 7E8#28FFFFFFFFFFFFFF
(1768226260.857558) slcan0 7E8#29FFFFFFFFFFFFFF
(1768226260.864710) slcan0 7E8#2AFFFFFFFFFFFFFF
(1768226260.865543) slcan0 7E8#2BFFFFFFFFFFFFFF
(1768226260.867544) slcan0 7E8#2CFFFFFFFFFFFFFF
(1768226260.872405) slcan0 7E8#2DFFFFFFFFFFFFFF
(1768226260.873667) slcan0 7E8#2EFF000000000000
(1768226260.952449) slcan0 7E0#0221900000000000
(1768226260.957794) slcan0 7E8#106D619023036B0B
(1768226260.958008) slcan0 7E0#3000000000000000
(1768226260.964893) slcan0 7E8#21AA0BAADD000F00
(1768226260.965829) slcan0 7E8#220233400F200AC0
(1768226260.967732) slcan0 7E8#2300225800000015
(1768226260.972852) slcan0 7E8#2430021A292C00FF
(1768226260.973790) slcan0 7E8#25FFFFFF38080003
(1768226260.975733) slcan0 7E8#2600482200002855
(1768226260.977616) slcan0 7E8#2742400000840CC5
(1768226260.982617) slcan0 7E8#2868020B56037404
(1768226260.983775) slcan0 7E8#292B07EB0248018A
(1768226260.985758) slcan0 7E8#2A05837E649A8117
(1768226260.987653) slcan0 7E8#2BFFFFFFFFFFFFFF
(1768226260.992125) slcan0 7E8#2CFFFFFFFFFFFFFF
(1768226260.993736) slcan0 7E8#2DFFFFFFFFFFFFFF
(1768226260.995646) slcan0 7E8#2EFFFFFFFFFFFFFF
(1768226260.997736) slcan0 7E8#2FFFFFFFFFFF0000
(1768226261.567948) slcan0 7E1#013E000000000000
(1768226261.572665) slcan0 7E9#017E000000000000
(1768226261.648782) slcan0 7E1#021A8A0000000000
(1768226261.654771) slcan0 7E9#10125A8A33383838
(1768226261.654987) slcan0 7E1#3000000000000000
(1768226261.658659) slcan0 7E9#21302D373652392A
(1768226261.665032) slcan0 7E9#2200000000000000
(1768226261.905878) slcan0 7E1#021A8E0000000000
(1768226261.908641) slcan0 7E9#10125A8E33383838
(1768226261.908892) slcan0 7E1#3000000000000000
(1768226261.916975) slcan0 7E9#21302D3630523100
(1768226261.918676) slcan0 7E9#2200000000000000
(1768226262.064732) slcan0 7E1#0221050000000000
(1768226262.067185) slcan0 7E9#1082610515000000
(1768226262.067394) slcan0 7E1#3000000000000000
(1768226262.072243) slcan0 7E9#213337D102C910C3
(1768226262.072662) slcan0 7E9#22FFFFFFFFFF039A
(1768226262.074600) slcan0 7E9#23006400640064FF
(1768226262.076861) slcan0 7E9#2401580064FFFF00
(1768226262.078883) slcan0 7E9#25039800630063FF
(1768226262.082368) slcan0 7E9#26006301560063FF
(1768226262.084607) slcan0 7E9#27FF01156C000011
(1768226262.087382) slcan0 7E9#280330032F586100
(1768226262.088662) slcan0 7E9#29000026480044FF
(1768226262.091926) slcan0 7E9#2A000000FFFF0FFF
(1768226262.092708) slcan0 7E9#2B0FFF0000FFFF00
(1768226262.094556) slcan0 7E9#2C0A0900FF000000
(1768226262.096815) slcan0 7E9#2DFFFFFFFFFF1AAC
(1768226262.098697) slcan0 7E9#2EFF806C03E3032D
(1768226262.103123) slcan0 7E9#2FFFFF000000FFFF
(1768226262.104648) slcan0 7E9#20FFFFFFFFFF00FF
(1768226262.107669) slcan0 7E9#2100FF0101454000
(1768226262.108594) slcan0 7E9#2200FF10FFFF0000
(1768226262.571151) slcan0 7E4#013E000000000000
(1768226262.579377) slcan0 7EC#017E000000000000
(1768226262.679699) slcan0 7E4#021A8A0000000000
(1768226262.691967) slcan0 7EC#10125A8A39363531
(1768226262.692242) slcan0 7E4#3000000000000000
(1768226262.699129) slcan0 7EC#21302D383550422A
(1768226262.715186) slcan0 7EC#2200000000000000
(1768226262.833783) slcan0 7E4#021A8E0000000000
(1768226262.844659) slcan0 7EC#10125A8E39363531
(1768226262.844792) slcan0 7E4#3000000000000000
(1768226262.854121) slcan0 7EC#21302D3835503000
(1768226262.864090) slcan0 7EC#2200000000000000
(1768226262.949824) slcan0 7E4#0221010000000000
(1768226262.959074) slcan0 7EC#102B61019A9A9999
(1768226262.959347) slcan0 7E4#3000000000000000
(1768226262.974167) slcan0 7EC#2103057F4C7F8F85
(1768226262.984636) slcan0 7EC#22FFFF3F5A3F583F
(1768226262.994332) slcan0 7EC#235F3F493F508364
(1768226263.004709) slcan0 7EC#241FFF0221090003
(1768226263.015772) slcan0 7EC#2598750514971558
(1768226263.024265) slcan0 7EC#2600000000000000
(1768226263.616556) slcan0 271#013E000000000000
(1768226263.627099) slcan0 671#017E000000000000
(1768226263.704295) slcan0 271#021A8A0000000000
(1768226263.707042) slcan0 671#10125A8A33363737
(1768226263.707243) slcan0 271#3000000000000000
(1768226263.717296) slcan0 671#21352D373652322A
(1768226263.727153) slcan0 671#2200000000000000
(1768226263.848386) slcan0 271#021A8E0000000000
(1768226263.857053) slcan0 671#10125A8E33363737
(1768226263.857187) slcan0 271#3000000000000000
(1768226263.867335) slcan0 671#21352D3736523000
(1768226263.877336) slcan0 671#2200000000000000
(1768226263.952377) slcan0 271#0221080000000000
(1768226263.957235) slcan0 671#1066610820B800FF
(1768226263.957407) slcan0 271#3000000000000000
(1768226263.967371) slcan0 671#210B24FFFFFFFF80
(1768226263.977241) slcan0 671#22FFFFFFFFFFFFFF
(1768226263.987346) slcan0 671#23FFFF001572FFFF
(1768226263.997217) slcan0 671#24FFFFFF01FFFFFF
(1768226264.007675) slcan0 671#25FFFF54FF08FFFF
(1768226264.017402) slcan0 671#2600100007400244
(1768226264.027265) slcan0 671#2700060007000030
(1768226264.037381) slcan0 671#28FFE10D30370BFF
(1768226264.047443) slcan0 671#29FFFFFFFFFFFFFF
(1768226264.057253) slcan0 671#2AFFFFFFFFFFFFFF
(1768226264.067529) slcan0 671#2BFFFFFFFFFFFFFF
(1768226264.077318) slcan0 671#2CFFFFFFFFFFFFFF
(1768226264.087333) slcan0 671#2DFFFFFFFFFFFFFF
(1768226264.097364) slcan0 671#2EFFFFFFFFFF0000
(1768226264.649911) slcan0 7DF#0201000000000000
(1768226264.657582) slcan0 7E8#064100BE3FB80300
(1768226264.821776) slcan0 7DF#07010020406080A0
(1768226264.827663) slcan0 7E8#10104100BE3FB803
(1768226264.827866) slcan0 7E0#3000000000000000
(1768226264.833085) slcan0 7E8#2120A005A001406A
(1768226264.833434) slcan0 7E8#22D0000000000000
(1768226264.978618) slcan0 7DF#0301050F00000000
(1768226264.987556) slcan0 7E8#054105580F230000
(1768226265.494955) slcan0 7E0#013E000000000000
(1768226265.497522) slcan0 7E8#017E000000000000
(1768226265.573692) slcan0 7E0#021A8A0000000000
(1768226265.577642) slcan0 7E8#10125A8A33333938
(1768226265.577821) slcan0 7E0#3000000000000000
(1768226265.583669) slcan0 7E8#21302D373652302A
(1768226265.585599) slcan0 7E8#2200000000000000
(1768226265.670587) slcan0 7E0#021A8E0000000000
(1768226265.677519) slcan0 7E8#10125A8E33333938
(1768226265.677755) slcan0 7E0#3000000000000000
(1768226265.682856) slcan0 7E8#21302D3736523000
(1768226265.683455) slcan0 7E8#2200000000000000
(1768226265.758576) slcan0 7E0#0221000000000000
(1768226265.767915) slcan0 7E8#10D2610000076100
(1768226265.768212) slcan0 7E0#3000000000000000
(1768226265.769540) slcan0 7E8#21FFFFFFFF4CFFFF
(1768226265.773157) slcan0 7E8#22FFFFFFFF02FF80
(1768226265.773514) slcan0 7E8#2378FFFF78FF0603
(1768226265.775579) slcan0 7E8#24FFFF800127012C
(1768226265.777443) slcan0 7E8#25FFFF321530AE01
(1768226265.782776) slcan0 7E8#2660002358236100
(1768226265.783517) slcan0 7E8#27FF0C017DFFFFFF
(1768226265.785548) slcan0 7E8#28FFFFFFFFFF5827
(1768226265.787447) slcan0 7E8#29D82613001111FF
(1768226265.791892) slcan0 7E8#2AFFFFFFFFFFFFFF
(1768226265.793540) slcan0 7E8#2B2AFFFFFFFFFFFF
(1768226265.795526) slcan0 7E8#2CFFFFFFFFFFFFFF
(1768226265.797504) slcan0 7E8#2DFFFFFFFFFFFFFF
(1768226265.803066) slcan0 7E8#2EFFFF37956538FF
(1768226265.803553) slcan0 7E8#2FFFFFFFFF09FFFF
(1768226265.805466) slcan0 7E8#20FFFFFFFFFFFF19
(1768226265.807492) slcan0 7E8#2100FFFFFFFFA900
(1768226265.813888) slcan0 7E8#22FF00FF01FFFFFF
(1768226265.815464) slcan0 7E8#23FFFF008800FF02
(1768226265.817519) slcan0 7E8#2401FFFF00FFFFFF
(1768226265.825160) slcan0 7E8#25142AFF61FFFFFF
(1768226265.825411) slcan0 7E8#26FFFFFFFFFFFFFF
(1768226265.827385) slcan0 7E8#27FFFFFFFFFFFFFF
(1768226265.833338) slcan0 7E8#28FFFFFFFFFFFFFF
(1768226265.835520) slcan0 7E8#29FFFFFFFFFFFFFF
(1768226265.837513) slcan0 7E8#2AFFFFFFFFFFFFFF
(1768226265.844733) slcan0 7E8#2BFFFFFFFFFFFFFF
(1768226265.845481) slcan0 7E8#2CFFFFFFFFFFFFFF
(1768226265.847408) slcan0 7E8#2DFFFFFFFFFFFFFF
(1768226265.852502) slcan0 7E8#2EFF000000000000
(1768226265.927494) slcan0 7E0#0221900000000000
(1768226265.937681) slcan0 7E8#106D619023036B0B
(1768226265.937908) slcan0 7E0#3000000000000000
(1768226265.945110) slcan0 7E8#218B0BAEDD001B00
(1768226265.945338) slcan0 7E8#2202334017200AC0
(1768226265.947515) slcan0 7E8#2300225800000015
(1768226265.952878) slcan0 7E8#245A021C292D00FF
(1768226265.953457) slcan0 7E8#25FFFFFF38080003
(1768226265.955397) slcan0 7E8#2600482200002855
(1768226265.957415) slcan0 7E8#2742400000840CC5
(1768226265.964734) slcan0 7E8#2868020B61037604
(1768226265.965403) slcan0 7E8#292B07EB0248018A
(1768226265.967420) slcan0 7E8#2A05837E649A8414
(1768226265.972393) slcan0 7E8#2BFFFFFFFFFFFFFF
(1768226265.973473) slcan0 7E8#2CFFFFFFFFFFFFFF
(1768226265.975447) slcan0 7E8#2DFFFFFFFFFFFFFF
(1768226265.977399) slcan0 7E8#2EFFFFFFFFFFFFFF
(1768226265.982735) slcan0 7E8#2FFFFFFFFFFF0000
(1768226266.429024) slcan0 7E1#013E000000000000
(1768226266.434620) slcan0 7E9#017E000000000000
(1768226266.537659) slcan0 7E1#021A8A0000000000
(1768226266.543827) slcan0 7E9#10125A8A33383838
(1768226266.544102) slcan0 7E1#3000000000000000
(1768226266.548123) slcan0 7E9#21302D373652392A
(1768226266.548688) slcan0 7E9#2200000000000000
(1768226266.694662) slcan0 7E1#021A8E0000000000
(1768226266.696842) slcan0 7E9#10125A8E33383838
(1768226266.697082) slcan0 7E1#3000000000000000
(1768226266.702861) slcan0 7E9#21302D3630523100
(1768226266.704594) slcan0 7E9#2200000000000000
(1768226266.778630) slcan0 7E1#0221050000000000
(1768226266.784603) slcan0 7E9#1082610515100000
(1768226266.784889) slcan0 7E1#3000000000000000
(1768226266.788529) slcan0 7E9#213337E202C410C3
(1768226266.792185) slcan0 7E9#22FFFFFFFFFF039A
(1768226266.792481) slcan0 7E9#23006400640064FF
(1768226266.794595) slcan0 7E9#2401580064FFFF00
(1768226266.796878) slcan0 7E9#25039A00630063FF
(1768226266.798533) slcan0 7E9#26006301570063FF
(1768226266.802627) slcan0 7E9#27FF01157A000011
(1768226266.804469) slcan0 7E9#280330032D586100
(1768226266.806988) slcan0 7E9#29000026480030FF
(1768226266.808595) slcan0 7E9#2A000000FFFF0FFF
(1768226266.813892) slcan0 7E9#2B0FFF0000FFFF00
(1768226266.814698) slcan0 7E9#2C0A0900FF000000
(1768226266.817063) slcan0 7E9#2DFFFFFFFFFF1AAC
(1768226266.818611) slcan0 7E9#2EFF806A03E3032F
(1768226266.823490) slcan0 7E9#2FFFFF000000FFFF
(1768226266.824625) slcan0 7E9#20FFFFFFFFFF00FF
(1768226266.826810) slcan0 7E9#2100FF0101454000
(1768226266.833324) slcan0 7E9#2200FF10FFFF0000
(1768226267.291005) slcan0 7E4#013E000000000000
(1768226267.302789) slcan0 7EC#017E000000000000
(1768226267.378765) slcan0 7E4#021A8A0000000000
(1768226267.392749) slcan0 7EC#10125A8A39363531
(1768226267.393071) slcan0 7E4#3000000000000000
(1768226267.402689) slcan0 7EC#21302D383550422A
(1768226267.414235) slcan0 7EC#2200000000000000
(1768226267.550731) slcan0 7E4#021A8E0000000000
(1768226267.564106) slcan0 7EC#10125A8E39363531
(1768226267.564193) slcan0 7E4#3000000000000000
(1768226267.573003) slcan0 7EC#21302D3835503000
(1768226267.582496) slcan0 7EC#2200000000000000
(1768226267.722583) slcan0 7E4#0221010000000000
(1768226267.732575) slcan0 7EC#102B61019A9A9999
(1768226267.732804) slcan0 7E4#3000000000000000
(1768226267.743527) slcan0 7EC#2103057F4E7F8F85
(1768226267.753080) slcan0 7EC#22FFFF3F593F5A3F
(1768226267.764437) slcan0 7EC#23613F4B3F4F8364
(1768226267.772376) slcan0 7EC#241FFF0221090003
(1768226267.782421) slcan0 7EC#2598750514971530
(1768226267.792324) slcan0 7EC#2600000000000000
(1768226268.361024) slcan0 271#013E000000000000
(1768226268.367148) slcan0 671#017E000000000000
(1768226268.443588) slcan0 271#021A8A0000000000
(1768226268.447172) slcan0 671#10125A8A33363737
(1768226268.447280) slcan0 271#3000000000000000
(1768226268.457205) slcan0 671#21352D373652322A
(1768226268.467269) slcan0 671#2200000000000000
(1768226268.548638) slcan0 271#021A8E0000000000
(1768226268.557054) slcan0 671#10125A8E33363737
(1768226268.557145) slcan0 271#3000000000000000
(1768226268.567345) slcan0 671#21352D3736523000
(1768226268.577254) slcan0 671#2200000000000000
(1768226268.703454) slcan0 271#0221080000000000
(1768226268.706993) slcan0 671#1066610820B900FF
(1768226268.707277) slcan0 271#3000000000000000
(1768226268.717240) slcan0 671#210B24FFFFFFFF80
(1768226268.727200) slcan0 671#22FFFFFFFFFFFFFF
(1768226268.737506) slcan0 671#23FFFF00156CFFFF
(1768226268.747334) slcan0 671#24FFFFFF01FFFFFF
(1768226268.757049) slcan0 671#25FFFF54FF08FFFF
(1768226268.767144) slcan0 671#2600100007400244
(1768226268.777412) slcan0 671#2700060007000030
(1768226268.787108) slcan0 671#28FFE10D30370BFF
(1768226268.797078) slcan0 671#29FFFFFFFFFFFFFF
(1768226268.807282) slcan0 671#2AFFFFFFFFFFFFFF
(1768226268.817261) slcan0 671#2BFFFFFFFFFFFFFF
(1768226268.827371) slcan0 671#2CFFFFFFFFFFFFFF
(1768226268.839138) slcan0 671#2DFFFFFFFFFFFFFF
(1768226268.847389) slcan0 671#2EFFFFFFFFFF0000
(1768226269.382130) slcan0 7DF#0201000000000000
(1768226269.387500) slcan0 7E8#064100BE3FB80300
(1768226269.479140) slcan0 7DF#07010020406080A0
(1768226269.487487) slcan0 7E8#10104100BE3FB803
(1768226269.487731) slcan0 7E0#3000000000000000
(1768226269.491957) slcan0 7E8#2120A005A001406A
(1768226269.493426) slcan0 7E8#22D0000000000000
(1768226269.569917) slcan0 7DF#0301050F00000000
(1768226269.577471) slcan0 7E8#054105580F230000
(1768226269.993361) slcan0 7E0#013E000000000000
(1768226269.997549) slcan0 7E8#017E000000000000
(1768226270.072074) slcan0 7E0#021A8A0000000000
(1768226270.077379) slcan0 7E8#10125A8A33333938
(1768226270.077620) slcan0 7E0#3000000000000000
(1768226270.082096) slcan0 7E8#21302D373652302A
(1768226270.083326) slcan0 7E8#2200000000000000
(1768226270.160071) slcan0 7E0#021A8E0000000000
(1768226270.167433) slcan0 7E8#10125A8E33333938
(1768226270.167670) slcan0 7E0#3000000000000000
(1768226270.172030) slcan0 7E8#21302D3736523000
(1768226270.173423) slcan0 7E8#2200000000000000
(1768226270.326341) slcan0 7E0#0221000000000000
(1768226270.328199) slcan0 7E8#10D2610000076100
(1768226270.328422) slcan0 7E0#3000000000000000
(1768226270.332890) slcan0 7E8#21FFFFFFFF4CFFFF
(1768226270.333359) slcan0 7E8#22FFFFFFFF02FF80
(1768226270.335344) slcan0 7E8#2378FFFF76FF05FA
(1768226270.337356) slcan0 7E8#24FFFF7E0124012C
(1768226270.343897) slcan0 7E8#25FFFF311556AE01
(1768226270.347131) slcan0 7E8#2660002358236100
(1768226270.347322) slcan0 7E8#27FF0C017DFFFFFF
(1768226270.352436) slcan0 7E8#28FFFFFFFFFF5827
(1768226270.353392) slcan0 7E8#29D82613001111FF
(1768226270.355392) slcan0 7E8#2AFFFFFFFFFFFFFF
(1768226270.357433) slcan0 7E8#2B39FFFFFFFFFFFF
(1768226270.363899) slcan0 7E8#2CFFFFFFFFFFFFFF
(1768226270.365435) slcan0 7E8#2DFFFFFFFFFFFFFF
(1768226270.367369) slcan0 7E8#2EFFFF37C56538FF
(1768226270.372076) slcan0 7E8#2FFFFFFFFF09FFFF
(1768226270.373470) slcan0 7E8#20FFFFFFFFFFFF19
(1768226270.375423) slcan0 7E8#2100FFFFFFFFA900
(1768226270.377411) slcan0 7E8#22FF00FF01FFFFFF
(1768226270.382153) slcan0 7E8#23FFFF008800FF02
(1768226270.383331) slcan0 7E8#2401FFFF00FFFFFF
(1768226270.385430) slcan0 7E8#25142BFF61FFFFFF
(1768226270.387442) slcan0 7E8#26FFFFFFFFFFFFFF
(1768226270.392149) slcan0 7E8#27FFFFFFFFFFFFFF
(1768226270.393284) slcan0 7E8#28FFFFFFFFFFFFFF
(1768226270.395316) slcan0 7E8#29FFFFFFFFFFFFFF
(1768226270.397346) slcan0 7E8#2AFFFFFFFFFFFFFF
(1768226270.402973) slcan0 7E8#2BFFFFFFFFFFFFFF
(1768226270.403355) slcan0 7E8#2CFFFFFFFFFFFFFF
(1768226270.405444) slcan0 7E8#2DFFFFFFFFFFFFFF
(1768226270.407441) slcan0 7E8#2EFF000000000000
(1768226270.502174) slcan0 7E0#0221900000000000
(1768226270.507517) slcan0 7E8#106D619023036B0B
(1768226270.507747) slcan0 7E0#3000000000000000
(1768226270.514566) slcan0 7E8#21D10BAEDD000900
(1768226270.515422) slcan0 7E8#220233400F200AC0
(1768226270.517424) slcan0 7E8#2300225800000015
(1768226270.523363) slcan0 7E8#24660222292D00FF
(1768226270.526931) slcan0 7E8#25FFFFFF38080003
(1768226270.527288) slcan0 7E8#2600482200002855
(1768226270.532431) slcan0 7E8#2742400000840CC5
(1768226270.533405) slcan0 7E8#2868020B22037A04
(1768226270.535459) slcan0 7E8#292B07EB0248018A
(1768226270.537388) slcan0 7E8#2A05837E649A7D14
(1768226270.543774) slcan0 7E8#2BFFFFFFFFFFFFFF
(1768226270.547632) slcan0 7E8#2CFFFFFFFFFFFFFF
(1768226270.552417) slcan0 7E8#2DFFFFFFFFFFFFFF
(1768226270.553336) slcan0 7E8#2EFFFFFFFFFFFFFF
(1768226270.555241) slcan0 7E8#2FFFFFFFFFFF0000
(1768226270.937818) slcan0 7E1#013E000000000000
(1768226270.943979) slcan0 7E9#017E000000000000
(1768226271.023646) slcan0 7E1#021A8A0000000000
(1768226271.027181) slcan0 7E9#10125A8A33383838
(1768226271.027377) slcan0 7E1#3000000000000000
(1768226271.032471) slcan0 7E9#21302D373652392A
(1768226271.034616) slcan0 7E9#2200000000000000
(1768226271.112544) slcan0 7E1#021A8E0000000000
(1768226271.116664) slcan0 7E9#10125A8E33383838
(1768226271.116960) slcan0 7E1#3000000000000000
(1768226271.123441) slcan0 7E9#21302D3630523100
(1768226271.124494) slcan0 7E9#2200000000000000
(1768226271.202568) slcan0 7E1#0221050000000000
(1768226271.204532) slcan0 7E9#10826105151C0000
(1768226271.204618) slcan0 7E1#3000000000000000
(1768226271.208325) slcan0 7E9#213337E202C410C3
(1768226271.213728) slcan0 7E9#22FFFFFFFFFF039A
(1768226271.214382) slcan0 7E9#23006400640064FF
(1768226271.216535) slcan0 7E9#2401580064FFFF00
(1768226271.218375) slcan0 7E9#25039600620062FF
(1768226271.223134) slcan0 7E9#26006301560062FF
(1768226271.224403) slcan0 7E9#27FF011570000011
(1768226271.226554) slcan0 7E9#28032D032D586100
(1768226271.228294) slcan0 7E9#29000026480030FF
(1768226271.232609) slcan0 7E9#2A000000FFFF0FFF
(1768226271.234245) slcan0 7E9#2B0FFF0000FFFF00
(1768226271.236564) slcan0 7E9#2C0A0900FF000000
(1768226271.238363) slcan0 7E9#2DFFFFFFFFFF1AAC
(1768226271.243851) slcan0 7E9#2EFF805403E3032D
(1768226271.244317) slcan0 7E9#2FFFFF000000FFFF
(1768226271.246562) slcan0 7E9#20FFFFFFFFFF00FF
(1768226271.253002) slcan0 7E9#2100FF0101454000
(1768226271.254344) slcan0 7E9#2200FF10FFFF0000
(1768226271.636102) slcan0 7E4#013E000000000000
(1768226271.644741) slcan0 7EC#017E000000000000
(1768226271.724825) slcan0 7E4#021A8A0000000000
(1768226271.734949) slcan0 7EC#10125A8A39363531
(1768226271.735141) slcan0 7E4#3000000000000000
(1768226271.744662) slcan0 7EC#21302D383550422A
(1768226271.754758) slcan0 7EC#2200000000000000
(1768226271.867066) slcan0 7E4#021A8E0000000000
(1768226271.874881) slcan0 7EC#10125A8E39363531
(1768226271.875120) slcan0 7E4#3000000000000000
(1768226271.885151) slcan0 7EC#21302D3835503000
(1768226271.894964) slcan0 7EC#2200000000000000
(1768226271.972115) slcan0 7E4#0221010000000000
(1768226271.981997) slcan0 7EC#102B61019A9A9999
(1768226271.982169) slcan0 7E4#3000000000000000
(1768226271.992043) slcan0 7EC#2103057F4E7F9085
(1768226272.002571) slcan0 7EC#22FFFF3F5A3F583F
(1768226272.014375) slcan0 7EC#23613F4B3F4D8364
(1768226272.023517) slcan0 7EC#241FFF0221090003
(1768226272.032928) slcan0 7EC#2598750514961540
(1768226272.043618) slcan0 7EC#2600000000000000
(1768226272.310215) slcan0 271#013E000000000000
(1768226272.317176) slcan0 671#017E000000000000
(1768226272.395130) slcan0 271#021A8A0000000000
(1768226272.407011) slcan0 671#10125A8A33363737
(1768226272.407273) slcan0 271#3000000000000000
(1768226272.417263) slcan0 671#21352D373652322A
(1768226272.427251) slcan0 671#2200000000000000
(1768226272.516189) slcan0 271#021A8E0000000000
(1768226272.527095) slcan0 671#10125A8E33363737
(1768226272.527250) slcan0 271#3000000000000000
(1768226272.537265) slcan0 671#21352D3736523000
(1768226272.547208) slcan0 671#2200000000000000
(1768226272.689150) slcan0 271#0221080000000000
(1768226272.696990) slcan0 671#1066610820B800FF
(1768226272.697270) slcan0 271#3000000000000000
(1768226272.707355) slcan0 671#210B24FFFFFFFF80
(1768226272.717371) slcan0 671#22FFFFFFFFFFFFFF
(1768226272.727281) slcan0 671#23FFFF001568FFFF
(1768226272.737266) slcan0 671#24FFFFFF01FFFFFF
(1768226272.747399) slcan0 671#25FFFF54FF08FFFF
(1768226272.757738) slcan0 671#2600100007400244
(1768226272.767244) slcan0 671#2700060007000030
(1768226272.777167) slcan0 671#28FFE10D30370BFF
(1768226272.787191) slcan0 671#29FFFFFFFFFFFFFF
(1768226272.797298) slcan0 671#2AFFFFFFFFFFFFFF
(1768226272.807401) slcan0 671#2BFFFFFFFFFFFFFF
(1768226272.817522) slcan0 671#2CFFFFFFFFFFFFFF
(1768226272.827413) slcan0 671#2DFFFFFFFFFFFFFF
(1768226272.837340) slcan0 671#2EFFFFFFFFFF0000
(1768226273.149649) slcan0 7DF#0201000000000000
(1768226273.157284) slcan0 7E8#064100BE3FB80300
(1768226273.287530) slcan0 7DF#07010020406080A0
(1768226273.297290) slcan0 7E8#10104100BE3FB803
(1768226273.297429) slcan0 7E0#3000000000000000
(1768226273.302734) slcan0 7E8#2120A005A001406A
(1768226273.303274) slcan0 7E8#22D0000000000000
(1768226273.423539) slcan0 7DF#0301050F00000000
(1768226273.427270) slcan0 7E8#054105580F230000
(1768226273.818859) slcan0 7E0#013E000000000000
(1768226273.827369) slcan0 7E8#017E000000000000
(1768226273.934551) slcan0 7E0#021A8A0000000000
(1768226273.937353) slcan0 7E8#10125A8A33333938
(1768226273.937547) slcan0 7E0#3000000000000000
(1768226273.944570) slcan0 7E8#21302D373652302A
(1768226273.945142) slcan0 7E8#2200000000000000
(1768226274.022413) slcan0 7E0#021A8E0000000000
(1768226274.027340) slcan0 7E8#10125A8E33333938
(1768226274.027476) slcan0 7E0#3000000000000000
(1768226274.032540) slcan0 7E8#21302D3736523000
(1768226274.033350) slcan0 7E8#2200000000000000
(1768226274.111486) slcan0 7E0#0221000000000000
(1768226274.117531) slcan0 7E8#10D2610000076100
(1768226274.117729) slcan0 7E0#3000000000000000
(1768226274.123644) slcan0 7E8#21FFFFFFFF4CFFFF
(1768226274.125146) slcan0 7E8#22FFFFFFFF02FF81
(1768226274.127112) slcan0 7E8#2378FFFF79FF061F
(1768226274.132470) slcan0 7E8#24FFFF7D0125012C
(1768226274.133106) slcan0 7E8#25FFFF31157CAE01
(1768226274.135105) slcan0 7E8#2669002358236100
(1768226274.137140) slcan0 7E8#27FF0C027FFFFFFF
(1768226274.144718) slcan0 7E8#28FFFFFFFFFF5927
(1768226274.145023) slcan0 7E8#29D82613001111FF
(1768226274.147187) slcan0 7E8#2AFFFFFFFFFFFFFF
(1768226274.152467) slcan0 7E8#2B29FFFFFFFFFFFF
(1768226274.153147) slcan0 7E8#2CFFFFFFFFFFFFFF
(1768226274.155188) slcan0 7E8#2DFFFFFFFFFFFFFF
(1768226274.157232) slcan0 7E8#2EFFFF37AD6538FF
(1768226274.165051) slcan0 7E8#2FFFFFFFFF09FFFF
(1768226274.167196) slcan0 7E8#20FFFFFFFFFFFF19
(1768226274.172321) slcan0 7E8#2100FFFFFFFFA900
(1768226274.173182) slcan0 7E8#22FF00FF01FFFFFF
(1768226274.175183) slcan0 7E8#23FFFF008800FF02
(1768226274.177180) slcan0 7E8#2401FFFF00FFFFFF
(1768226274.182458) slcan0 7E8#25142BFF61FFFFFF
(1768226274.183182) slcan0 7E8#26FFFFFFFFFFFFFF
(1768226274.185175) slcan0 7E8#27FFFFFFFFFFFFFF
(1768226274.187288) slcan0 7E8#28FFFFFFFFFFFFFF
(1768226274.192130) slcan0 7E8#29FFFFFFFFFFFFFF
(1768226274.193160) slcan0 7E8#2AFFFFFFFFFFFFFF
(1768226274.195155) slcan0 7E8#2BFFFFFFFFFFFFFF
(1768226274.197157) slcan0 7E8#2CFFFFFFFFFFFFFF
(1768226274.203472) slcan0 7E8#2DFFFFFFFFFFFFFF
(1768226274.205191) slcan0 7E8#2EFF000000000000
(1768226274.307533) slcan0 7E0#0221900000000000
(1768226274.317635) slcan0 7E8#106D619023036B0B
(1768226274.317658) slcan0 7E0#3000000000000000
(1768226274.323991) slcan0 7E8#21AA0BAEDD000200
(1768226274.325363) slcan0 7E8#220233400F200AC0
(1768226274.327270) slcan0 7E8#2300225800000015
(1768226274.332351) slcan0 7E8#249002212A2D00FF
(1768226274.333153) slcan0 7E8#25FFFFFF38080003
(1768226274.335119) slcan0 7E8#2600482200002855
(1768226274.337380) slcan0 7E8#2742400000840CC5
(1768226274.344385) slcan0 7E8#2868020B28037B04
(1768226274.345186) slcan0 7E8#292B07EB0248018A
(1768226274.347171) slcan0 7E8#2A05837E649A8117
(1768226274.352603) slcan0 7E8#2BFFFFFFFFFFFFFF
(1768226274.353243) slcan0 7E8#2CFFFFFFFFFFFFFF
(1768226274.355191) slcan0 7E8#2DFFFFFFFFFFFFFF
(1768226274.357079) slcan0 7E8#2EFFFFFFFFFFFFFF
(1768226274.365325) slcan0 7E8#2FFFFFFFFFFF0000
(1768226274.670729) slcan0 7E1#013E000000000000
(1768226274.674182) slcan0 7E9#017E000000000000
(1768226274.778577) slcan0 7E1#021A8A0000000000
(1768226274.784361) slcan0 7E9#10125A8A33383838
(1768226274.784556) slcan0 7E1#3000000000000000
(1768226274.788245) slcan0 7E9#21302D373652392A
(1768226274.791664) slcan0 7E9#2200000000000000
(1768226274.882609) slcan0 7E1#021A8E0000000000
(1768226274.886307) slcan0 7E9#10125A8E33383838
(1768226274.886676) slcan0 7E1#3000000000000000
(1768226274.892297) slcan0 7E9#21302D3630523100
(1768226274.894250) slcan0 7E9#2200000000000000
(1768226274.978652) slcan0 7E1#0221050000000000
(1768226274.984361) slcan0 7E9#1082610515100000
(1768226274.984627) slcan0 7E1#3000000000000000
(1768226274.988286) slcan0 7E9#2133380D02C410C3
(1768226274.991673) slcan0 7E9#22FFFFFFFFFF039A
(1768226274.992351) slcan0 7E9#23006400640064FF
(1768226274.994344) slcan0 7E9#2401580064FFFF00
(1768226274.996458) slcan0 7E9#25039700630063FF
(1768226274.998357) slcan0 7E9#26006301560063FF
(1768226275.002731) slcan0 7E9#27FF01155A000011
(1768226275.004267) slcan0 7E9#28032E032E586100
(1768226275.006758) slcan0 7E9#29000026200030FF
(1768226275.008319) slcan0 7E9#2A000000FFFF0FFF
(1768226275.014334) slcan0 7E9#2B0FFF0000FFFF00
(1768226275.016720) slcan0 7E9#2C0A0900FF000000
(1768226275.018330) slcan0 7E9#2DFFFFFFFFFF1AAC
(1768226275.023367) slcan0 7E9#2EFF804A03E3032E
(1768226275.024347) slcan0 7E9#2FFFFF000000FFFF
(1768226275.026529) slcan0 7E9#20FFFFFFFFFF00FF
(1768226275.028282) slcan0 7E9#2100FF0101454000
(1768226275.032369) slcan0 7E9#2200FF10FFFF0000
(1768226275.417091) slcan0 7E4#013E000000000000
(1768226275.427246) slcan0 7EC#017E000000000000
(1768226275.503824) slcan0 7E4#021A8A0000000000
(1768226275.514656) slcan0 7EC#10125A8A39363531
(1768226275.514909) slcan0 7E4#3000000000000000
(1768226275.522859) slcan0 7EC#21302D383550422A
(1768226275.532492) slcan0 7EC#2200000000000000
(1768226275.665683) slcan0 7E4#021A8E0000000000
(1768226275.673130) slcan0 7EC#10125A8E39363531
(1768226275.673414) slcan0 7E4#3000000000000000
(1768226275.682315) slcan0 7EC#21302D3835503000
(1768226275.692434) slcan0 7EC#2200000000000000
(1768226275.769804) slcan0 7E4#0221010000000000
(1768226275.782411) slcan0 7EC#102B61019A9A9999
(1768226275.782638) slcan0 7E4#3000000000000000
(1768226275.792702) slcan0 7EC#2103057F4E7F9085
(1768226275.802979) slcan0 7EC#22FFFF3F5A3F563F
(1768226275.814490) slcan0 7EC#235F3F4A3F518364
(1768226275.823020) slcan0 7EC#241FFF0221090003
(1768226275.833071) slcan0 7EC#2598750514961540
(1768226275.843703) slcan0 7EC#2600000000000000
(1768226276.189161) slcan0 271#013E000000000000
(1768226276.197088) slcan0 671#017E000000000000
(1768226276.270740) slcan0 271#021A8A0000000000
(1768226276.277038) slcan0 671#10125A8A33363737
(1768226276.277221) slcan0 271#3000000000000000
(1768226276.287264) slcan0 671#21352D373652322A
(1768226276.297265) slcan0 671#2200000000000000
(1768226276.430825) slcan0 271#021A8E0000000000
(1768226276.437057) slcan0 671#10125A8E33363737
(1768226276.437232) slcan0 271#3000000000000000
(1768226276.447343) slcan0 671#21352D3736523000
(1768226276.457195) slcan0 671#2200000000000000
(1768226276.533801) slcan0 271#0221080000000000
(1768226276.537390) slcan0 671#1066610820B800FF
(1768226276.537615) slcan0 271#3000000000000000
(1768226276.547375) slcan0 671#210B24FFFFFFFF80
(1768226276.557506) slcan0 671#22FFFFFFFFFFFFFF
(1768226276.567271) slcan0 671#23FFFF001548FFFF
(1768226276.577203) slcan0 671#24FFFFFF01FFFFFF
(1768226276.587249) slcan0 671#25FFFF54FF08FFFF
(1768226276.597162) slcan0 671#2600100007400244
(1768226276.607330) slcan0 671#2700060007000030
(1768226276.617402) slcan0 671#28FFE10D30370BFF
(1768226276.627355) slcan0 671#29FFFFFFFFFFFFFF
(1768226276.637458) slcan0 671#2AFFFFFFFFFFFFFF
(1768226276.647315) slcan0 671#2BFFFFFFFFFFFFFF
(1768226276.657280) slcan0 671#2CFFFFFFFFFFFFFF
(1768226276.667328) slcan0 671#2DFFFFFFFFFFFFFF
(1768226276.677342) slcan0 671#2EFFFFFFFFFF0000
(1768226277.126258) slcan0 7DF#0201000000000000
(1768226277.127144) slcan0 7E8#064100BE3FB80300
(1768226277.219146) slcan0 7DF#07010020406080A0
(1768226277.227174) slcan0 7E8#10104100BE3FB803
(1768226277.227397) slcan0 7E0#3000000000000000
(1768226277.232143) slcan0 7E8#2120A005A001406A
(1768226277.232952) slcan0 7E8#22D0000000000000
(1768226277.308866) slcan0 7DF#0301050F00000000
(1768226277.317146) slcan0 7E8#054105590F230000
(1768226277.731107) slcan0 7E0#013E000000000000
(1768226277.737134) slcan0 7E8#017E000000000000
(1768226277.814646) slcan0 7E0#021A8A0000000000
(1768226277.817051) slcan0 7E8#10125A8A33333938
(1768226277.817362) slcan0 7E0#3000000000000000
(1768226277.823618) slcan0 7E8#21302D373652302A
(1768226277.825060) slcan0 7E8#2200000000000000
(1768226277.900688) slcan0 7E0#021A8E0000000000
(1768226277.907160) slcan0 7E8#10125A8E33333938
(1768226277.907321) slcan0 7E0#3000000000000000
(1768226277.914284) slcan0 7E8#21302D3736523000
(1768226277.915173) slcan0 7E8#2200000000000000
(1768226277.993576) slcan0 7E0#0221000000000000
(1768226277.997480) slcan0 7E8#10D2610000076100
(1768226277.997668) slcan0 7E0#3000000000000000
(1768226278.003096) slcan0 7E8#21FFFFFFFF4DFFFF
(1768226278.005164) slcan0 7E8#22FFFFFFFF02FF7D
(1768226278.007086) slcan0 7E8#2378FFFF75FF05D7
(1768226278.013754) slcan0 7E8#24FFFF800123012C
(1768226278.015035) slcan0 7E8#25FFFF331508AD01
(1768226278.017148) slcan0 7E8#2660002359236100
(1768226278.023549) slcan0 7E8#27FF0C017FFFFFFF
(1768226278.025097) slcan0 7E8#28FFFFFFFFFF5727
(1768226278.027092) slcan0 7E8#29D82613001111FF
(1768226278.032062) slcan0 7E8#2AFFFFFFFFFFFFFF
(1768226278.033136) slcan0 7E8#2B27FFFFFFFFFFFF
(1768226278.035034) slcan0 7E8#2CFFFFFFFFFFFFFF
(1768226278.037183) slcan0 7E8#2DFFFFFFFFFFFFFF
(1768226278.044291) slcan0 7E8#2EFFFF37DC6538FF
(1768226278.045018) slcan0 7E8#2FFFFFFFFF09FFFF
(1768226278.047037) slcan0 7E8#20FFFFFFFFFFFF19
(1768226278.051705) slcan0 7E8#2100FFFFFFFFA900
(1768226278.053157) slcan0 7E8#22FF00FF01FFFFFF
(1768226278.055136) slcan0 7E8#23FFFF008800FF02
(1768226278.057094) slcan0 7E8#2401FFFF00FFFFFF
(1768226278.064684) slcan0 7E8#25142BFF61FFFFFF
(1768226278.065029) slcan0 7E8#26FFFFFFFFFFFFFF
(1768226278.066916) slcan0 7E8#27FFFFFFFFFFFFFF
(1768226278.072069) slcan0 7E8#28FFFFFFFFFFFFFF
(1768226278.073058) slcan0 7E8#29FFFFFFFFFFFFFF
(1768226278.074972) slcan0 7E8#2AFFFFFFFFFFFFFF
(1768226278.077058) slcan0 7E8#2BFFFFFFFFFFFFFF
(1768226278.083087) slcan0 7E8#2CFFFFFFFFFFFFFF
(1768226278.085057) slcan0 7E8#2DFFFFFFFFFFFFFF
(1768226278.087010) slcan0 7E8#2EFF000000000000
(1768226278.163597) slcan0 7E0#0221900000000000
(1768226278.167103) slcan0 7E8#106D619023036B0B
(1768226278.167356) slcan0 7E0#3000000000000000
(1768226278.171800) slcan0 7E8#21C50BB0DD001500
(1768226278.173040) slcan0 7E8#220233400F200AC0
(1768226278.175097) slcan0 7E8#2300225900000015
(1768226278.177002) slcan0 7E8#2406021A2A2D00FF
(1768226278.183598) slcan0 7E8#25FFFFFF38080003
(1768226278.185187) slcan0 7E8#2600482200002855
(1768226278.187195) slcan0 7E8#2742400000840CC5
(1768226278.192024) slcan0 7E8#2868020B61037004
(1768226278.193080) slcan0 7E8#292B07EB0248018A
(1768226278.195081) slcan0 7E8#2A05837E649A7E19
(1768226278.197168) slcan0 7E8#2BFFFFFFFFFFFFFF
(1768226278.202766) slcan0 7E8#2CFFFFFFFFFFFFFF
(1768226278.203038) slcan0 7E8#2DFFFFFFFFFFFFFF
(1768226278.205111) slcan0 7E8#2EFFFFFFFFFFFFFF
(1768226278.207039) slcan0 7E8#2FFFFFFFFFFF0000
(1768226278.749755) slcan0 7E1#013E000000000000
(1768226278.754233) slcan0 7E9#017E000000000000
(1768226278.842468) slcan0 7E1#021A8A0000000000
(1768226278.846584) slcan0 7E9#10125A8A33383838
(1768226278.846664) slcan0 7E1#3000000000000000
(1768226278.851991) slcan0 7E9#21302D373652392A
(1768226278.854266) slcan0 7E9#2200000000000000
(1768226278.931468) slcan0 7E1#021A8E0000000000
(1768226278.934216) slcan0 7E9#10125A8E33383838
(1768226278.934497) slcan0 7E1#3000000000000000
(1768226278.938126) slcan0 7E9#21302D3630523100
(1768226278.943373) slcan0 7E9#2200000000000000
(1768226279.021446) slcan0 7E1#0221050000000000
(1768226279.024278) slcan0 7E9#1082610514E80000
(1768226279.024461) slcan0 7E1#3000000000000000
(1768226279.028173) slcan0 7E9#2133385202C910C3
(1768226279.032336) slcan0 7E9#22FFFFFFFFFF039A
(1768226279.034230) slcan0 7E9#23006400640064FF
(1768226279.036463) slcan0 7E9#2401580064FFFF00
(1768226279.038221) slcan0 7E9#25039E00630063FF
(1768226279.043598) slcan0 7E9#26006401580063FF
(1768226279.044372) slcan0 7E9#27FF011548000011
(1768226279.046337) slcan0 7E9#28032E032E586100
(1768226279.048099) slcan0 7E9#29000026200030FF
(1768226279.051582) slcan0 7E9#2A000000FFFF0FFF
(1768226279.052128) slcan0 7E9#2B0FFF0000FFFF00
(1768226279.054151) slcan0 7E9#2C0A0900FF000000
(1768226279.056286) slcan0 7E9#2DFFFFFFFFFF1AAC
(1768226279.058136) slcan0 7E9#2EFF806003E3032F
(1768226279.063454) slcan0 7E9#2FFFFF000000FFFF
(1768226279.064191) slcan0 7E9#20FFFFFFFFFF00FF
(1768226279.066582) slcan0 7E9#2100FF0101454000
(1768226279.068146) slcan0 7E9#2200FF10FFFF0000
(1768226279.454837) slcan0 7E4#013E000000000000
(1768226279.464823) slcan0 7EC#017E000000000000
(1768226279.602560) slcan0 7E4#021A8A0000000000
(1768226279.613163) slcan0 7EC#10125A8A39363531
(1768226279.613212) slcan0 7E4#3000000000000000
(1768226279.622639) slcan0 7EC#21302D383550422A
(1768226279.632283) slcan0 7EC#2200000000000000
(1768226279.798510) slcan0 7E4#021A8E0000000000
(1768226279.813572) slcan0 7EC#10125A8E39363531
(1768226279.813776) slcan0 7E4#3000000000000000
(1768226279.822900) slcan0 7EC#21302D3835503000
(1768226279.832348) slcan0 7EC#2200000000000000
(1768226279.952585) slcan0 7E4#0221010000000000
(1768226279.963500) slcan0 7EC#102B61019A9A9999
(1768226279.963619) slcan0 7E4#3000000000000000
(1768226279.972068) slcan0 7EC#2103057F4E7F8F85
(1768226279.981703) slcan0 7EC#22FFFF3F5A3F583F
(1768226279.993363) slcan0 7EC#235F3F493F508364
(1768226280.002479) slcan0 7EC#241FFF0221090003
(1768226280.013712) slcan0 7EC#259875051497152A
(1768226280.022654) slcan0 7EC#2600000000000000
(1768226280.377757) slcan0 271#013E000000000000
(1768226280.387178) slcan0 671#017E000000000000
(1768226280.469508) slcan0 271#021A8A0000000000
(1768226280.477149) slcan0 671#10125A8A33363737
(1768226280.477311) slcan0 271#3000000000000000
(1768226280.487321) slcan0 671#21352D373652322A
(1768226280.497294) slcan0 671#2200000000000000
(1768226280.576533) slcan0 271#021A8E0000000000
(1768226280.587149) slcan0 671#10125A8E33363737
(1768226280.587222) slcan0 271#3000000000000000
(1768226280.597395) slcan0 671#21352D3736523000
(1768226280.607446) slcan0 671#2200000000000000
(1768226280.720571) slcan0 271#0221080000000000
(1768226280.727206) slcan0 671#1066610820B900FF
(1768226280.727445) slcan0 271#3000000000000000
(1768226280.737343) slcan0 671#210B24FFFFFFFF80
(1768226280.747442) slcan0 671#22FFFFFFFFFFFFFF
(1768226280.757279) slcan0 671#23FFFF00152AFFFF
(1768226280.767288) slcan0 671#24FFFFFF01FFFFFF
(1768226280.777371) slcan0 671#25FFFF54FF08FFFF
(1768226280.787197) slcan0 671#2600100007400244
(1768226280.797373) slcan0 671#2700060007000030
(1768226280.807451) slcan0 671#28FFE10D30370BFF
(1768226280.817493) slcan0 671#29FFFFFFFFFFFFFF
(1768226280.827250) slcan0 671#2AFFFFFFFFFFFFFF
(1768226280.837360) slcan0 671#2BFFFFFFFFFFFFFF
(1768226280.847341) slcan0 671#2CFFFFFFFFFFFFFF
(1768226280.857331) slcan0 671#2DFFFFFFFFFFFFFF
(1768226280.867397) slcan0 671#2EFFFFFFFFFF0000
(1768226281.335233) slcan0 7DF#0201000000000000
(1768226281.347003) slcan0 7E8#064100BE3FB80300
(1768226281.426032) slcan0 7DF#07010020406080A0
(1768226281.437458) slcan0 7E8#10104100BE3FB803
(1768226281.437730) slcan0 7E0#3000000000000000
(1768226281.443834) slcan0 7E8#2120A005A001406A
(1768226281.444878) slcan0 7E8#22D0000000000000
(1768226281.580928) slcan0 7DF#0301050F00000000
(1768226281.587053) slcan0 7E8#054105590F230000
(1768226281.931471) slcan0 7E0#013E000000000000
(1768226281.937065) slcan0 7E8#017E000000000000
(1768226282.018259) slcan0 7E0#021A8A0000000000
(1768226282.027019) slcan0 7E8#10125A8A33333938
(1768226282.027128) slcan0 7E0#3000000000000000
(1768226282.032181) slcan0 7E8#21302D373652302A
(1768226282.032976) slcan0 7E8#2200000000000000
(1768226282.108149) slcan0 7E0#021A8E0000000000
(1768226282.117181) slcan0 7E8#10125A8E33333938
(1768226282.117389) slcan0 7E0#3000000000000000
(1768226282.122724) slcan0 7E8#21302D3736523000
(1768226282.124936) slcan0 7E8#2200000000000000
(1768226282.261110) slcan0 7E0#0221000000000000
(1768226282.267120) slcan0 7E8#10D2610000076100
(1768226282.267486) slcan0 7E0#3000000000000000
(1768226282.271827) slcan0 7E8#21FFFFFFFF4DFFFF
(1768226282.272793) slcan0 7E8#22FFFFFFFF02FF7F
(1768226282.274880) slcan0 7E8#2378FFFF78FF05E7
(1768226282.276864) slcan0 7E8#24FFFF7D0123012C
(1768226282.282643) slcan0 7E8#25FFFF331552AD01
(1768226282.284824) slcan0 7E8#266B002359236100
(1768226282.286815) slcan0 7E8#27FF0C017DFFFFFF
(1768226282.291159) slcan0 7E8#28FFFFFFFFFF5827
(1768226282.292750) slcan0 7E8#29D82613001111FF
(1768226282.294779) slcan0 7E8#2AFFFFFFFFFFFFFF
(1768226282.296853) slcan0 7E8#2BA3FFFFFFFFFFFF
(1768226282.303096) slcan0 7E8#2CFFFFFFFFFFFFFF
(1768226282.304849) slcan0 7E8#2DFFFFFFFFFFFFFF
(1768226282.306943) slcan0 7E8#2EFFFF37DC6538FF
(1768226282.313404) slcan0 7E8#2FFFFFFFFF09FFFF
(1768226282.314957) slcan0 7E8#20FFFFFFFFFFFF19
(1768226282.316981) slcan0 7E8#2100FFFFFFFFA900
(1768226282.322677) slcan0 7E8#22FF00FF01FFFFFF
(1768226282.324901) slcan0 7E8#23FFFF008800FF02
(1768226282.326953) slcan0 7E8#2401FFFF00FFFFFF
(1768226282.332005) slcan0 7E8#25142BFF61FFFFFF
(1768226282.332988) slcan0 7E8#26FFFFFFFFFFFFFF
(1768226282.334892) slcan0 7E8#27FFFFFFFFFFFFFF
(1768226282.336860) slcan0 7E8#28FFFFFFFFFFFFFF
(1768226282.344464) slcan0 7E8#29FFFFFFFFFFFFFF
(1768226282.344892) slcan0 7E8#2AFFFFFFFFFFFFFF
(1768226282.347095) slcan0 7E8#2BFFFFFFFFFFFFFF
(1768226282.351543) slcan0 7E8#2CFFFFFFFFFFFFFF
(1768226282.352961) slcan0 7E8#2DFFFFFFFFFFFFFF
(1768226282.355039) slcan0 7E8#2EFF000000000000
(1768226282.440183) slcan0 7E0#0221900000000000
(1768226282.447170) slcan0 7E8#106D619023036B0B
(1768226282.447433) slcan0 7E0#3000000000000000
(1768226282.451620) slcan0 7E8#21970BB0DD001500
(1768226282.452912) slcan0 7E8#2202344017200AC0
(1768226282.454902) slcan0 7E8#2300225900000015
(1768226282.456893) slcan0 7E8#244C021B2A2D00FF
(1768226282.464619) slcan0 7E8#25FFFFFF38080003
(1768226282.464930) slcan0 7E8#2600482200002855
(1768226282.466941) slcan0 7E8#2742400000840CC5
(1768226282.471664) slcan0 7E8#2868020B3C037304
(1768226282.472915) slcan0 7E8#292B07EB0248018A
(1768226282.474969) slcan0 7E8#2A05837E649A8317
(1768226282.476992) slcan0 7E8#2BFFFFFFFFFFFFFF
(1768226282.482026) slcan0 7E8#2CFFFFFFFFFFFFFF
(1768226282.483027) slcan0 7E8#2DFFFFFFFFFFFFFF
(1768226282.484880) slcan0 7E8#2EFFFFFFFFFFFFFF
(1768226282.487004) slcan0 7E8#2FFFFFFFFFFF0000
(1768226282.876340) slcan0 7E1#013E000000000000
(1768226282.882020) slcan0 7E9#017E000000000000
(1768226282.959021) slcan0 7E1#021A8A0000000000
(1768226282.966411) slcan0 7E9#10125A8A33383838
(1768226282.966591) slcan0 7E1#3000000000000000
(1768226282.971446) slcan0 7E9#21302D373652392A
(1768226282.972075) slcan0 7E9#2200000000000000
(1768226283.101042) slcan0 7E1#021A8E0000000000
(1768226283.104067) slcan0 7E9#10125A8E33383838
(1768226283.104357) slcan0 7E1#3000000000000000
(1768226283.108028) slcan0 7E9#21302D3630523100
(1768226283.113386) slcan0 7E9#2200000000000000
(1768226283.193925) slcan0 7E1#0221050000000000
(1768226283.196216) slcan0 7E9#1082610514B80000
(1768226283.196399) slcan0 7E1#3000000000000000
(1768226283.201874) slcan0 7E9#2134382002C410C3
(1768226283.205016) slcan0 7E9#22FFFFFFFFFF039A
(1768226283.206245) slcan0 7E9#23006400640064FF
(1768226283.208058) slcan0 7E9#2401580064FFFF00
(1768226283.212936) slcan0 7E9#25039800640064FF
(1768226283.214019) slcan0 7E9#26006401580064FF
(1768226283.216334) slcan0 7E9#27FF011512000011
(1768226283.218148) slcan0 7E9#2803320331586100
(1768226283.222403) slcan0 7E9#29000026200030FF
(1768226283.223927) slcan0 7E9#2A000000FFFF0FFF
(1768226283.226110) slcan0 7E9#2B0FFF0000FFFF00
(1768226283.227949) slcan0 7E9#2C0A0900FF000000
(1768226283.231717) slcan0 7E9#2DFFFFFFFFFF1AAC
(1768226283.233925) slcan0 7E9#2EFF805A03E30332
(1768226283.236346) slcan0 7E9#2FFFFF000000FFFF
(1768226283.238002) slcan0 7E9#20FFFFFFFFFF00FF
(1768226283.243210) slcan0 7E9#2100FF0101454000
(1768226283.243891) slcan0 7E9#2200FF10FFFF0000
(1768226283.641198) slcan0 7E4#013E000000000000
(1768226283.652422) slcan0 7EC#017E000000000000
(1768226283.729012) slcan0 7E4#021A8A0000000000
(1768226283.737516) slcan0 7EC#10125A8A39363531
(1768226283.737762) slcan0 7E4#3000000000000000
(1768226283.752467) slcan0 7EC#21302D383550422A
(1768226283.763254) slcan0 7EC#2200000000000000
(1768226283.881044) slcan0 7E4#021A8E0000000000
(1768226283.887535) slcan0 7EC#10125A8E39363531
(1768226283.887776) slcan0 7E4#3000000000000000
(1768226283.898006) slcan0 7EC#21302D3835503000
(1768226283.914357) slcan0 7EC#2200000000000000
(1768226283.989041) slcan0 7E4#0221010000000000
(1768226283.997868) slcan0 7EC#102B61019A9A9999
(1768226283.998172) slcan0 7E4#3000000000000000
(1768226284.007942) slcan0 7EC#2103057F4D7F9085
(1768226284.017890) slcan0 7EC#22FFFF3F5B3F5A3F
(1768226284.027756) slcan0 7EC#23633F4D3F4E8364
(1768226284.037728) slcan0 7EC#241FFF0221090003
(1768226284.048241) slcan0 7EC#259875051497154E
(1768226284.058117) slcan0 7EC#2600000000000000
(1768226284.491274) slcan0 271#013E000000000000
(1768226284.497164) slcan0 671#017E000000000000
(1768226284.656882) slcan0 271#021A8A0000000000
(1768226284.666975) slcan0 671#10125A8A33363737
(1768226284.667239) slcan0 271#3000000000000000
(1768226284.677159) slcan0 671#21352D373652322A
(1768226284.687262) slcan0 671#2200000000000000
(1768226284.826055) slcan0 271#021A8E0000000000
(1768226284.837150) slcan0 671#10125A8E33363737
(1768226284.837442) slcan0 271#3000000000000000
(1768226284.847584) slcan0 671#21352D3736523000
(1768226284.857274) slcan0 671#2200000000000000
(1768226284.999972) slcan0 271#0221080000000000
(1768226285.007266) slcan0 671#1066610820B800FF
(1768226285.007533) slcan0 271#3000000000000000
(1768226285.017405) slcan0 671#210B25FFFFFFFF80
(1768226285.027712) slcan0 671#22FFFFFFFFFFFFFF
(1768226285.037613) slcan0 671#23FFFF001502FFFF
(1768226285.047490) slcan0 671#24FFFFFF01FFFFFF
(1768226285.057369) slcan0 671#25FFFF54FF08FFFF
(1768226285.067409) slcan0 671#2600100007400244
(1768226285.077298) slcan0 671#2700060007000030
(1768226285.087447) slcan0 671#28FFE10D30370BFF
(1768226285.097394) slcan0 671#29FFFFFFFFFFFFFF
(1768226285.107420) slcan0 671#2AFFFFFFFFFFFFFF
(1768226285.117420) slcan0 671#2BFFFFFFFFFFFFFF
(1768226285.127756) slcan0 671#2CFFFFFFFFFFFFFF
(1768226285.137408) slcan0 671#2DFFFFFFFFFFFFFF
(1768226285.147399) slcan0 671#2EFFFFFFFFFF0000
(1768226285.604207) slcan0 7DF#0201000000000000
(1768226285.606762) slcan0 7E8#064100BE3FB80300
(1768226285.690268) slcan0 7DF#07010020406080A0
(1768226285.696930) slcan0 7E8#10104100BE3FB803
(1768226285.696974) slcan0 7E0#3000000000000000
(1768226285.702842) slcan0 7E8#2120A005A001406A
(1768226285.704811) slcan0 7E8#22D0000000000000
(1768226285.868238) slcan0 7DF#0301050F00000000
(1768226285.876833) slcan0 7E8#054105590F230000
(1768226286.287331) slcan0 7E0#013E000000000000
(1768226286.296786) slcan0 7E8#017E000000000000
(1768226286.468235) slcan0 7E0#021A8A0000000000
(1768226286.476741) slcan0 7E8#10125A8A33333938
(1768226286.476912) slcan0 7E0#3000000000000000
(1768226286.482193) slcan0 7E8#21302D373652302A
(1768226286.482722) slcan0 7E8#2200000000000000
(1768226286.556367) slcan0 7E0#021A8E0000000000
(1768226286.566830) slcan0 7E8#10125A8E33333938
(1768226286.567088) slcan0 7E0#3000000000000000
(1768226286.571732) slcan0 7E8#21302D3736523000
(1768226286.572744) slcan0 7E8#2200000000000000
(1768226286.649526) slcan0 7E0#0221000000000000
(1768226286.657105) slcan0 7E8#10D2610000076100
(1768226286.657237) slcan0 7E0#3000000000000000
(1768226286.658666) slcan0 7E8#21FFFFFFFF4DFFFF
(1768226286.664509) slcan0 7E8#22FFFFFFFF02FF80
(1768226286.666571) slcan0 7E8#2378FFFF78FF05F0
(1768226286.671769) slcan0 7E8#24FFFF7D0124012C
(1768226286.672533) slcan0 7E8#25FFFF311554AD01
(1768226286.674521) slcan0 7E8#2666002359236100
(1768226286.676568) slcan0 7E8#27FF0C017EFFFFFF
(1768226286.682394) slcan0 7E8#28FFFFFFFFFF5827
(1768226286.684520) slcan0 7E8#29D82613001111FF
(1768226286.686651) slcan0 7E8#2AFFFFFFFFFFFFFF
(1768226286.691208) slcan0 7E8#2BA0FFFFFFFFFFFF
(1768226286.692551) slcan0 7E8#2CFFFFFFFFFFFFFF
(1768226286.694631) slcan0 7E8#2DFFFFFFFFFFFFFF
(1768226286.696544) slcan0 7E8#2EFFFF37956538FF
(1768226286.702502) slcan0 7E8#2FFFFFFFFF09FFFF
(1768226286.704551) slcan0 7E8#20FFFFFFFFFFFF19
(1768226286.706555) slcan0 7E8#2100FFFFFFFFA900
(1768226286.713544) slcan0 7E8#22FF00FF01FFFFFF
(1768226286.714556) slcan0 7E8#23FFFF008800FF02
(1768226286.716572) slcan0 7E8#2401FFFF00FFFFFF
(1768226286.724187) slcan0 7E8#25142BFF61FFFFFF
(1768226286.724669) slcan0 7E8#26FFFFFFFFFFFFFF
(1768226286.726674) slcan0 7E8#27FFFFFFFFFFFFFF
(1768226286.732143) slcan0 7E8#28FFFFFFFFFFFFFF
(1768226286.732683) slcan0 7E8#29FFFFFFFFFFFFFF
(1768226286.734656) slcan0 7E8#2AFFFFFFFFFFFFFF
(1768226286.736836) slcan0 7E8#2BFFFFFFFFFFFFFF
(1768226286.744230) slcan0 7E8#2CFFFFFFFFFFFFFF
(1768226286.744653) slcan0 7E8#2DFFFFFFFFFFFFFF
(1768226286.746564) slcan0 7E8#2EFF000000000000
(1768226286.861494) slcan0 7E0#0221900000000000
(1768226286.867016) slcan0 7E8#106D619023036B0B
(1768226286.867256) slcan0 7E0#3000000000000000
(1768226286.868669) slcan0 7E8#21970BADDD000F00
(1768226286.872126) slcan0 7E8#220234400F200AC0
(1768226286.872820) slcan0 7E8#2300225900000015
(1768226286.874708) slcan0 7E8#2434021B2A2D00FF
(1768226286.876726) slcan0 7E8#25FFFFFF38080003
(1768226286.882049) slcan0 7E8#2600482200002855
(1768226286.882746) slcan0 7E8#2742400000840CC5
(1768226286.884641) slcan0 7E8#2868020B3F037004
(1768226286.886768) slcan0 7E8#292B07EB0248018A
(1768226286.891032) slcan0 7E8#2A05837E649A8317
(1768226286.892749) slcan0 7E8#2BFFFFFFFFFFFFFF
(1768226286.894841) slcan0 7E8#2CFFFFFFFFFFFFFF
(1768226286.896838) slcan0 7E8#2DFFFFFFFFFFFFFF
(1768226286.902895) slcan0 7E8#2EFFFFFFFFFFFFFF
(1768226286.904658) slcan0 7E8#2FFFFFFFFFFF0000
(1768226287.314169) slcan0 7E1#013E000000000000
(1768226287.316323) slcan0 7E9#017E000000000000
(1768226287.398010) slcan0 7E1#021A8A0000000000
(1768226287.404531) slcan0 7E9#10125A8A33383838
(1768226287.404797) slcan0 7E1#3000000000000000
(1768226287.407939) slcan0 7E9#21302D373652392A
(1768226287.413433) slcan0 7E9#2200000000000000
(1768226287.489016) slcan0 7E1#021A8E0000000000
(1768226287.493988) slcan0 7E9#10125A8E33383838
(1768226287.494210) slcan0 7E1#3000000000000000
(1768226287.498018) slcan0 7E9#21302D3630523100
(1768226287.502642) slcan0 7E9#2200000000000000
(1768226287.645178) slcan0 7E1#0221050000000000
(1768226287.647914) slcan0 7E9#1082610514E00000
(1768226287.648194) slcan0 7E1#3000000000000000
(1768226287.653802) slcan0 7E9#2134380D02C910C3
(1768226287.656283) slcan0 7E9#22FFFFFFFFFF039A
(1768226287.657807) slcan0 7E9#23006400640064FF
(1768226287.663589) slcan0 7E9#2401580064FFFF00
(1768226287.666039) slcan0 7E9#25039C00630063FF
(1768226287.667775) slcan0 7E9#26006301580063FF
(1768226287.671298) slcan0 7E9#27FF011542000011
(1768226287.671903) slcan0 7E9#28032E032C586100
(1768226287.673773) slcan0 7E9#2900002620001DFF
(1768226287.676005) slcan0 7E9#2A000000FFFF0FFF
(1768226287.677823) slcan0 7E9#2B0FFF0000FFFF00
(1768226287.681401) slcan0 7E9#2C0A0900FF000000
(1768226287.682121) slcan0 7E9#2DFFFFFFFFFF1AAC
(1768226287.683803) slcan0 7E9#2EFF806203E3032E
(1768226287.686293) slcan0 7E9#2FFFFF000000FFFF
(1768226287.687859) slcan0 7E9#20FFFFFFFFFF00FF
(1768226287.690800) slcan0 7E9#2100FF0101454000
(1768226287.692049) slcan0 7E9#2200FF10FFFF0000
(1768226288.177878) slcan0 7E4#013E000000000000
(1768226288.191063) slcan0 7EC#017E000000000000
(1768226288.327575) slcan0 7E4#021A8A0000000000
(1768226288.343199) slcan0 7EC#10125A8A39363531
(1768226288.343405) slcan0 7E4#3000000000000000
(1768226288.352245) slcan0 7EC#21302D383550422A
(1768226288.363990) slcan0 7EC#2200000000000000
(1768226288.499852) slcan0 7E4#021A8E0000000000
(1768226288.513970) slcan0 7EC#10125A8E39363531
(1768226288.514085) slcan0 7E4#3000000000000000
(1768226288.523054) slcan0 7EC#21302D3835503000
(1768226288.533148) slcan0 7EC#2200000000000000
(1768226288.610833) slcan0 7E4#0221010000000000
(1768226288.622601) slcan0 7EC#102B61019A9A9999
(1768226288.622853) slcan0 7E4#3000000000000000
(1768226288.632559) slcan0 7EC#2103057F4E7F9185
(1768226288.643254) slcan0 7EC#22FFFF3F593F583F
(1768226288.652298) slcan0 7EC#23603F493F508364
(1768226288.663982) slcan0 7EC#241FFF0221080003
(1768226288.671982) slcan0 7EC#2598750514971516
(1768226288.681188) slcan0 7EC#2600000000000000
(1768226289.112383) slcan0 271#013E000000000000
(1768226289.117198) slcan0 671#017E000000000000
(1768226289.196246) slcan0 271#021A8A0000000000
(1768226289.207206) slcan0 671#10125A8A33363737
(1768226289.207408) slcan0 271#3000000000000000
(1768226289.217346) slcan0 671#21352D373652322A
(1768226289.227882) slcan0 671#2200000000000000
