(1768226052.101157) slcan0 7E1#0221050000000000
(1768226052.104666) slcan0 7E9#1082610516380000
(1768226052.104955) slcan0 7E1#3000000000000000
(1768226052.110454) slcan0 7E9#2127388F02C910BE
(1768226052.113028) slcan0 7E9#22FFFFFFFFFF031F
(1768226052.114573) slcan0 7E9#23006400640064FF
(1768226052.116989) slcan0 7E9#2400640064FFFF00
(1768226052.123742) slcan0 7E9#25032400640064FF
(1768226052.124881) slcan0 7E9#26006400640063FF
(1768226052.126773) slcan0 7E9#27FF011716000014
(1768226052.133623) slcan0 7E9#280331032F466100
(1768226052.134760) slcan0 7E9#29000028000030FF
(1768226052.136824) slcan0 7E9#2A000000FFFF0FFF
(1768226052.140108) slcan0 7E9#2B0FFF0000FFFF00
(1768226052.140772) slcan0 7E9#2C0A0900FF000000
(1768226052.143285) slcan0 7E9#2DFFFFFFFFFF1AAC
(1768226052.144785) slcan0 7E9#2EFF80DE03E30331
(1768226052.146842) slcan0 7E9#2FFFFF000000FFFF
(1768226052.152119) slcan0 7E9#20FFFFFFFFFF00FF
(1768226052.153690) slcan0 7E9#2100FF0000454000
(1768226052.154805) slcan0 7E9#2200FF10FFFF0000
(1768226052.283228) slcan0 7E1#0221060000000000
(1768226052.286843) slcan0 7E9#037F211200000000
(1768226052.418160) slcan0 7E1#0221800000000000
(1768226052.424823) slcan0 7E9#100D618038393530
(1768226052.424967) slcan0 7E1#3000000000000000
(1768226052.430771) slcan0 7E9#2133544641383930
(1768226052.540060) slcan0 7E1#0221050000000000
(1768226052.543106) slcan0 7E9#1082610516200000
(1768226052.543266) slcan0 7E1#3000000000000000
(1768226052.546782) slcan0 7E9#212738AB02C910BE
(1768226052.551227) slcan0 7E9#22FFFFFFFFFF031F
(1768226052.554268) slcan0 7E9#23006400640064FF
(1768226052.554737) slcan0 7E9#2400640064FFFF00
(1768226052.556629) slcan0 7E9#25031C00630063FF
(1768226052.560926) slcan0 7E9#26006300630063FF
(1768226052.563330) slcan0 7E9#27FF011700000014
(1768226052.564842) slcan0 7E9#2803310330466100
(1768226052.566817) slcan0 7E9#2900002800001DFF
(1768226052.570559) slcan0 7E9#2A000000FFFF0FFF
(1768226052.573156) slcan0 7E9#2B0FFF0000FFFF00
(1768226052.574673) slcan0 7E9#2C0A0900FF000000
(1768226052.576789) slcan0 7E9#2DFFFFFFFFFF1AAC
(1768226052.579819) slcan0 7E9#2EFF80E003E30330
(1768226052.580604) slcan0 7E9#2FFFFF000000FFFF
(1768226052.582913) slcan0 7E9#20FFFFFFFFFF00FF
(1768226052.584711) slcan0 7E9#2100FF0000454000
(1768226052.586708) slcan0 7E9#2200FF10FFFF0000
(1768226052.671729) slcan0 7E1#0221050000000000
(1768226052.676629) slcan0 7E9#1082610516200000
(1768226052.676937) slcan0 7E1#3000000000000000
(1768226052.682778) slcan0 7E9#2127385702C910BE
(1768226052.684617) slcan0 7E9#22FFFFFFFFFF031F
(1768226052.686566) slcan0 7E9#23006400640064FF
(1768226052.689989) slcan0 7E9#2400640064FFFF00
(1768226052.690566) slcan0 7E9#25032000630064FF
(1768226052.692992) slcan0 7E9#26006300630063FF
(1768226052.694587) slcan0 7E9#27FF0116FC000014
(1768226052.696563) slcan0 7E9#2803340330466100
(1768226052.699485) slcan0 7E9#29000028000044FF
(1768226052.700564) slcan0 7E9#2A000000FFFF0FFF
(1768226052.702811) slcan0 7E9#2B0FFF0000FFFF00
(1768226052.704588) slcan0 7E9#2C0A0900FF000000
(1768226052.706614) slcan0 7E9#2DFFFFFFFFFF1AAC
(1768226052.710145) slcan0 7E9#2EFF80DC03E30333
(1768226052.710584) slcan0 7E9#2FFFFF000000FFFF
(1768226052.713087) slcan0 7E9#20FFFFFFFFFF00FF
(1768226052.714589) slcan0 7E9#2100FF0000454000
(1768226052.716741) slcan0 7E9#2200FF10FFFF0000
(1768226052.819952) slcan0 7E1#0418000000000000
(1768226052.824931) slcan0 7E9#037F181200000000
(1768226052.907145) slcan0 7E1#0418004000000000
(1768226052.912878) slcan0 7E9#037F181200000000
(1768226053.014041) slcan0 7E1#0418008000000000
(1768226053.016922) slcan0 7E9#037F181200000000
(1768226053.097931) slcan0 7E1#041800C000000000
(1768226053.102874) slcan0 7E9#037F181200000000
(1768226053.226872) slcan0 7E1#041800FF00000000
(1768226053.233027) slcan0 7E9#0258000000000000
(1768226053.308865) slcan0 7E1#041800FFFF000000
(1768226053.312929) slcan0 7E9#037F181200000000
(1768226053.388826) slcan0 7E1#0221050000000000
(1768226053.392946) slcan0 7E9#10826105164C0000
(1768226053.393140) slcan0 7E1#3000000000000000
(1768226053.396892) slcan0 7E9#2127383802C410BE
(1768226053.399800) slcan0 7E9#22FFFFFFFFFF031F
(1768226053.400557) slcan0 7E9#23006400640064FF
(1768226053.402923) slcan0 7E9#2400640064FFFF00
(1768226053.404727) slcan0 7E9#25031500620062FF
(1768226053.406872) slcan0 7E9#26006300620062FF
(1768226053.410129) slcan0 7E9#27FF01172A000014
(1768226053.410750) slcan0 7E9#280330032E466100
(1768226053.413054) slcan0 7E9#29000028000030FF
(1768226053.414834) slcan0 7E9#2A000000FFFF0FFF
(1768226053.416868) slcan0 7E9#2B0FFF0000FFFF00
(1768226053.423102) slcan0 7E9#2C0A0900FF000000
(1768226053.424799) slcan0 7E9#2DFFFFFFFFFF1AAC
(1768226053.426762) slcan0 7E9#2EFF80DE03E30330
(1768226053.430875) slcan0 7E9#2FFFFF000000FFFF
(1768226053.432947) slcan0 7E9#20FFFFFFFFFF00FF
(1768226053.434679) slcan0 7E9#2100FF0000454000
(1768226053.440476) slcan0 7E9#2200FF10FFFF0000
(1768226053.570834) slcan0 7E1#0221050000000000
(1768226053.574868) slcan0 7E9#10826105164C0000
(1768226053.574965) slcan0 7E1#3000000000000000
(1768226053.580142) slcan0 7E9#212737CC02C910BE
(1768226053.580710) slcan0 7E9#22FFFFFFFFFF031F
(1768226053.582958) slcan0 7E9#23006400640064FF
(1768226053.584788) slcan0 7E9#2400640064FFFF00
(1768226053.586754) slcan0 7E9#25031B00640064FF
(1768226053.590096) slcan0 7E9#26006300630063FF
(1768226053.590629) slcan0 7E9#27FF01171E000014
(1768226053.592924) slcan0 7E9#280332032F466100
(1768226053.594800) slcan0 7E9#29000028000030FF
(1768226053.596853) slcan0 7E9#2A000000FFFF0FFF
(1768226053.599828) slcan0 7E9#2B0FFF0000FFFF00
(1768226053.600768) slcan0 7E9#2C0A0900FF000000
(1768226053.602947) slcan0 7E9#2DFFFFFFFFFF1AAC
(1768226053.604590) slcan0 7E9#2EFF80D203E30332
(1768226053.606897) slcan0 7E9#2FFFFF000000FFFF
(1768226053.610445) slcan0 7E9#20FFFFFFFFFF00FF
(1768226053.610630) slcan0 7E9#2100FF0000454000
(1768226053.612957) slcan0 7E9#2200FF10FFFF0000
(1768226053.736713) slcan0 7E1#0221050000000000
(1768226053.742965) slcan0 7E9#1082610516380000
(1768226053.743216) slcan0 7E1#3000000000000000
(1768226053.746825) slcan0 7E9#2127387002C910BE
(1768226053.751274) slcan0 7E9#22FFFFFFFFFF031F
(1768226053.753162) slcan0 7E9#23006400640064FF
(1768226053.754616) slcan0 7E9#2400640064FFFF00
(1768226053.756682) slcan0 7E9#25031700620062FF
(1768226053.761453) slcan0 7E9#26006300630062FF
(1768226053.763195) slcan0 7E9#27FF011718000014
(1768226053.764722) slcan0 7E9#280331032F466100
(1768226053.766825) slcan0 7E9#29000028000044FF
(1768226053.770625) slcan0 7E9#2A000000FFFF0FFF
(1768226053.773063) slcan0 7E9#2B0FFF0000FFFF00
(1768226053.774733) slcan0 7E9#2C0A0900FF000000
(1768226053.776631) slcan0 7E9#2DFFFFFFFFFF1AAC
(1768226053.780085) slcan0 7E9#2EFF80E003E30330
(1768226053.780681) slcan0 7E9#2FFFFF000000FFFF
(1768226053.782961) slcan0 7E9#20FFFFFFFFFF00FF
(1768226053.784722) slcan0 7E9#2100FF0000454000
(1768226053.786789) slcan0 7E9#2200FF10FFFF0000
(1768226053.960099) slcan0 7E1#0221050000000000
(1768226053.963198) slcan0 7E9#1082610516280000
(1768226053.963347) slcan0 7E1#3000000000000000
(1768226053.967012) slcan0 7E9#2127383602C910BE
(1768226053.970728) slcan0 7E9#22FFFFFFFFFF031F
(1768226053.972952) slcan0 7E9#23006400640064FF
(1768226053.974794) slcan0 7E9#2400640064FFFF00
(1768226053.976803) slcan0 7E9#25031A00630063FF
(1768226053.980378) slcan0 7E9#26006300630062FF
(1768226053.980731) slcan0 7E9#27FF01170A000014
(1768226053.982953) slcan0 7E9#2803310330466100
(1768226053.984802) slcan0 7E9#2900002800001DFF
(1768226053.986826) slcan0 7E9#2A000000FFFF0FFF
(1768226053.990110) slcan0 7E9#2B0FFF0000FFFF00
(1768226053.990801) slcan0 7E9#2C0A0900FF000000
(1768226053.992958) slcan0 7E9#2DFFFFFFFFFF1AAC
(1768226053.994812) slcan0 7E9#2EFF80E203E30330
(1768226053.996814) slcan0 7E9#2FFFFF000000FFFF
(1768226054.000563) slcan0 7E9#20FFFFFFFFFF00FF
(1768226054.000697) slcan0 7E9#2100FF0000454000
(1768226054.002880) slcan0 7E9#2200FF10FFFF0000
(1768226054.089856) slcan0 7E1#0221050000000000
(1768226054.092948) slcan0 7E9#1082610516300000
(1768226054.093144) slcan0 7E1#3000000000000000
(1768226054.096669) slcan0 7E9#2127382002C910BE
(1768226054.100310) slcan0 7E9#22FFFFFFFFFF031F
(1768226054.100730) slcan0 7E9#23006400640064FF
(1768226054.102815) slcan0 7E9#2400640064FFFF00
(1768226054.104587) slcan0 7E9#25031B00630063FF
(1768226054.106593) slcan0 7E9#26006300630063FF
(1768226054.110009) slcan0 7E9#27FF01171A000014
(1768226054.110613) slcan0 7E9#28032F032F466100
(1768226054.112762) slcan0 7E9#29000028000030FF
(1768226054.114595) slcan0 7E9#2A000000FFFF0FFF
(1768226054.116772) slcan0 7E9#2B0FFF0000FFFF00
(1768226054.124376) slcan0 7E9#2C0A0900FF000000
(1768226054.124607) slcan0 7E9#2DFFFFFFFFFF1AAC
(1768226054.126642) slcan0 7E9#2EFF80EA03E3032E
(1768226054.130447) slcan0 7E9#2FFFFF000000FFFF
(1768226054.132847) slcan0 7E9#20FFFFFFFFFF00FF
(1768226054.134636) slcan0 7E9#2100FF0000454000
(1768226054.136571) slcan0 7E9#2200FF10FFFF0000
(1768226054.264036) slcan0 7E1#0221050000000000
(1768226054.266836) slcan0 7E9#1082610516380000
(1768226054.267041) slcan0 7E1#3000000000000000
(1768226054.273011) slcan0 7E9#2127383E02C910C3
(1768226054.274811) slcan0 7E9#22FFFFFFFFFF031F
(1768226054.276797) slcan0 7E9#23006400640064FF
(1768226054.280165) slcan0 7E9#2400640064FFFF00
(1768226054.280881) slcan0 7E9#25032000640063FF
(1768226054.282947) slcan0 7E9#26006300630063FF
(1768226054.284784) slcan0 7E9#27FF011714000014
(1768226054.286797) slcan0 7E9#280331032F466100
(1768226054.290120) slcan0 7E9#2900002800001DFF
(1768226054.290732) slcan0 7E9#2A000000FFFF0FFF
(1768226054.292908) slcan0 7E9#2B0FFF0000FFFF00
(1768226054.294802) slcan0 7E9#2C0A0900FF000000
(1768226054.296827) slcan0 7E9#2DFFFFFFFFFF1AAC
(1768226054.299722) slcan0 7E9#2EFF80DC03E30330
(1768226054.300708) slcan0 7E9#2FFFFF000000FFFF
(1768226054.302894) slcan0 7E9#20FFFFFFFFFF00FF
(1768226054.304784) slcan0 7E9#2100FF0000454000
(1768226054.306745) slcan0 7E9#2200FF10FFFF0000
(1768226054.384991) slcan0 7E1#0221050000000000
(1768226054.386829) slcan0 7E9#1082610516400000
(1768226054.386966) slcan0 7E1#3000000000000000
(1768226054.392912) slcan0 7E9#212737E202C910BE
(1768226054.394851) slcan0 7E9#22FFFFFFFFFF031F
(1768226054.396784) slcan0 7E9#23006400640064FF
(1768226054.399945) slcan0 7E9#2400640064FFFF00
(1768226054.400813) slcan0 7E9#25031700630063FF
(1768226054.402905) slcan0 7E9#26006300630063FF
(1768226054.404864) slcan0 7E9#27FF011720000014
(1768226054.406732) slcan0 7E9#280330032F466100
(1768226054.410084) slcan0 7E9#29000028000030FF
(1768226054.410738) slcan0 7E9#2A000000FFFF0FFF
(1768226054.412940) slcan0 7E9#2B0FFF0000FFFF00
(1768226054.414646) slcan0 7E9#2C0A0900FF000000
(1768226054.416818) slcan0 7E9#2DFFFFFFFFFF1AAC
(1768226054.424366) slcan0 7E9#2EFF80E003E3032F
(1768226054.424787) slcan0 7E9#2FFFFF000000FFFF
(1768226054.426749) slcan0 7E9#20FFFFFFFFFF00FF
(1768226054.430571) slcan0 7E9#2100FF0000454000
(1768226054.432826) slcan0 7E9#2200FF10FFFF0000
(1768226054.525027) slcan0 7E1#0221050000000000
(1768226054.530598) slcan0 7E9#10826105163C0000
(1768226054.530829) slcan0 7E1#3000000000000000
(1768226054.534643) slcan0 7E9#2127386502C910C3
(1768226054.536760) slcan0 7E9#22FFFFFFFFFF031F
(1768226054.539986) slcan0 7E9#23006400640064FF
(1768226054.540653) slcan0 7E9#2400640064FFFF00
(1768226054.543893) slcan0 7E9#25031600630063FF
(1768226054.544977) slcan0 7E9#26006300620062FF
(1768226054.546757) slcan0 7E9#27FF011724000014
(1768226054.551102) slcan0 7E9#280332032E466100
(1768226054.553104) slcan0 7E9#29000028000030FF
(1768226054.554891) slcan0 7E9#2A000000FFFF0FFF
(1768226054.556731) slcan0 7E9#2B0FFF0000FFFF00
(1768226054.561101) slcan0 7E9#2C0A0900FF000000
(1768226054.563061) slcan0 7E9#2DFFFFFFFFFF1AAC
(1768226054.564987) slcan0 7E9#2EFF80E803E3032F
(1768226054.566830) slcan0 7E9#2FFFFF000000FFFF
(1768226054.570699) slcan0 7E9#20FFFFFFFFFF00FF
(1768226054.573075) slcan0 7E9#2100FF0000454000
(1768226054.574691) slcan0 7E9#2200FF10FFFF0000
(1768226054.677778) slcan0 7E1#0221050000000000
(1768226054.682753) slcan0 7E9#1082610516400000
(1768226054.683015) slcan0 7E1#3000000000000000
(1768226054.686489) slcan0 7E9#2127382202C910BE
(1768226054.690318) slcan0 7E9#22FFFFFFFFFF031F
(1768226054.690531) slcan0 7E9#23006400640064FF
(1768226054.692897) slcan0 7E9#2400640064FFFF00
(1768226054.694632) slcan0 7E9#25032400630063FF
(1768226054.696637) slcan0 7E9#26006300630063FF
(1768226054.699795) slcan0 7E9#27FF011724000014
(1768226054.700625) slcan0 7E9#28032E032E466100
(1768226054.703027) slcan0 7E9#29000028000009FF
(1768226054.704690) slcan0 7E9#2A000000FFFF0FFF
(1768226054.706687) slcan0 7E9#2B0FFF0000FFFF00
(1768226054.710045) slcan0 7E9#2C0A0900FF000000
(1768226054.710728) slcan0 7E9#2DFFFFFFFFFF1AAC
(1768226054.712853) slcan0 7E9#2EFF80E403E3032D
(1768226054.714712) slcan0 7E9#2FFFFF000000FFFF
(1768226054.716824) slcan0 7E9#20FFFFFFFFFF00FF
(1768226054.724405) slcan0 7E9#2100FF0000454000
(1768226054.724597) slcan0 7E9#2200FF10FFFF0000
(1768226054.822093) slcan0 7E1#0221050000000000
(1768226054.824748) slcan0 7E9#10826105163C0000
(1768226054.824935) slcan0 7E1#3000000000000000
(1768226054.830706) slcan0 7E9#2127385002C910BE
(1768226054.832916) slcan0 7E9#22FFFFFFFFFF031F
(1768226054.834535) slcan0 7E9#23006400640064FF
(1768226054.836773) slcan0 7E9#2400640064FFFF00
(1768226054.839784) slcan0 7E9#25031700620063FF
(1768226054.840520) slcan0 7E9#26006300620062FF
(1768226054.844771) slcan0 7E9#27FF011716000014
(1768226054.846727) slcan0 7E9#28032F032E466100
(1768226054.851122) slcan0 7E9#29000028000044FF
(1768226054.853004) slcan0 7E9#2A000000FFFF0FFF
(1768226054.854631) slcan0 7E9#2B0FFF0000FFFF00
(1768226054.856658) slcan0 7E9#2C0A0900FF000000
(1768226054.860868) slcan0 7E9#2DFFFFFFFFFF1AAC
(1768226054.863697) slcan0 7E9#2EFF80DA03E3032E
(1768226054.864794) slcan0 7E9#2FFFFF000000FFFF
(1768226054.866753) slcan0 7E9#20FFFFFFFFFF00FF
(1768226054.870586) slcan0 7E9#2100FF0000454000
(1768226054.872882) slcan0 7E9#2200FF10FFFF0000
(1768226054.983048) slcan0 7E1#0221050000000000
(1768226054.986849) slcan0 7E9#1082610516300000
(1768226054.987018) slcan0 7E1#3000000000000000
(1768226054.993000) slcan0 7E9#2127381702C410C3
(1768226054.994738) slcan0 7E9#22FFFFFFFFFF031F
(1768226054.996877) slcan0 7E9#23006400640064FF
(1768226055.000180) slcan0 7E9#2400640064FFFF00
(1768226055.000708) slcan0 7E9#25031300630063FF
(1768226055.002971) slcan0 7E9#26006200630063FF
(1768226055.004601) slcan0 7E9#27FF01170E000014
(1768226055.006769) slcan0 7E9#280330032F466100
(1768226055.010042) slcan0 7E9#29000028000030FF
(1768226055.010638) slcan0 7E9#2A000000FFFF0FFF
(1768226055.012864) slcan0 7E9#2B0FFF0000FFFF00
(1768226055.014628) slcan0 7E9#2C0A0900FF000000
(1768226055.021977) slcan0 7E9#2DFFFFFFFFFF1AAC
(1768226055.024467) slcan0 7E9#2EFF80DE03E30330
(1768226055.024680) slcan0 7E9#2FFFFF000000FFFF
(1768226055.026972) slcan0 7E9#20FFFFFFFFFF00FF
(1768226055.030769) slcan0 7E9#2100FF0000454000
(1768226055.032988) slcan0 7E9#2200FF10FFFF0000
(1768226055.119017) slcan0 7E1#0221050000000000
(1768226055.130461) slcan0 7E9#1082610516240000
(1768226055.130701) slcan0 7E1#3000000000000000
(1768226055.134572) slcan0 7E9#2127385F02C910BE
(1768226055.136683) slcan0 7E9#22FFFFFFFFFF031F
(1768226055.139992) slcan0 7E9#23006400640064FF
(1768226055.140495) slcan0 7E9#2400640064FFFF00
(1768226055.142757) slcan0 7E9#25031C00630063FF
(1768226055.145091) slcan0 7E9#26006300630062FF
(1768226055.146687) slcan0 7E9#27FF01170C000014
(1768226055.151249) slcan0 7E9#280331032F466100
(1768226055.153027) slcan0 7E9#29000028000044FF
(1768226055.154591) slcan0 7E9#2A000000FFFF0FFF
(1768226055.156530) slcan0 7E9#2B0FFF0000FFFF00
(1768226055.160971) slcan0 7E9#2C0A0900FF000000
(1768226055.163083) slcan0 7E9#2DFFFFFFFFFF1AAC
(1768226055.164487) slcan0 7E9#2EFF80E803E30330
(1768226055.166628) slcan0 7E9#2FFFFF000000FFFF
(1768226055.170872) slcan0 7E9#20FFFFFFFFFF00FF
(1768226055.172795) slcan0 7E9#2100FF0000454000
(1768226055.174622) slcan0 7E9#2200FF10FFFF0000
(1768226055.276083) slcan0 7E1#0221050000000000
(1768226055.280011) slcan0 7E9#1082610516180000
(1768226055.280140) slcan0 7E1#3000000000000000
(1768226055.282823) slcan0 7E9#212737F702C910BE
(1768226055.284654) slcan0 7E9#22FFFFFFFFFF031F
(1768226055.286580) slcan0 7E9#23006400640064FF
(1768226055.290376) slcan0 7E9#2400640064FFFF00
(1768226055.292832) slcan0 7E9#25032500630063FF
(1768226055.294666) slcan0 7E9#26006400640063FF
(1768226055.296541) slcan0 7E9#27FF0116F8000014
(1768226055.300014) slcan0 7E9#2803330331466100
(1768226055.300659) slcan0 7E9#29000028000030FF
(1768226055.302853) slcan0 7E9#2A000000FFFF0FFF
(1768226055.304598) slcan0 7E9#2B0FFF0000FFFF00
(1768226055.306488) slcan0 7E9#2C0A0900FF000000
(1768226055.310179) slcan0 7E9#2DFFFFFFFFFF1AAC
(1768226055.310592) slcan0 7E9#2EFF80E003E30332
(1768226055.312833) slcan0 7E9#2FFFFF000000FFFF
(1768226055.314594) slcan0 7E9#20FFFFFFFFFF00FF
(1768226055.316776) slcan0 7E9#2100FF0000454000
(1768226055.323807) slcan0 7E9#2200FF10FFFF0000
(1768226055.432155) slcan0 7E1#0221050000000000
(1768226055.434774) slcan0 7E9#1082610516140000
(1768226055.434997) slcan0 7E1#3000000000000000
(1768226055.439957) slcan0 7E9#212738BB02C410BE
(1768226055.440726) slcan0 7E9#22FFFFFFFFFF031F
(1768226055.442874) slcan0 7E9#23006400640064FF
(1768226055.444540) slcan0 7E9#2400640064FFFF00
(1768226055.446720) slcan0 7E9#25031E00630063FF
(1768226055.452879) slcan0 7E9#26006300630063FF
(1768226055.454526) slcan0 7E9#27FF0116F4000014
(1768226055.456472) slcan0 7E9#2803320330466100
(1768226055.460962) slcan0 7E9#29000028000044FF
(1768226055.463062) slcan0 7E9#2A000000FFFF0FFF
(1768226055.464607) slcan0 7E9#2B0FFF0000FFFF00
(1768226055.466551) slcan0 7E9#2C0A0900FF000000
(1768226055.470624) slcan0 7E9#2DFFFFFFFFFF1AAC
(1768226055.472807) slcan0 7E9#2EFF80E003E30330
(1768226055.474680) slcan0 7E9#2FFFFF000000FFFF
(1768226055.476622) slcan0 7E9#20FFFFFFFFFF00FF
(1768226055.480147) slcan0 7E9#2100FF0000454000
(1768226055.480584) slcan0 7E9#2200FF10FFFF0000
(1768226055.584124) slcan0 7E1#041800FF00000000
(1768226055.586776) slcan0 7E9#0258000000000000
(1768226055.682987) slcan0 7E1#0221050000000000
(1768226055.689965) slcan0 7E9#1082610516180000
(1768226055.690027) slcan0 7E1#3000000000000000
(1768226055.692926) slcan0 7E9#2127383802C410BE
(1768226055.694715) slcan0 7E9#22FFFFFFFFFF031F
(1768226055.696531) slcan0 7E9#23006400640064FF
(1768226055.699922) slcan0 7E9#2400640064FFFF00
(1768226055.700539) slcan0 7E9#25031F00630063FF
(1768226055.702913) slcan0 7E9#26006300630063FF
(1768226055.704593) slcan0 7E9#27FF0116FE000014
(1768226055.706635) slcan0 7E9#2803320330466100
(1768226055.710396) slcan0 7E9#29000028000030FF
(1768226055.712826) slcan0 7E9#2A000000FFFF0FFF
(1768226055.714764) slcan0 7E9#2B0FFF0000FFFF00
(1768226055.716714) slcan0 7E9#2C0A0900FF000000
(1768226055.723803) slcan0 7E9#2DFFFFFFFFFF1AAC
(1768226055.724607) slcan0 7E9#2EFF80E603E30330
(1768226055.726632) slcan0 7E9#2FFFFF000000FFFF
(1768226055.731117) slcan0 7E9#20FFFFFFFFFF00FF
(1768226055.732771) slcan0 7E9#2100FF0000454000
(1768226055.734612) slcan0 7E9#2200FF10FFFF0000
(1768226055.836839) slcan0 7E1#0221050000000000
(1768226055.842803) slcan0 7E9#1082610516380000
(1768226055.843081) slcan0 7E1#3000000000000000
(1768226055.846631) slcan0 7E9#212738BB02C410BE
(1768226055.854147) slcan0 7E9#22FFFFFFFFFF031F
(1768226055.854577) slcan0 7E9#23006400640064FF
(1768226055.856552) slcan0 7E9#2400640064FFFF00
(1768226055.860660) slcan0 7E9#25031C00630063FF
(1768226055.863475) slcan0 7E9#26006300630063FF
(1768226055.864604) slcan0 7E9#27FF01171E000014
(1768226055.866529) slcan0 7E9#280332032F466100
(1768226055.871332) slcan0 7E9#29000028000044FF
(1768226055.872841) slcan0 7E9#2A000000FFFF0FFF
(1768226055.874534) slcan0 7E9#2B0FFF0000FFFF00
(1768226055.876577) slcan0 7E9#2C0A0900FF000000
(1768226055.879954) slcan0 7E9#2DFFFFFFFFFF1AAC
(1768226055.880582) slcan0 7E9#2EFF80E603E3032D
(1768226055.882825) slcan0 7E9#2FFFFF000000FFFF
(1768226055.884630) slcan0 7E9#20FFFFFFFFFF00FF
(1768226055.886617) slcan0 7E9#2100FF0000454000
(1768226055.890388) slcan0 7E9#2200FF10FFFF0000
(1768226055.998781) slcan0 7E1#0221050000000000
(1768226056.002790) slcan0 7E9#1082610516540000
(1768226056.003092) slcan0 7E1#3000000000000000
(1768226056.006531) slcan0 7E9#2127389302C910BE
(1768226056.010633) slcan0 7E9#22FFFFFFFFFF031F
(1768226056.012798) slcan0 7E9#23006400640064FF
(1768226056.014577) slcan0 7E9#2400640064FFFF00
(1768226056.016725) slcan0 7E9#25032100640064FF
(1768226056.023523) slcan0 7E9#26006300630064FF
(1768226056.024572) slcan0 7E9#27FF011740000014
(1768226056.026619) slcan0 7E9#280330032E466100
(1768226056.031155) slcan0 7E9#29000028000030FF
(1768226056.032869) slcan0 7E9#2A000000FFFF0FFF
(1768226056.034572) slcan0 7E9#2B0FFF0000FFFF00
(1768226056.036619) slcan0 7E9#2C0A0900FF000000
(1768226056.039989) slcan0 7E9#2DFFFFFFFFFF1AAC
(1768226056.040555) slcan0 7E9#2EFF80EC03E3032E
(1768226056.042825) slcan0 7E9#2FFFFF000000FFFF
(1768226056.044630) slcan0 7E9#20FFFFFFFFFF00FF
(1768226056.046632) slcan0 7E9#2100FF0000454000
(1768226056.054496) slcan0 7E9#2200FF10FFFF0000
(1768226056.138639) slcan0 7E1#0221050000000000
(1768226056.142681) slcan0 7E9#1082610516640000
(1768226056.143002) slcan0 7E1#3000000000000000
(1768226056.146464) slcan0 7E9#212738CF02C410BE
(1768226056.154169) slcan0 7E9#22FFFFFFFFFF031F
(1768226056.154467) slcan0 7E9#23006400640064FF
(1768226056.156563) slcan0 7E9#2400640064FFFF00
(1768226056.160966) slcan0 7E9#25031F00630063FF
(1768226056.163491) slcan0 7E9#26006300630063FF
(1768226056.164587) slcan0 7E9#27FF011750000014
(1768226056.166595) slcan0 7E9#28032D032C466100
(1768226056.171785) slcan0 7E9#29000028000030FF
(1768226056.173138) slcan0 7E9#2A000000FFFF0FFF
(1768226056.174711) slcan0 7E9#2B0FFF0000FFFF00
(1768226056.176734) slcan0 7E9#2C0A0900FF000000
(1768226056.180015) slcan0 7E9#2DFFFFFFFFFF1AAC
(1768226056.180601) slcan0 7E9#2EFF80EC03E3032C
(1768226056.182865) slcan0 7E9#2FFFFF000000FFFF
(1768226056.184538) slcan0 7E9#20FFFFFFFFFF00FF
(1768226056.186621) slcan0 7E9#2100FF0000454000
(1768226056.190391) slcan0 7E9#2200FF10FFFF0000
(1768226056.288716) slcan0 7E1#0221050000000000
(1768226056.292819) slcan0 7E9#1082610516680000
(1768226056.293024) slcan0 7E1#3000000000000000
(1768226056.296637) slcan0 7E9#2127382902C910C3
(1768226056.299878) slcan0 7E9#22FFFFFFFFFF031F
(1768226056.300618) slcan0 7E9#23006400640064FF
(1768226056.302845) slcan0 7E9#2400640064FFFF00
(1768226056.304592) slcan0 7E9#25032000630063FF
(1768226056.306493) slcan0 7E9#26006300630063FF
(1768226056.310491) slcan0 7E9#27FF011746000014
(1768226056.312675) slcan0 7E9#28032B032B466100
(1768226056.314464) slcan0 7E9#29000028000030FF
(1768226056.316620) slcan0 7E9#2A000000FFFF0FFF
(1768226056.323735) slcan0 7E9#2B0FFF0000FFFF00
(1768226056.324463) slcan0 7E9#2C0A0900FF000000
(1768226056.326462) slcan0 7E9#2DFFFFFFFFFF1AAC
(1768226056.331057) slcan0 7E9#2EFF80DE03E3032D
(1768226056.332737) slcan0 7E9#2FFFFF000000FFFF
(1768226056.334541) slcan0 7E9#20FFFFFFFFFF00FF
(1768226056.336474) slcan0 7E9#2100FF0000454000
(1768226056.339925) slcan0 7E9#2200FF10FFFF0000
(1768226056.416841) slcan0 7E1#0221050000000000
(1768226056.424702) slcan0 7E9#1082610516600000
(1768226056.424981) slcan0 7E1#3000000000000000
(1768226056.431098) slcan0 7E9#2127385602C910BE
(1768226056.432885) slcan0 7E9#22FFFFFFFFFF031F
(1768226056.434590) slcan0 7E9#23006400640064FF
(1768226056.436601) slcan0 7E9#2400640064FFFF00
(1768226056.440161) slcan0 7E9#25032400630064FF
(1768226056.440611) slcan0 7E9#26006400630065FF
(1768226056.442803) slcan0 7E9#27FF01173C000014
(1768226056.444461) slcan0 7E9#28032D032D466100
(1768226056.446593) slcan0 7E9#29000028000044FF
(1768226056.454258) slcan0 7E9#2A000000FFFF0FFF
(1768226056.454568) slcan0 7E9#2B0FFF0000FFFF00
(1768226056.456466) slcan0 7E9#2C0A0900FF000000
(1768226056.460950) slcan0 7E9#2DFFFFFFFFFF1AAC
(1768226056.463542) slcan0 7E9#2EFF80DC03E3032C
(1768226056.464657) slcan0 7E9#2FFFFF000000FFFF
(1768226056.466658) slcan0 7E9#20FFFFFFFFFF00FF
(1768226056.471393) slcan0 7E9#2100FF0000454000
(1768226056.472922) slcan0 7E9#2200FF10FFFF0000
(1768226056.556907) slcan0 7E1#0221050000000000
(1768226056.563102) slcan0 7E9#1082610516500000
(1768226056.563272) slcan0 7E1#3000000000000000
(1768226056.566712) slcan0 7E9#2127382702C910BE
(1768226056.570618) slcan0 7E9#22FFFFFFFFFF031F
(1768226056.572917) slcan0 7E9#23006400640064FF
(1768226056.574674) slcan0 7E9#2400640064FFFF00
(1768226056.576673) slcan0 7E9#25031A00630063FF
(1768226056.579960) slcan0 7E9#26006300630062FF
(1768226056.580652) slcan0 7E9#27FF011730000014
(1768226056.583028) slcan0 7E9#28032C032D466100
(1768226056.584624) slcan0 7E9#29000028000044FF
(1768226056.586624) slcan0 7E9#2A000000FFFF0FFF
(1768226056.590018) slcan0 7E9#2B0FFF0000FFFF00
(1768226056.591057) slcan0 7E9#2C0A0900FF000000
(1768226056.592887) slcan0 7E9#2DFFFFFFFFFF1AAC
(1768226056.594663) slcan0 7E9#2EFF80E003E3032A
(1768226056.596671) slcan0 7E9#2FFFFF000000FFFF
(1768226056.599899) slcan0 7E9#20FFFFFFFFFF00FF
(1768226056.600689) slcan0 7E9#2100FF0000454000
(1768226056.602861) slcan0 7E9#2200FF10FFFF0000
(1768226056.735790) slcan0 7E1#0221050000000000
(1768226056.740119) slcan0 7E9#1082610516280000
(1768226056.740319) slcan0 7E1#3000000000000000
(1768226056.742840) slcan0 7E9#2127386302C910BE
(1768226056.744679) slcan0 7E9#22FFFFFFFFFF031F
(1768226056.746626) slcan0 7E9#23006400640064FF
(1768226056.754450) slcan0 7E9#2400640064FFFF00
(1768226056.756597) slcan0 7E9#25032100640063FF
(1768226056.760966) slcan0 7E9#26006300630063FF
(1768226056.763450) slcan0 7E9#27FF0116FA000014
(1768226056.764728) slcan0 7E9#2803320330466100
(1768226056.766669) slcan0 7E9#2900002800001DFF
(1768226056.770560) slcan0 7E9#2A000000FFFF0FFF
(1768226056.773450) slcan0 7E9#2B0FFF0000FFFF00
(1768226056.774708) slcan0 7E9#2C0A0900FF000000
(1768226056.776694) slcan0 7E9#2DFFFFFFFFFF1AAC
(1768226056.779971) slcan0 7E9#2EFF80D203E30334
(1768226056.780785) slcan0 7E9#2FFFFF000000FFFF
(1768226056.782877) slcan0 7E9#20FFFFFFFFFF00FF
(1768226056.784680) slcan0 7E9#2100FF0000454000
(1768226056.786671) slcan0 7E9#2200FF10FFFF0000
(1768226056.905606) slcan0 7E1#0221050000000000
(1768226056.910218) slcan0 7E9#1082610516240000
(1768226056.910397) slcan0 7E1#3000000000000000
(1768226056.912849) slcan0 7E9#212737F702C910BE
(1768226056.914490) slcan0 7E9#22FFFFFFFFFF031F
(1768226056.923293) slcan0 7E9#23006400640064FF
(1768226056.924574) slcan0 7E9#2400640064FFFF00
(1768226056.926534) slcan0 7E9#25032600620062FF
(1768226056.930579) slcan0 7E9#26006400630063FF
(1768226056.933124) slcan0 7E9#27FF0116FE000014
(1768226056.934590) slcan0 7E9#280332032F466100
(1768226056.936597) slcan0 7E9#29000028000030FF
(1768226056.940078) slcan0 7E9#2A000000FFFF0FFF
(1768226056.940718) slcan0 7E9#2B0FFF0000FFFF00
(1768226056.942889) slcan0 7E9#2C0A0900FF000000
(1768226056.944663) slcan0 7E9#2DFFFFFFFFFF1AAC
(1768226056.946483) slcan0 7E9#2EFF80DA03E30330
(1768226056.951401) slcan0 7E9#2FFFFF000000FFFF
(1768226056.954894) slcan0 7E9#20FFFFFFFFFF00FF
(1768226056.956643) slcan0 7E9#2100FF0000454000
(1768226056.961098) slcan0 7E9#2200FF10FFFF0000
(1768226057.038736) slcan0 7E1#0221050000000000
(1768226057.042844) slcan0 7E9#1082610516200000
(1768226057.043048) slcan0 7E1#3000000000000000
(1768226057.046679) slcan0 7E9#2127385002C910BE
(1768226057.054438) slcan0 7E9#22FFFFFFFFFF031F
(1768226057.054638) slcan0 7E9#23006400640064FF
(1768226057.056590) slcan0 7E9#2400640064FFFF00
(1768226057.060892) slcan0 7E9#25031D00630063FF
(1768226057.063519) slcan0 7E9#26006300630063FF
(1768226057.064623) slcan0 7E9#27FF011706000014
(1768226057.066705) slcan0 7E9#280333032F466100
(1768226057.070981) slcan0 7E9#2900002800001DFF
(1768226057.073801) slcan0 7E9#2A000000FFFF0FFF
(1768226057.074623) slcan0 7E9#2B0FFF0000FFFF00
(1768226057.076643) slcan0 7E9#2C0A0900FF000000
(1768226057.079965) slcan0 7E9#2DFFFFFFFFFF1AAC
(1768226057.080644) slcan0 7E9#2EFF80E603E30332
(1768226057.082776) slcan0 7E9#2FFFFF000000FFFF
(1768226057.084594) slcan0 7E9#20FFFFFFFFFF00FF
(1768226057.086591) slcan0 7E9#2100FF0000454000
(1768226057.090127) slcan0 7E9#2200FF10FFFF0000
(1768226057.163561) slcan0 7E1#0221050000000000
(1768226057.166625) slcan0 7E9#10826105161C0000
(1768226057.166915) slcan0 7E1#3000000000000000
(1768226057.172783) slcan0 7E9#2127387902C910BE
(1768226057.174598) slcan0 7E9#22FFFFFFFFFF031F
(1768226057.176495) slcan0 7E9#23006400640064FF
(1768226057.179985) slcan0 7E9#2400640064FFFF00
(1768226057.180458) slcan0 7E9#25032100630063FF
(1768226057.182638) slcan0 7E9#26006300640064FF
(1768226057.184481) slcan0 7E9#27FF0116FA000014
(1768226057.186456) slcan0 7E9#2803320330466100
(1768226057.189874) slcan0 7E9#29000028000009FF
(1768226057.190621) slcan0 7E9#2A000000FFFF0FFF
(1768226057.193059) slcan0 7E9#2B0FFF0000FFFF00
(1768226057.194542) slcan0 7E9#2C0A0900FF000000
(1768226057.196820) slcan0 7E9#2DFFFFFFFFFF1AAC
(1768226057.199984) slcan0 7E9#2EFF80DE03E30331
(1768226057.200696) slcan0 7E9#2FFFFF000000FFFF
(1768226057.202830) slcan0 7E9#20FFFFFFFFFF00FF
(1768226057.204638) slcan0 7E9#2100FF0000454000
(1768226057.206752) slcan0 7E9#2200FF10FFFF0000
(1768226057.306652) slcan0 7E1#0221050000000000
(1768226057.312849) slcan0 7E9#10826105160C0000
(1768226057.313184) slcan0 7E1#3000000000000000
(1768226057.322046) slcan0 7E9#2127382202C910BE
(1768226057.323381) slcan0 7E9#22FFFFFFFFFF031F
(1768226057.324543) slcan0 7E9#23006400640064FF
(1768226057.326568) slcan0 7E9#2400640064FFFF00
(1768226057.331025) slcan0 7E9#25031600620063FF
(1768226057.332917) slcan0 7E9#26006300630063FF
(1768226057.334520) slcan0 7E9#27FF0116F0000014
(1768226057.336609) slcan0 7E9#2803320331466100
(1768226057.340217) slcan0 7E9#2900002800001DFF
(1768226057.340510) slcan0 7E9#2A000000FFFF0FFF
(1768226057.342775) slcan0 7E9#2B0FFF0000FFFF00
(1768226057.344533) slcan0 7E9#2C0A0900FF000000
(1768226057.346635) slcan0 7E9#2DFFFFFFFFFF1AAC
(1768226057.353443) slcan0 7E9#2EFF80E403E30332
(1768226057.354619) slcan0 7E9#2FFFFF000000FFFF
(1768226057.356611) slcan0 7E9#20FFFFFFFFFF00FF
(1768226057.361161) slcan0 7E9#2100FF0000454000
(1768226057.363618) slcan0 7E9#2200FF10FFFF0000
(1768226057.476551) slcan0 7E1#0221050000000000
(1768226057.483190) slcan0 7E9#1082610516240000
(1768226057.483430) slcan0 7E1#3000000000000000
(1768226057.486561) slcan0 7E9#2127382702C910BE
(1768226057.489856) slcan0 7E9#22FFFFFFFFFF031F
(1768226057.490646) slcan0 7E9#23006400640064FF
(1768226057.493036) slcan0 7E9#2400640064FFFF00
(1768226057.495373) slcan0 7E9#25032000630064FF
(1768226057.496616) slcan0 7E9#26006300640063FF
(1768226057.500149) slcan0 7E9#27FF011704000014
(1768226057.500602) slcan0 7E9#280332032F466100
(1768226057.502849) slcan0 7E9#29000028000030FF
(1768226057.504633) slcan0 7E9#2A000000FFFF0FFF
(1768226057.506554) slcan0 7E9#2B0FFF0000FFFF00
(1768226057.510548) slcan0 7E9#2C0A0900FF000000
(1768226057.512813) slcan0 7E9#2DFFFFFFFFFF1AAC
(1768226057.514754) slcan0 7E9#2EFF80E003E30330
(1768226057.523383) slcan0 7E9#2FFFFF000000FFFF
(1768226057.524495) slcan0 7E9#20FFFFFFFFFF00FF
(1768226057.526568) slcan0 7E9#2100FF0000454000
(1768226057.530626) slcan0 7E9#2200FF10FFFF0000
(1768226057.631460) slcan0 7E1#0221050000000000
(1768226057.634681) slcan0 7E9#1082610516340000
(1768226057.635004) slcan0 7E1#3000000000000000
(1768226057.640190) slcan0 7E9#2127387902C410BE
(1768226057.640565) slcan0 7E9#22FFFFFFFFFF031F
(1768226057.643063) slcan0 7E9#23006400640064FF
(1768226057.644582) slcan0 7E9#2400640064FFFF00
(1768226057.646574) slcan0 7E9#25032200630063FF
(1768226057.653424) slcan0 7E9#26006300630064FF
(1768226057.654600) slcan0 7E9#27FF011718000014
(1768226057.661289) slcan0 7E9#280330032F466100
(1768226057.663488) slcan0 7E9#29000028000044FF
(1768226057.664669) slcan0 7E9#2A000000FFFF0FFF
(1768226057.666655) slcan0 7E9#2B0FFF0000FFFF00
(1768226057.670638) slcan0 7E9#2C0A0900FF000000
(1768226057.672806) slcan0 7E9#2DFFFFFFFFFF1AAC
(1768226057.674526) slcan0 7E9#2EFF80E403E3032F
(1768226057.676491) slcan0 7E9#2FFFFF000000FFFF
(1768226057.680066) slcan0 7E9#20FFFFFFFFFF00FF
(1768226057.680586) slcan0 7E9#2100FF0000454000
(1768226057.682746) slcan0 7E9#2200FF10FFFF0000
(1768226057.775525) slcan0 7E1#041800FF00000000
(1768226057.780019) slcan0 7E9#0258000000000000
(1768226057.897476) slcan0 7E1#0221050000000000
(1768226057.903144) slcan0 7E9#1082610516400000
(1768226057.903328) slcan0 7E1#3000000000000000
(1768226057.906632) slcan0 7E9#2127383802C910C3
(1768226057.910433) slcan0 7E9#22FFFFFFFFFF031F
(1768226057.912882) slcan0 7E9#23006400640064FF
(1768226057.915039) slcan0 7E9#2400640064FFFF00
(1768226057.923725) slcan0 7E9#25032700640064FF
(1768226057.924712) slcan0 7E9#26006400640064FF
(1768226057.926551) slcan0 7E9#27FF01170E000014
(1768226057.930982) slcan0 7E9#280331032F466100
(1768226057.932813) slcan0 7E9#29000028000030FF
(1768226057.934612) slcan0 7E9#2A000000FFFF0FFF
(1768226057.936666) slcan0 7E9#2B0FFF0000FFFF00
(1768226057.940277) slcan0 7E9#2C0A0900FF000000
(1768226057.940450) slcan0 7E9#2DFFFFFFFFFF1AAC
(1768226057.943020) slcan0 7E9#2EFF80CE03E30331
(1768226057.944534) slcan0 7E9#2FFFFF000000FFFF
(1768226057.946668) slcan0 7E9#20FFFFFFFFFF00FF
(1768226057.953383) slcan0 7E9#2100FF0000454000
(1768226057.954544) slcan0 7E9#2200FF10FFFF0000
(1768226058.056265) slcan0 7E1#0221050000000000
(1768226058.066737) slcan0 7E9#1082610516400000
(1768226058.066940) slcan0 7E1#3000000000000000
(1768226058.072785) slcan0 7E9#2127380D02C910BE
(1768226058.074583) slcan0 7E9#22FFFFFFFFFF031F
(1768226058.076463) slcan0 7E9#23006400640064FF
(1768226058.080256) slcan0 7E9#2400640064FFFF00
(1768226058.080495) slcan0 7E9#25031C00630063FF
(1768226058.083077) slcan0 7E9#26006300630063FF
(1768226058.084608) slcan0 7E9#27FF011720000014
(1768226058.086497) slcan0 7E9#280331032E466100
(1768226058.089833) slcan0 7E9#29000028000044FF
(1768226058.090583) slcan0 7E9#2A000000FFFF0FFF
(1768226058.092996) slcan0 7E9#2B0FFF0000FFFF00
(1768226058.094781) slcan0 7E9#2C0A0900FF000000
(1768226058.096571) slcan0 7E9#2DFFFFFFFFFF1AAC
(1768226058.100705) slcan0 7E9#2EFF80E003E30330
(1768226058.102764) slcan0 7E9#2FFFFF000000FFFF
(1768226058.104512) slcan0 7E9#20FFFFFFFFFF00FF
(1768226058.106422) slcan0 7E9#2100FF0000454000
(1768226058.110490) slcan0 7E9#2200FF10FFFF0000
(1768226058.213141) slcan0 7E1#0221050000000000
(1768226058.223609) slcan0 7E9#1082610516480000
(1768226058.223834) slcan0 7E1#3000000000000000
(1768226058.226717) slcan0 7E9#2127387E02C910BE
(1768226058.230864) slcan0 7E9#22FFFFFFFFFF031F
(1768226058.232800) slcan0 7E9#23006400640064FF
(1768226058.234710) slcan0 7E9#2400640064FFFF00
(1768226058.236631) slcan0 7E9#25031F00630063FF
(1768226058.240415) slcan0 7E9#26006300640063FF
(1768226058.243053) slcan0 7E9#27FF01171C000014
(1768226058.244659) slcan0 7E9#280330032E466100
(1768226058.246529) slcan0 7E9#29000028000030FF
(1768226058.253545) slcan0 7E9#2A000000FFFF0FFF
(1768226058.254670) slcan0 7E9#2B0FFF0000FFFF00
(1768226058.256587) slcan0 7E9#2C0A0900FF000000
(1768226058.263653) slcan0 7E9#2DFFFFFFFFFF1AAC
(1768226058.264584) slcan0 7E9#2EFF80D403E30330
(1768226058.266557) slcan0 7E9#2FFFFF000000FFFF
(1768226058.270538) slcan0 7E9#20FFFFFFFFFF00FF
(1768226058.272755) slcan0 7E9#2100FF0000454000
(1768226058.274744) slcan0 7E9#2200FF10FFFF0000
(1768226058.381195) slcan0 7E1#0221050000000000
(1768226058.384704) slcan0 7E9#1082610516280000
(1768226058.384903) slcan0 7E1#3000000000000000
(1768226058.389668) slcan0 7E9#2127387902C410BE
(1768226058.390530) slcan0 7E9#22FFFFFFFFFF031F
(1768226058.392988) slcan0 7E9#23006400640064FF
(1768226058.394779) slcan0 7E9#2400640064FFFF00
(1768226058.396579) slcan0 7E9#25032100640064FF
(1768226058.400676) slcan0 7E9#26006300630064FF
(1768226058.402737) slcan0 7E9#27FF0116F6000014
(1768226058.404635) slcan0 7E9#2803320330466100
(1768226058.410338) slcan0 7E9#29000028000058FF
(1768226058.410549) slcan0 7E9#2A000000FFFF0FFF
(1768226058.412861) slcan0 7E9#2B0FFF0000FFFF00
(1768226058.414687) slcan0 7E9#2C0A0900FF000000
(1768226058.423359) slcan0 7E9#2DFFFFFFFFFF1AAC
(1768226058.424646) slcan0 7E9#2EFF80CE03E30334
(1768226058.426530) slcan0 7E9#2FFFFF000000FFFF
(1768226058.430964) slcan0 7E9#20FFFFFFFFFF00FF
(1768226058.432730) slcan0 7E9#2100FF0000454000
(1768226058.434566) slcan0 7E9#2200FF10FFFF0000
(1768226058.516247) slcan0 7E1#0221050000000000
(1768226058.530600) slcan0 7E9#10826105161C0000
(1768226058.530809) slcan0 7E1#3000000000000000
(1768226058.534659) slcan0 7E9#2127387902C910BE
(1768226058.536564) slcan0 7E9#22FFFFFFFFFF031F
(1768226058.540350) slcan0 7E9#23006400640064FF
(1768226058.543058) slcan0 7E9#2400640064FFFF00
(1768226058.544632) slcan0 7E9#25032200630064FF
(1768226058.546528) slcan0 7E9#26006300630063FF
(1768226058.553339) slcan0 7E9#27FF0116F4000014
(1768226058.554616) slcan0 7E9#2803340331466100
(1768226058.556622) slcan0 7E9#29000028000030FF
(1768226058.563647) slcan0 7E9#2A000000FFFF0FFF
(1768226058.564524) slcan0 7E9#2B0FFF0000FFFF00
(1768226058.566571) slcan0 7E9#2C0A0900FF000000
(1768226058.570942) slcan0 7E9#2DFFFFFFFFFF1AAC
(1768226058.572652) slcan0 7E9#2EFF80D803E30334
(1768226058.574598) slcan0 7E9#2FFFFF000000FFFF
(1768226058.576536) slcan0 7E9#20FFFFFFFFFF00FF
(1768226058.580606) slcan0 7E9#2100FF0000454000
(1768226058.582722) slcan0 7E9#2200FF10FFFF0000
(1768226058.697992) slcan0 7E1#0221050000000000
(1768226058.702592) slcan0 7E9#1082610516240000
(1768226058.702948) slcan0 7E1#3000000000000000
(1768226058.706543) slcan0 7E9#2127386102C910BE
(1768226058.710389) slcan0 7E9#22FFFFFFFFFF031F
(1768226058.712746) slcan0 7E9#23006400640064FF
(1768226058.714541) slcan0 7E9#2400640064FFFF00
(1768226058.723507) slcan0 7E9#25032200630063FF
(1768226058.724434) slcan0 7E9#26006400630064FF
(1768226058.726507) slcan0 7E9#27FF011706000014
(1768226058.730979) slcan0 7E9#2803300330466100
(1768226058.732883) slcan0 7E9#29000028000044FF
(1768226058.734577) slcan0 7E9#2A000000FFFF0FFF
(1768226058.736573) slcan0 7E9#2B0FFF0000FFFF00
(1768226058.739633) slcan0 7E9#2C0A0900FF000000
(1768226058.740517) slcan0 7E9#2DFFFFFFFFFF1AAC
(1768226058.743425) slcan0 7E9#2EFF80E203E30332
(1768226058.744598) slcan0 7E9#2FFFFF000000FFFF
(1768226058.746604) slcan0 7E9#20FFFFFFFFFF00FF
(1768226058.751632) slcan0 7E9#2100FF0000454000
(1768226058.753544) slcan0 7E9#2200FF10FFFF0000
(1768226058.828135) slcan0 7E1#0221050000000000
(1768226058.832805) slcan0 7E9#1082610516340000
(1768226058.833060) slcan0 7E1#3000000000000000
(1768226058.836566) slcan0 7E9#2127387202C910BE
(1768226058.839974) slcan0 7E9#22FFFFFFFFFF031F
(1768226058.840422) slcan0 7E9#23006400640064FF
(1768226058.842922) slcan0 7E9#2400640064FFFF00
(1768226058.844383) slcan0 7E9#25031700630063FF
(1768226058.846602) slcan0 7E9#26006300630062FF
(1768226058.853447) slcan0 7E9#27FF011728000014
(1768226058.854514) slcan0 7E9#280330032E466100
(1768226058.856542) slcan0 7E9#29000028000030FF
(1768226058.861191) slcan0 7E9#2A000000FFFF0FFF
(1768226058.864095) slcan0 7E9#2B0FFF0000FFFF00
(1768226058.864559) slcan0 7E9#2C0A0900FF000000
(1768226058.866510) slcan0 7E9#2DFFFFFFFFFF1AAC
(1768226058.870026) slcan0 7E9#2EFF80F403E3032E
(1768226058.871132) slcan0 7E9#2FFFFF000000FFFF
(1768226058.872790) slcan0 7E9#20FFFFFFFFFF00FF
(1768226058.874685) slcan0 7E9#2100FF0000454000
(1768226058.876546) slcan0 7E9#2200FF10FFFF0000
(1768226058.960068) slcan0 7E1#0221050000000000
(1768226058.963784) slcan0 7E9#10826105163C0000
(1768226058.964132) slcan0 7E1#3000000000000000
(1768226058.966548) slcan0 7E9#2127380B02C910BE
(1768226058.971345) slcan0 7E9#22FFFFFFFFFF031F
(1768226058.972677) slcan0 7E9#23006400640064FF
(1768226058.974421) slcan0 7E9#2400640064FFFF00
(1768226058.976484) slcan0 7E9#25031D00630063FF
(1768226058.979461) slcan0 7E9#26006300630063FF
(1768226058.980426) slcan0 7E9#27FF01171A000014
(1768226058.983385) slcan0 7E9#280332032F466100
(1768226058.984514) slcan0 7E9#29000028000044FF
(1768226058.986536) slcan0 7E9#2A000000FFFF0FFF
(1768226058.989621) slcan0 7E9#2B0FFF0000FFFF00
(1768226058.990543) slcan0 7E9#2C0A0900FF000000
(1768226058.993228) slcan0 7E9#2DFFFFFFFFFF1AAC
(1768226058.994736) slcan0 7E9#2EFF80DE03E30331
(1768226058.996504) slcan0 7E9#2FFFFF000000FFFF
(1768226059.000022) slcan0 7E9#20FFFFFFFFFF00FF
(1768226059.000501) slcan0 7E9#2100FF0000454000
(1768226059.003376) slcan0 7E9#2200FF10FFFF0000
(1768226059.119972) slcan0 7E1#0221050000000000
(1768226059.126460) slcan0 7E9#1082610516440000
(1768226059.126901) slcan0 7E1#3000000000000000
(1768226059.132808) slcan0 7E9#2127384E02C910C3
(1768226059.134524) slcan0 7E9#22FFFFFFFFFF031F
(1768226059.136555) slcan0 7E9#23006400640064FF
(1768226059.139851) slcan0 7E9#2400640064FFFF00
(1768226059.140667) slcan0 7E9#25031800630063FF
(1768226059.143255) slcan0 7E9#26006300620063FF
(1768226059.144492) slcan0 7E9#27FF011720000014
(1768226059.146539) slcan0 7E9#28032F032F466100
(1768226059.153295) slcan0 7E9#29000028000030FF
(1768226059.154428) slcan0 7E9#2A000000FFFF0FFF
(1768226059.156566) slcan0 7E9#2B0FFF0000FFFF00
(1768226059.161011) slcan0 7E9#2C0A0900FF000000
(1768226059.164452) slcan0 7E9#2DFFFFFFFFFF1AAC
(1768226059.166603) slcan0 7E9#2EFF80DC03E3032E
(1768226059.170593) slcan0 7E9#2FFFFF000000FFFF
(1768226059.172903) slcan0 7E9#20FFFFFFFFFF00FF
(1768226059.174698) slcan0 7E9#2100FF0000454000
(1768226059.176566) slcan0 7E9#2200FF10FFFF0000
(1768226059.282019) slcan0 7E1#0221050000000000
(1768226059.284524) slcan0 7E9#10826105164C0000
(1768226059.286479) slcan0 7E1#3000000000000000
(1768226059.289496) slcan0 7E9#2127383802C910BE
(1768226059.290635) slcan0 7E9#22FFFFFFFFFF031F
(1768226059.292917) slcan0 7E9#23006400640064FF
(1768226059.294842) slcan0 7E9#2400640064FFFF00
(1768226059.296621) slcan0 7E9#25032200640063FF
(1768226059.299756) slcan0 7E9#26006400640063FF
(1768226059.300907) slcan0 7E9#27FF01172E000014
(1768226059.302697) slcan0 7E9#280330032E466100
(1768226059.304554) slcan0 7E9#29000028000030FF
(1768226059.306684) slcan0 7E9#2A000000FFFF0FFF
(1768226059.310028) slcan0 7E9#2B0FFF0000FFFF00
(1768226059.310811) slcan0 7E9#2C0A0900FF000000
(1768226059.312696) slcan0 7E9#2DFFFFFFFFFF1AAC
(1768226059.314567) slcan0 7E9#2EFF80E203E3032F
(1768226059.316807) slcan0 7E9#2FFFFF000000FFFF
(1768226059.323916) slcan0 7E9#20FFFFFFFFFF00FF
(1768226059.324566) slcan0 7E9#2100FF0000454000
(1768226059.326525) slcan0 7E9#2200FF10FFFF0000
(1768226059.466778) slcan0 7E1#0221050000000000
(1768226059.472827) slcan0 7E9#1082610516540000
(1768226059.473044) slcan0 7E1#3000000000000000
(1768226059.476434) slcan0 7E9#2127380D02C910C3
(1768226059.479632) slcan0 7E9#22FFFFFFFFFF031F
(1768226059.480576) slcan0 7E9#23006400640064FF
(1768226059.482736) slcan0 7E9#2400640064FFFF00
(1768226059.484559) slcan0 7E9#25032400640064FF
(1768226059.489598) slcan0 7E9#26006300630064FF
(1768226059.490648) slcan0 7E9#27FF011740000014
(1768226059.492877) slcan0 7E9#28032F032D466100
(1768226059.494613) slcan0 7E9#2900002800001DFF
(1768226059.496504) slcan0 7E9#2A000000FFFF0FFF
(1768226059.500101) slcan0 7E9#2B0FFF0000FFFF00
(1768226059.500594) slcan0 7E9#2C0A0900FF000000
(1768226059.502686) slcan0 7E9#2DFFFFFFFFFF1AAC
(1768226059.504534) slcan0 7E9#2EFF80EC03E3032D
(1768226059.506591) slcan0 7E9#2FFFFF000000FFFF
(1768226059.510133) slcan0 7E9#20FFFFFFFFFF00FF
(1768226059.510779) slcan0 7E9#2100FF0000454000
(1768226059.512818) slcan0 7E9#2200FF10FFFF0000
(1768226059.591896) slcan0 7E1#0221050000000000
(1768226059.594726) slcan0 7E9#1082610516580000
(1768226059.594950) slcan0 7E1#3000000000000000
(1768226059.599590) slcan0 7E9#2127386302C910BE
(1768226059.600549) slcan0 7E9#22FFFFFFFFFF031F
(1768226059.602670) slcan0 7E9#23006400640064FF
(1768226059.604883) slcan0 7E9#2400640064FFFF00
(1768226059.610045) slcan0 7E9#25031E00630063FF
(1768226059.610532) slcan0 7E9#26006300630063FF
(1768226059.612919) slcan0 7E9#27FF01172C000014
(1768226059.614631) slcan0 7E9#280331032E466100
(1768226059.617071) slcan0 7E9#2900002800001DFF
(1768226059.623514) slcan0 7E9#2A000000FFFF0FFF
(1768226059.624543) slcan0 7E9#2B0FFF0000FFFF00
(1768226059.626640) slcan0 7E9#2C0A0900FF000000
(1768226059.630405) slcan0 7E9#2DFFFFFFFFFF1AAC
(1768226059.632820) slcan0 7E9#2EFF80D403E30330
(1768226059.634568) slcan0 7E9#2FFFFF000000FFFF
(1768226059.636581) slcan0 7E9#20FFFFFFFFFF00FF
(1768226059.639582) slcan0 7E9#2100FF0000454000
(1768226059.640537) slcan0 7E9#2200FF10FFFF0000
(1768226059.766781) slcan0 7E1#0221050000000000
(1768226059.774613) slcan0 7E9#1082610516480000
(1768226059.774853) slcan0 7E1#3000000000000000
(1768226059.779604) slcan0 7E9#212737F702C910BE
(1768226059.780672) slcan0 7E9#22FFFFFFFFFF031F
(1768226059.782591) slcan0 7E9#23006400640064FF
(1768226059.784378) slcan0 7E9#2400640064FFFF00
(1768226059.786444) slcan0 7E9#25031D00630062FF
(1768226059.789607) slcan0 7E9#26006300630063FF
(1768226059.790424) slcan0 7E9#27FF01171C000014
(1768226059.792677) slcan0 7E9#280330032E466100
(1768226059.794365) slcan0 7E9#29000028000044FF
(1768226059.796364) slcan0 7E9#2A000000FFFF0FFF
(1768226059.799842) slcan0 7E9#2B0FFF0000FFFF00
(1768226059.800413) slcan0 7E9#2C0A0900FF000000
(1768226059.802524) slcan0 7E9#2DFFFFFFFFFF1AAC
(1768226059.804369) slcan0 7E9#2EFF80D403E30330
(1768226059.806418) slcan0 7E9#2FFFFF000000FFFF
(1768226059.809929) slcan0 7E9#20FFFFFFFFFF00FF
(1768226059.810556) slcan0 7E9#2100FF0000454000
(1768226059.812724) slcan0 7E9#2200FF10FFFF0000
(1768226059.921585) slcan0 7E1#0221050000000000
(1768226059.924448) slcan0 7E9#1082610516340000
(1768226059.924784) slcan0 7E1#3000000000000000
(1768226059.930035) slcan0 7E9#212738B902C910BE
(1768226059.930552) slcan0 7E9#22FFFFFFFFFF031F
(1768226059.932721) slcan0 7E9#23006400640064FF
(1768226059.934370) slcan0 7E9#2400640064FFFF00
(1768226059.936425) slcan0 7E9#25032200630063FF
(1768226059.939564) slcan0 7E9#26006300630063FF
(1768226059.940464) slcan0 7E9#27FF011716000014
(1768226059.943100) slcan0 7E9#280330032E466100
(1768226059.944365) slcan0 7E9#29000028000044FF
(1768226059.946389) slcan0 7E9#2A000000FFFF0FFF
(1768226059.951577) slcan0 7E9#2B0FFF0000FFFF00
(1768226059.953462) slcan0 7E9#2C0A0900FF000000
(1768226059.954488) slcan0 7E9#2DFFFFFFFFFF1AAC
(1768226059.956346) slcan0 7E9#2EFF80E203E30330
(1768226059.960748) slcan0 7E9#2FFFFF000000FFFF
(1768226059.963262) slcan0 7E9#20FFFFFFFFFF00FF
(1768226059.964501) slcan0 7E9#2100FF0000454000
(1768226059.973516) slcan0 7E9#2200FF10FFFF0000
(1768226060.082750) slcan0 7E1#041800FF00000000
(1768226060.090192) slcan0 7E9#0258000000000000
(1768226060.175649) slcan0 7E1#0221050000000000
(1768226060.179481) slcan0 7E9#1082610516300000
(1768226060.179733) slcan0 7E1#3000000000000000
(1768226060.183229) slcan0 7E9#2127380D02C910BE
(1768226060.184504) slcan0 7E9#22FFFFFFFFFF031F
(1768226060.186466) slcan0 7E9#23006400640064FF
(1768226060.189947) slcan0 7E9#2400640064FFFF00
(1768226060.190461) slcan0 7E9#25032500630063FF
(1768226060.192855) slcan0 7E9#26006300630064FF
(1768226060.194609) slcan0 7E9#27FF011710000014
(1768226060.196576) slcan0 7E9#280330032F466100
(1768226060.199636) slcan0 7E9#29000028000044FF
(1768226060.200414) slcan0 7E9#2A000000FFFF0FFF
(1768226060.202658) slcan0 7E9#2B0FFF0000FFFF00
(1768226060.204458) slcan0 7E9#2C0A0900FF000000
(1768226060.206665) slcan0 7E9#2DFFFFFFFFFF1AAC
(1768226060.210706) slcan0 7E9#2EFF80E003E3032F
(1768226060.213015) slcan0 7E9#2FFFFF000000FFFF
(1768226060.214673) slcan0 7E9#20FFFFFFFFFF00FF
(1768226060.222053) slcan0 7E9#2100FF0000454000
(1768226060.223341) slcan0 7E9#2200FF10FFFF0000
(1768226060.297660) slcan0 7E1#0221050000000000
(1768226060.303262) slcan0 7E9#1082610516240000
(1768226060.303535) slcan0 7E1#3000000000000000
(1768226060.306504) slcan0 7E9#2127388F02C910BE
(1768226060.310332) slcan0 7E9#22FFFFFFFFFF031F
(1768226060.310464) slcan0 7E9#23006400640064FF
(1768226060.312961) slcan0 7E9#2400640064FFFF00
(1768226060.314606) slcan0 7E9#25032300640063FF
(1768226060.316680) slcan0 7E9#26006300630064FF
(1768226060.323383) slcan0 7E9#27FF0116EE000014
(1768226060.324497) slcan0 7E9#2803340331466100
(1768226060.326623) slcan0 7E9#29000028000030FF
(1768226060.331192) slcan0 7E9#2A000000FFFF0FFF
(1768226060.333587) slcan0 7E9#2B0FFF0000FFFF00
(1768226060.334580) slcan0 7E9#2C0A0900FF000000
(1768226060.336624) slcan0 7E9#2DFFFFFFFFFF1AAC
(1768226060.339908) slcan0 7E9#2EFF80CA03E30330
(1768226060.340568) slcan0 7E9#2FFFFF000000FFFF
(1768226060.342828) slcan0 7E9#20FFFFFFFFFF00FF
(1768226060.344565) slcan0 7E9#2100FF0000454000
(1768226060.346447) slcan0 7E9#2200FF10FFFF0000
(1768226060.449555) slcan0 7E1#0221050000000000
(1768226060.456560) slcan0 7E9#1082610516180000
(1768226060.456876) slcan0 7E1#3000000000000000
(1768226060.463374) slcan0 7E9#2127382202C910BE
(1768226060.464552) slcan0 7E9#22FFFFFFFFFF031F
(1768226060.466512) slcan0 7E9#23006400640064FF
(1768226060.473363) slcan0 7E9#2400640064FFFF00
(1768226060.474427) slcan0 7E9#25031800630063FF
(1768226060.476506) slcan0 7E9#26006300630063FF
(1768226060.479621) slcan0 7E9#27FF011704000014
(1768226060.480414) slcan0 7E9#280332032F466100
(1768226060.483360) slcan0 7E9#29000028000009FF
(1768226060.484501) slcan0 7E9#2A000000FFFF0FFF
(1768226060.486413) slcan0 7E9#2B0FFF0000FFFF00
(1768226060.489750) slcan0 7E9#2C0A0900FF000000
(1768226060.490486) slcan0 7E9#2DFFFFFFFFFF1AAC
(1768226060.493281) slcan0 7E9#2EFF80EC03E30331
(1768226060.494519) slcan0 7E9#2FFFFF000000FFFF
(1768226060.496492) slcan0 7E9#20FFFFFFFFFF00FF
(1768226060.499756) slcan0 7E9#2100FF0000454000
(1768226060.500366) slcan0 7E9#2200FF10FFFF0000
(1768226060.610487) slcan0 7E1#0221050000000000
(1768226060.613331) slcan0 7E9#1082610516280000
(1768226060.613554) slcan0 7E1#3000000000000000
(1768226060.616617) slcan0 7E9#212737F702C910BE
(1768226060.621653) slcan0 7E9#22FFFFFFFFFF031F
(1768226060.623376) slcan0 7E9#23006400640064FF
(1768226060.624554) slcan0 7E9#2400640064FFFF00
(1768226060.626626) slcan0 7E9#25031D00630063FF
(1768226060.631342) slcan0 7E9#26006300630063FF
(1768226060.633401) slcan0 7E9#27FF011714000014
(1768226060.634499) slcan0 7E9#280331032F466100
(1768226060.636387) slcan0 7E9#29000028000030FF
(1768226060.639725) slcan0 7E9#2A000000FFFF0FFF
(1768226060.640361) slcan0 7E9#2B0FFF0000FFFF00
(1768226060.643084) slcan0 7E9#2C0A0900FF000000
(1768226060.644572) slcan0 7E9#2DFFFFFFFFFF1AAC
(1768226060.646518) slcan0 7E9#2EFF80EC03E30330
(1768226060.651734) slcan0 7E9#2FFFFF000000FFFF
(1768226060.653898) slcan0 7E9#20FFFFFFFFFF00FF
(1768226060.654578) slcan0 7E9#2100FF0000454000
(1768226060.656520) slcan0 7E9#2200FF10FFFF0000
(1768226060.739323) slcan0 7E1#0221050000000000
(1768226060.742771) slcan0 7E9#1082610516380000
(1768226060.743090) slcan0 7E1#3000000000000000
(1768226060.746350) slcan0 7E9#212738E202C410BE
(1768226060.753807) slcan0 7E9#22FFFFFFFFFF031F
(1768226060.754400) slcan0 7E9#23006400640064FF
(1768226060.756353) slcan0 7E9#2400640064FFFF00
(1768226060.760935) slcan0 7E9#25032000630063FF
(1768226060.763273) slcan0 7E9#26006300630063FF
(1768226060.764411) slcan0 7E9#27FF01171E000014
(1768226060.766364) slcan0 7E9#280331032F466100
(1768226060.773570) slcan0 7E9#29000028000058FF
(1768226060.774412) slcan0 7E9#2A000000FFFF0FFF
(1768226060.776365) slcan0 7E9#2B0FFF0000FFFF00
(1768226060.779419) slcan0 7E9#2C0A0900FF000000
(1768226060.780346) slcan0 7E9#2DFFFFFFFFFF1AAC
(1768226060.783262) slcan0 7E9#2EFF80E603E3032E
(1768226060.784506) slcan0 7E9#2FFFFF000000FFFF
(1768226060.786376) slcan0 7E9#20FFFFFFFFFF00FF
(1768226060.789439) slcan0 7E9#2100FF0000454000
(1768226060.790541) slcan0 7E9#2200FF10FFFF0000
(1768226060.906350) slcan0 7E1#0221050000000000
(1768226060.913341) slcan0 7E9#10826105163C0000
(1768226060.913567) slcan0 7E1#3000000000000000
(1768226060.916637) slcan0 7E9#2127386302C910BE
(1768226060.923311) slcan0 7E9#22FFFFFFFFFF031F
(1768226060.924563) slcan0 7E9#23006400640064FF
(1768226060.926549) slcan0 7E9#2400640064FFFF00
(1768226060.931247) slcan0 7E9#25031B00630063FF
(1768226060.933330) slcan0 7E9#26006300630063FF
(1768226060.934540) slcan0 7E9#27FF011714000014
(1768226060.936493) slcan0 7E9#280331032F466100
(1768226060.939852) slcan0 7E9#29000028000030FF
(1768226060.940476) slcan0 7E9#2A000000FFFF0FFF
(1768226060.942939) slcan0 7E9#2B0FFF0000FFFF00
(1768226060.944657) slcan0 7E9#2C0A0900FF000000
(1768226060.946600) slcan0 7E9#2DFFFFFFFFFF1AAC
(1768226060.951735) slcan0 7E9#2EFF80D803E30330
(1768226060.953800) slcan0 7E9#2FFFFF000000FFFF
(1768226060.954463) slcan0 7E9#20FFFFFFFFFF00FF
(1768226060.956574) slcan0 7E9#2100FF0000454000
(1768226060.960740) slcan0 7E9#2200FF10FFFF0000
(1768226061.057407) slcan0 7E1#0221050000000000
(1768226061.063519) slcan0 7E9#1082610516340000
(1768226061.063724) slcan0 7E1#3000000000000000
(1768226061.066575) slcan0 7E9#2127388E02C910BE
(1768226061.070088) slcan0 7E9#22FFFFFFFFFF031F
(1768226061.071011) slcan0 7E9#23006400640064FF
(1768226061.073940) slcan0 7E9#2400640064FFFF00
(1768226061.074382) slcan0 7E9#25031D00630063FF
(1768226061.076506) slcan0 7E9#26006300630064FF
(1768226061.079673) slcan0 7E9#27FF011708000014
(1768226061.080515) slcan0 7E9#280332032F466100
(1768226061.083430) slcan0 7E9#29000028000030FF
(1768226061.084577) slcan0 7E9#2A000000FFFF0FFF
(1768226061.086519) slcan0 7E9#2B0FFF0000FFFF00
(1768226061.089492) slcan0 7E9#2C0A0900FF000000
(1768226061.090486) slcan0 7E9#2DFFFFFFFFFF1AAC
(1768226061.093404) slcan0 7E9#2EFF80D403E30336
(1768226061.094483) slcan0 7E9#2FFFFF000000FFFF
(1768226061.096418) slcan0 7E9#20FFFFFFFFFF00FF
(1768226061.099751) slcan0 7E9#2100FF0000454000
(1768226061.100487) slcan0 7E9#2200FF10FFFF0000
(1768226061.207249) slcan0 7E1#0221050000000000
(1768226061.213576) slcan0 7E9#10826105163C0000
(1768226061.213937) slcan0 7E1#3000000000000000
(1768226061.216843) slcan0 7E9#2127382502C910BE
(1768226061.221584) slcan0 7E9#22FFFFFFFFFF031F
(1768226061.223403) slcan0 7E9#23006400640064FF
(1768226061.224619) slcan0 7E9#2400640064FFFF00
(1768226061.226546) slcan0 7E9#25031300630063FF
(1768226061.230540) slcan0 7E9#26006200630062FF
(1768226061.234675) slcan0 7E9#27FF01171A000014
(1768226061.236471) slcan0 7E9#280330032F466100
(1768226061.239980) slcan0 7E9#2900002800001DFF
(1768226061.240391) slcan0 7E9#2A000000FFFF0FFF
(1768226061.243038) slcan0 7E9#2B0FFF0000FFFF00
(1768226061.244653) slcan0 7E9#2C0A0900FF000000
(1768226061.246618) slcan0 7E9#2DFFFFFFFFFF1AAC
(1768226061.251535) slcan0 7E9#2EFF80DE03E3032F
(1768226061.253955) slcan0 7E9#2FFFFF000000FFFF
(1768226061.254511) slcan0 7E9#20FFFFFFFFFF00FF
(1768226061.256467) slcan0 7E9#2100FF0000454000
(1768226061.260639) slcan0 7E9#2200FF10FFFF0000
(1768226061.338230) slcan0 7E1#0221050000000000
(1768226061.343142) slcan0 7E9#1082610516340000
(1768226061.343428) slcan0 7E1#3000000000000000
(1768226061.346465) slcan0 7E9#2127386302C910C3
(1768226061.351404) slcan0 7E9#22FFFFFFFFFF031F
(1768226061.354334) slcan0 7E9#23006400640064FF
(1768226061.356486) slcan0 7E9#2400640064FFFF00
(1768226061.360918) slcan0 7E9#25031F00630063FF
(1768226061.363332) slcan0 7E9#26006300630063FF
(1768226061.364370) slcan0 7E9#27FF011722000014
(1768226061.366479) slcan0 7E9#280331032E466100
(1768226061.370904) slcan0 7E9#2900002800001DFF
(1768226061.374314) slcan0 7E9#2A000000FFFF0FFF
(1768226061.376484) slcan0 7E9#2B0FFF0000FFFF00
(1768226061.379533) slcan0 7E9#2C0A0900FF000000
(1768226061.380337) slcan0 7E9#2DFFFFFFFFFF1AAC
(1768226061.383219) slcan0 7E9#2EFF80EE03E3032F
(1768226061.384447) slcan0 7E9#2FFFFF000000FFFF
(1768226061.386498) slcan0 7E9#20FFFFFFFFFF00FF
(1768226061.389499) slcan0 7E9#2100FF0000454000
(1768226061.390428) slcan0 7E9#2200FF10FFFF0000
(1768226061.494358) slcan0 7E1#0221050000000000
(1768226061.496553) slcan0 7E9#10826105163C0000
(1768226061.496839) slcan0 7E1#3000000000000000
(1768226061.503350) slcan0 7E9#2127389002C910BE
(1768226061.504442) slcan0 7E9#22FFFFFFFFFF031F
(1768226061.506463) slcan0 7E9#23006400640064FF
(1768226061.509929) slcan0 7E9#2400640064FFFF00
(1768226061.510387) slcan0 7E9#25032300630063FF
(1768226061.513356) slcan0 7E9#26006300630063FF
(1768226061.514400) slcan0 7E9#27FF011724000014
(1768226061.521560) slcan0 7E9#280330032E466100
(1768226061.523220) slcan0 7E9#29000028000044FF
(1768226061.524453) slcan0 7E9#2A000000FFFF0FFF
(1768226061.526436) slcan0 7E9#2B0FFF0000FFFF00
(1768226061.530377) slcan0 7E9#2C0A0900FF000000
(1768226061.534471) slcan0 7E9#2DFFFFFFFFFF1AAC
(1768226061.536375) slcan0 7E9#2EFF80E803E3032F
(1768226061.539805) slcan0 7E9#2FFFFF000000FFFF
(1768226061.540359) slcan0 7E9#20FFFFFFFFFF00FF
(1768226061.542506) slcan0 7E9#2100FF0000454000
(1768226061.544335) slcan0 7E9#2200FF10FFFF0000
(1768226061.650181) slcan0 7E1#0221050000000000
(1768226061.653721) slcan0 7E9#1082610516400000
(1768226061.653804) slcan0 7E1#3000000000000000
(1768226061.656355) slcan0 7E9#2127384202C910C3
(1768226061.660849) slcan0 7E9#22FFFFFFFFFF031F
(1768226061.663187) slcan0 7E9#23006400640064FF
(1768226061.664326) slcan0 7E9#2400640064FFFF00
(1768226061.666360) slcan0 7E9#25031C00630063FF
(1768226061.669899) slcan0 7E9#26006300630063FF
(1768226061.670945) slcan0 7E9#27FF011714000014
(1768226061.673351) slcan0 7E9#280330032F466100
(1768226061.674764) slcan0 7E9#29000028000044FF
(1768226061.676388) slcan0 7E9#2A000000FFFF0FFF
(1768226061.679564) slcan0 7E9#2B0FFF0000FFFF00
(1768226061.680336) slcan0 7E9#2C0A0900FF000000
(1768226061.683224) slcan0 7E9#2DFFFFFFFFFF1AAC
(1768226061.684330) slcan0 7E9#2EFF80D403E30330
(1768226061.686354) slcan0 7E9#2FFFFF000000FFFF
(1768226061.689462) slcan0 7E9#20FFFFFFFFFF00FF
(1768226061.690465) slcan0 7E9#2100FF0000454000
(1768226061.693357) slcan0 7E9#2200FF10FFFF0000
(1768226061.806008) slcan0 7E1#0221050000000000
(1768226061.810238) slcan0 7E9#1082610516480000
(1768226061.810318) slcan0 7E1#3000000000000000
(1768226061.813447) slcan0 7E9#2127381202C910C3
(1768226061.814536) slcan0 7E9#22FFFFFFFFFF031F
(1768226061.821354) slcan0 7E9#23006400640064FF
(1768226061.822732) slcan0 7E9#2400640064FFFF00
(1768226061.824558) slcan0 7E9#25031400630063FF
(1768226061.826646) slcan0 7E9#26006200620063FF
(1768226061.830694) slcan0 7E9#27FF011724000014
(1768226061.832897) slcan0 7E9#28032F032D466100
(1768226061.834433) slcan0 7E9#2900002800001DFF
(1768226061.836451) slcan0 7E9#2A000000FFFF0FFF
(1768226061.839806) slcan0 7E9#2B0FFF0000FFFF00
(1768226061.840456) slcan0 7E9#2C0A0900FF000000
(1768226061.842600) slcan0 7E9#2DFFFFFFFFFF1AAC
(1768226061.844430) slcan0 7E9#2EFF80DC03E3032E
(1768226061.846607) slcan0 7E9#2FFFFF000000FFFF
(1768226061.851395) slcan0 7E9#20FFFFFFFFFF00FF
(1768226061.853657) slcan0 7E9#2100FF0000454000
(1768226061.854614) slcan0 7E9#2200FF10FFFF0000
(1768226061.954145) slcan0 7E1#0221050000000000
(1768226061.956689) slcan0 7E9#1082610516500000
(1768226061.956710) slcan0 7E1#3000000000000000
(1768226061.962621) slcan0 7E9#2127387F02C910BE
(1768226061.964452) slcan0 7E9#22FFFFFFFFFF031F
(1768226061.966358) slcan0 7E9#23006400640064FF
(1768226061.970890) slcan0 7E9#2400640064FFFF00
(1768226061.972772) slcan0 7E9#25032400630063FF
(1768226061.974475) slcan0 7E9#26006400630063FF
(1768226061.976452) slcan0 7E9#27FF01172C000014
(1768226061.979395) slcan0 7E9#280330032D466100
(1768226061.980501) slcan0 7E9#2900002800001DFF
(1768226061.982879) slcan0 7E9#2A000000FFFF0FFF
(1768226061.984451) slcan0 7E9#2B0FFF0000FFFF00
(1768226061.986397) slcan0 7E9#2C0A0900FF000000
(1768226061.989514) slcan0 7E9#2DFFFFFFFFFF1AAC
(1768226061.990475) slcan0 7E9#2EFF80DC03E3032F
(1768226061.992869) slcan0 7E9#2FFFFF000000FFFF
(1768226061.994494) slcan0 7E9#20FFFFFFFFFF00FF
(1768226061.996465) slcan0 7E9#2100FF0000454000
(1768226061.999609) slcan0 7E9#2200FF10FFFF0000
(1768226062.078088) slcan0 7E1#0221050000000000
(1768226062.082724) slcan0 7E9#1082610516580000
(1768226062.082943) slcan0 7E1#3000000000000000
(1768226062.086508) slcan0 7E9#2127380F02C910C3
(1768226062.089521) slcan0 7E9#22FFFFFFFFFF031F
(1768226062.090407) slcan0 7E9#23006400640064FF
(1768226062.092874) slcan0 7E9#2400640064FFFF00
(1768226062.094525) slcan0 7E9#25031700630063FF
(1768226062.096523) slcan0 7E9#26006300620063FF
(1768226062.099393) slcan0 7E9#27FF011744000014
(1768226062.100519) slcan0 7E9#28032E032C466100
(1768226062.102874) slcan0 7E9#29000028000030FF
(1768226062.104549) slcan0 7E9#2A000000FFFF0FFF
(1768226062.106509) slcan0 7E9#2B0FFF0000FFFF00
(1768226062.109735) slcan0 7E9#2C0A0900FF000000
(1768226062.110531) slcan0 7E9#2DFFFFFFFFFF1AAC
(1768226062.112721) slcan0 7E9#2EFF80EC03E3032C
(1768226062.114493) slcan0 7E9#2FFFFF000000FFFF
(1768226062.123041) slcan0 7E9#20FFFFFFFFFF00FF
(1768226062.124454) slcan0 7E9#2100FF0000454000
(1768226062.126560) slcan0 7E9#2200FF10FFFF0000
(1768226062.215280) slcan0 7E1#041800FF00000000
(1768226062.221605) slcan0 7E9#0258000000000000
(1768226062.343104) slcan0 7E1#0221050000000000
(1768226062.346546) slcan0 7E9#1082610516580000
(1768226062.346812) slcan0 7E1#3000000000000000
(1768226062.353584) slcan0 7E9#2127385C02C910BE
(1768226062.354522) slcan0 7E9#22FFFFFFFFFF031F
(1768226062.356492) slcan0 7E9#23006400640064FF
(1768226062.360998) slcan0 7E9#2400640064FFFF00
(1768226062.362571) slcan0 7E9#25031D00630063FF
(1768226062.364450) slcan0 7E9#26006300630063FF
(1768226062.366629) slcan0 7E9#27FF01172E000014
(1768226062.369953) slcan0 7E9#28032D032D466100
(1768226062.370867) slcan0 7E9#29000028000030FF
(1768226062.372901) slcan0 7E9#2A000000FFFF0FFF
(1768226062.374343) slcan0 7E9#2B0FFF0000FFFF00
(1768226062.376336) slcan0 7E9#2C0A0900FF000000
(1768226062.381173) slcan0 7E9#2DFFFFFFFFFF1AAC
(1768226062.382469) slcan0 7E9#2EFF80D603E3032C
(1768226062.384460) slcan0 7E9#2FFFFF000000FFFF
(1768226062.386417) slcan0 7E9#20FFFFFFFFFF00FF
(1768226062.389466) slcan0 7E9#2100FF0000454000
(1768226062.390443) slcan0 7E9#2200FF10FFFF0000
(1768226062.484981) slcan0 7E1#0221050000000000
(1768226062.489490) slcan0 7E9#1082610516500000
(1768226062.489508) slcan0 7E1#3000000000000000
(1768226062.493196) slcan0 7E9#2127384E02C910C3
(1768226062.494428) slcan0 7E9#22FFFFFFFFFF031F
(1768226062.496583) slcan0 7E9#23006400640064FF
(1768226062.500923) slcan0 7E9#2400640064FFFF00
(1768226062.502608) slcan0 7E9#25031F00630063FF
(1768226062.504903) slcan0 7E9#26006300630063FF
(1768226062.506440) slcan0 7E9#27FF011726000014
(1768226062.509859) slcan0 7E9#28032D032C466100
(1768226062.510393) slcan0 7E9#29000028000044FF
(1768226062.513156) slcan0 7E9#2A000000FFFF0FFF
(1768226062.514438) slcan0 7E9#2B0FFF0000FFFF00
(1768226062.523586) slcan0 7E9#2C0A0900FF000000
(1768226062.524479) slcan0 7E9#2DFFFFFFFFFF1AAC
(1768226062.526472) slcan0 7E9#2EFF80D603E3032B
(1768226062.530473) slcan0 7E9#2FFFFF000000FFFF
(1768226062.533122) slcan0 7E9#20FFFFFFFFFF00FF
(1768226062.534557) slcan0 7E9#2100FF0000454000
(1768226062.536449) slcan0 7E9#2200FF10FFFF0000
(1768226062.623975) slcan0 7E1#0221050000000000
(1768226062.626427) slcan0 7E9#1082610516440000
(1768226062.626692) slcan0 7E1#3000000000000000
(1768226062.633212) slcan0 7E9#212738A402C910BE
(1768226062.634460) slcan0 7E9#22FFFFFFFFFF031F
(1768226062.636539) slcan0 7E9#23006400640064FF
(1768226062.639787) slcan0 7E9#2400640064FFFF00
(1768226062.640568) slcan0 7E9#25032200630063FF
(1768226062.643215) slcan0 7E9#26006300630063FF
(1768226062.644530) slcan0 7E9#27FF011718000014
(1768226062.646507) slcan0 7E9#28032F032D466100
(1768226062.651204) slcan0 7E9#2900002800001DFF
(1768226062.653552) slcan0 7E9#2A000000FFFF0FFF
(1768226062.654518) slcan0 7E9#2B0FFF0000FFFF00
(1768226062.656445) slcan0 7E9#2C0A0900FF000000
(1768226062.660790) slcan0 7E9#2DFFFFFFFFFF1AAC
(1768226062.663080) slcan0 7E9#2EFF80D403E3032E
(1768226062.664356) slcan0 7E9#2FFFFF000000FFFF
(1768226062.666361) slcan0 7E9#20FFFFFFFFFF00FF
(1768226062.669645) slcan0 7E9#2100FF0000454000
(1768226062.670642) slcan0 7E9#2200FF10FFFF0000
(1768226062.750089) slcan0 7E1#0221050000000000
(1768226062.754504) slcan0 7E9#10826105163C0000
(1768226062.754910) slcan0 7E1#3000000000000000
(1768226062.760987) slcan0 7E9#2127385C02C910BE
(1768226062.763438) slcan0 7E9#22FFFFFFFFFF031F
(1768226062.764385) slcan0 7E9#23006400640064FF
(1768226062.766512) slcan0 7E9#2400640064FFFF00
(1768226062.770014) slcan0 7E9#25031B00630063FF
(1768226062.770995) slcan0 7E9#26006300630063FF
(1768226062.773183) slcan0 7E9#27FF011718000014
(1768226062.774390) slcan0 7E9#280330032E466100
(1768226062.776565) slcan0 7E9#2900002800001DFF
(1768226062.779593) slcan0 7E9#2A000000FFFF0FFF
(1768226062.781209) slcan0 7E9#2B0FFF0000FFFF00
(1768226062.782714) slcan0 7E9#2C0A0900FF000000
(1768226062.784447) slcan0 7E9#2DFFFFFFFFFF1AAC
(1768226062.786462) slcan0 7E9#2EFF80DC03E30330
(1768226062.789517) slcan0 7E9#2FFFFF000000FFFF
(1768226062.790516) slcan0 7E9#20FFFFFFFFFF00FF
(1768226062.793201) slcan0 7E9#2100FF0000454000
(1768226062.794509) slcan0 7E9#2200FF10FFFF0000
(1768226062.873946) slcan0 7E1#0221050000000000
(1768226062.876425) slcan0 7E9#1082610516380000
(1768226062.876689) slcan0 7E1#3000000000000000
(1768226062.883081) slcan0 7E9#2127386302C910BE
(1768226062.884427) slcan0 7E9#22FFFFFFFFFF031F
(1768226062.886546) slcan0 7E9#23006400640064FF
(1768226062.889620) slcan0 7E9#2400640064FFFF00
(1768226062.890499) slcan0 7E9#25032200630063FF
(1768226062.893107) slcan0 7E9#26006300630064FF
(1768226062.895690) slcan0 7E9#27FF011720000014
(1768226062.896405) slcan0 7E9#280330032E466100
(1768226062.899500) slcan0 7E9#29000028000030FF
(1768226062.900531) slcan0 7E9#2A000000FFFF0FFF
(1768226062.902766) slcan0 7E9#2B0FFF0000FFFF00
(1768226062.904495) slcan0 7E9#2C0A0900FF000000
(1768226062.906554) slcan0 7E9#2DFFFFFFFFFF1AAC
(1768226062.909677) slcan0 7E9#2EFF80E803E3032F
(1768226062.910386) slcan0 7E9#2FFFFF000000FFFF
(1768226062.913205) slcan0 7E9#20FFFFFFFFFF00FF
(1768226062.914481) slcan0 7E9#2100FF0000454000
(1768226062.923770) slcan0 7E9#2200FF10FFFF0000
(1768226063.020044) slcan0 7E1#0221050000000000
(1768226063.024553) slcan0 7E9#1082610516300000
(1768226063.024661) slcan0 7E1#3000000000000000
(1768226063.030547) slcan0 7E9#2127383D02C910BE
(1768226063.033328) slcan0 7E9#22FFFFFFFFFF031F
(1768226063.034475) slcan0 7E9#23006400640064FF
(1768226063.036539) slcan0 7E9#2400640064FFFF00
(1768226063.039828) slcan0 7E9#25032000630062FF
(1768226063.041077) slcan0 7E9#26006300630063FF
(1768226063.042721) slcan0 7E9#27FF011706000014
(1768226063.044512) slcan0 7E9#280330032F466100
(1768226063.046526) slcan0 7E9#29000028000030FF
(1768226063.051352) slcan0 7E9#2A000000FFFF0FFF
(1768226063.053529) slcan0 7E9#2B0FFF0000FFFF00
(1768226063.054601) slcan0 7E9#2C0A0900FF000000
(1768226063.056441) slcan0 7E9#2DFFFFFFFFFF1AAC
(1768226063.060162) slcan0 7E9#2EFF80D603E30330
(1768226063.061226) slcan0 7E9#2FFFFF000000FFFF
(1768226063.063456) slcan0 7E9#20FFFFFFFFFF00FF
(1768226063.064480) slcan0 7E9#2100FF0000454000
(1768226063.066522) slcan0 7E9#2200FF10FFFF0000
(1768226063.153746) slcan0 7E1#0221050000000000
(1768226063.156543) slcan0 7E9#1082610516300000
(1768226063.156733) slcan0 7E1#3000000000000000
(1768226063.164546) slcan0 7E9#2127380D02C910BE
(1768226063.166442) slcan0 7E9#22FFFFFFFFFF031F
(1768226063.170630) slcan0 7E9#23006400640064FF
(1768226063.173158) slcan0 7E9#2400640064FFFF00
(1768226063.174536) slcan0 7E9#25032000630063FF
(1768226063.176345) slcan0 7E9#26006300640063FF
(1768226063.179501) slcan0 7E9#27FF011708000014
(1768226063.180437) slcan0 7E9#280330032E466100
(1768226063.183354) slcan0 7E9#29000028000030FF
(1768226063.184442) slcan0 7E9#2A000000FFFF0FFF
(1768226063.186507) slcan0 7E9#2B0FFF0000FFFF00
(1768226063.189536) slcan0 7E9#2C0A0900FF000000
(1768226063.190412) slcan0 7E9#2DFFFFFFFFFF1AAC
(1768226063.193191) slcan0 7E9#2EFF80D803E3032F
(1768226063.194559) slcan0 7E9#2FFFFF000000FFFF
(1768226063.196449) slcan0 7E9#20FFFFFFFFFF00FF
(1768226063.199463) slcan0 7E9#2100FF0000454000
(1768226063.200471) slcan0 7E9#2200FF10FFFF0000
(1768226063.311936) slcan0 7E1#0221050000000000
(1768226063.314614) slcan0 7E9#1082610516380000
(1768226063.314977) slcan0 7E1#3000000000000000
(1768226063.321690) slcan0 7E9#2127388E02C910BE
(1768226063.323374) slcan0 7E9#22FFFFFFFFFF031F
(1768226063.324769) slcan0 7E9#23006400640064FF
(1768226063.326681) slcan0 7E9#2400640064FFFF00
(1768226063.330340) slcan0 7E9#25032200630063FF
(1768226063.333288) slcan0 7E9#26006400630064FF
(1768226063.334629) slcan0 7E9#27FF011722000014
(1768226063.336447) slcan0 7E9#280332032E466100
(1768226063.339778) slcan0 7E9#29000028000030FF
(1768226063.340549) slcan0 7E9#2A000000FFFF0FFF
(1768226063.343699) slcan0 7E9#2B0FFF0000FFFF00
(1768226063.344579) slcan0 7E9#2C0A0900FF000000
(1768226063.346552) slcan0 7E9#2DFFFFFFFFFF1AAC
(1768226063.351489) slcan0 7E9#2EFF80EA03E30330
(1768226063.353574) slcan0 7E9#2FFFFF000000FFFF
(1768226063.354815) slcan0 7E9#20FFFFFFFFFF00FF
(1768226063.356450) slcan0 7E9#2100FF0000454000
(1768226063.360257) slcan0 7E9#2200FF10FFFF0000
(1768226063.451772) slcan0 7E1#0221050000000000
(1768226063.456461) slcan0 7E9#1082610516400000
(1768226063.456784) slcan0 7E1#3000000000000000
(1768226063.463748) slcan0 7E9#2127383602C910BE
(1768226063.464529) slcan0 7E9#22FFFFFFFFFF031F
(1768226063.466387) slcan0 7E9#23006400640064FF
(1768226063.469690) slcan0 7E9#2400640064FFFF00
(1768226063.470674) slcan0 7E9#25031800620062FF
(1768226063.473097) slcan0 7E9#26006200620062FF
(1768226063.474429) slcan0 7E9#27FF01172E000014
(1768226063.476391) slcan0 7E9#28032F032D466100
(1768226063.479416) slcan0 7E9#2900002800001DFF
(1768226063.480421) slcan0 7E9#2A000000FFFF0FFF
(1768226063.484040) slcan0 7E9#2B0FFF0000FFFF00
(1768226063.484406) slcan0 7E9#2C0A0900FF000000
(1768226063.486361) slcan0 7E9#2DFFFFFFFFFF1AAC
(1768226063.489449) slcan0 7E9#2EFF80EE03E3032D
(1768226063.490338) slcan0 7E9#2FFFFF000000FFFF
(1768226063.493066) slcan0 7E9#20FFFFFFFFFF00FF
(1768226063.494622) slcan0 7E9#2100FF0000454000
(1768226063.496326) slcan0 7E9#2200FF10FFFF0000
(1768226063.634860) slcan0 7E1#0221050000000000
(1768226063.639618) slcan0 7E9#1082610516540000
(1768226063.639774) slcan0 7E1#3000000000000000
(1768226063.642762) slcan0 7E9#2127384E02C410BE
(1768226063.644499) slcan0 7E9#22FFFFFFFFFF031F
(1768226063.646454) slcan0 7E9#23006400640064FF
(1768226063.651423) slcan0 7E9#2400640064FFFF00
(1768226063.653447) slcan0 7E9#25032100640063FF
(1768226063.654561) slcan0 7E9#26006300630063FF
(1768226063.656484) slcan0 7E9#27FF011730000014
(1768226063.660028) slcan0 7E9#28032D032D466100
(1768226063.663428) slcan0 7E9#29000028000030FF
(1768226063.664294) slcan0 7E9#2A000000FFFF0FFF
(1768226063.666289) slcan0 7E9#2B0FFF0000FFFF00
(1768226063.669659) slcan0 7E9#2C0A0900FF000000
(1768226063.670315) slcan0 7E9#2DFFFFFFFFFF1AAC
(1768226063.673081) slcan0 7E9#2EFF80DC03E3032C
(1768226063.674376) slcan0 7E9#2FFFFF000000FFFF
(1768226063.676428) slcan0 7E9#20FFFFFFFFFF00FF
(1768226063.679368) slcan0 7E9#2100FF0000454000
(1768226063.680280) slcan0 7E9#2200FF10FFFF0000
(1768226063.769926) slcan0 7E1#0221050000000000
(1768226063.773127) slcan0 7E9#1082610516600000
(1768226063.773264) slcan0 7E1#3000000000000000
(1768226063.776542) slcan0 7E9#2127382202C910BE
(1768226063.779544) slcan0 7E9#22FFFFFFFFFF031F
(1768226063.780294) slcan0 7E9#23006400640064FF
(1768226063.783066) slcan0 7E9#2400640064FFFF00
(1768226063.784689) slcan0 7E9#25032200640064FF
(1768226063.786570) slcan0 7E9#26006400630064FF
(1768226063.789428) slcan0 7E9#27FF011742000014
(1768226063.790426) slcan0 7E9#28032E032C466100
(1768226063.793272) slcan0 7E9#29000028000044FF
(1768226063.794455) slcan0 7E9#2A000000FFFF0FFF
(1768226063.796500) slcan0 7E9#2B0FFF0000FFFF00
(1768226063.799395) slcan0 7E9#2C0A0900FF000000
(1768226063.800478) slcan0 7E9#2DFFFFFFFFFF1AAC
(1768226063.802691) slcan0 7E9#2EFF80E203E3032D
(1768226063.804429) slcan0 7E9#2FFFFF000000FFFF
(1768226063.806481) slcan0 7E9#20FFFFFFFFFF00FF
(1768226063.809827) slcan0 7E9#2100FF0000454000
(1768226063.810464) slcan0 7E9#2200FF10FFFF0000
(1768226063.902883) slcan0 7E1#0221050000000000
(1768226063.906568) slcan0 7E9#10826105166C0000
(1768226063.906814) slcan0 7E1#3000000000000000
(1768226063.913125) slcan0 7E9#2127386302C910BE
(1768226063.914528) slcan0 7E9#22FFFFFFFFFF031F
(1768226063.921732) slcan0 7E9#23006400640064FF
(1768226063.922853) slcan0 7E9#2400640064FFFF00
(1768226063.924470) slcan0 7E9#25031F00630063FF
(1768226063.926454) slcan0 7E9#26006300630063FF
(1768226063.930489) slcan0 7E9#27FF01174C000014
(1768226063.933099) slcan0 7E9#28032E032B466100
(1768226063.934406) slcan0 7E9#29000028000044FF
(1768226063.936461) slcan0 7E9#2A000000FFFF0FFF
(1768226063.939739) slcan0 7E9#2B0FFF0000FFFF00
(1768226063.940467) slcan0 7E9#2C0A0900FF000000
(1768226063.942603) slcan0 7E9#2DFFFFFFFFFF1AAC
(1768226063.945278) slcan0 7E9#2EFF80E003E3032D
(1768226063.946472) slcan0 7E9#2FFFFF000000FFFF
(1768226063.951204) slcan0 7E9#20FFFFFFFFFF00FF
(1768226063.953364) slcan0 7E9#2100FF0000454000
(1768226063.954460) slcan0 7E9#2200FF10FFFF0000
(1768226064.067799) slcan0 7E1#0221050000000000
(1768226064.073118) slcan0 7E9#1082610516700000
(1768226064.073403) slcan0 7E1#3000000000000000
(1768226064.076426) slcan0 7E9#2127380D02C910BE
(1768226064.079557) slcan0 7E9#22FFFFFFFFFF031F
(1768226064.080279) slcan0 7E9#23006400640064FF
(1768226064.083116) slcan0 7E9#2400640064FFFF00
(1768226064.084401) slcan0 7E9#25031C00630063FF
(1768226064.086408) slcan0 7E9#26006300630063FF
(1768226064.089346) slcan0 7E9#27FF01173C000014
(1768226064.090255) slcan0 7E9#28032C032B466100
(1768226064.093053) slcan0 7E9#29000028000058FF
(1768226064.094312) slcan0 7E9#2A000000FFFF0FFF
(1768226064.099104) slcan0 7E9#2B0FFF0000FFFF00
(1768226064.100276) slcan0 7E9#2C0A0900FF000000
(1768226064.102575) slcan0 7E9#2DFFFFFFFFFF1AAC
(1768226064.104335) slcan0 7E9#2EFF80CC03E3032C
(1768226064.106513) slcan0 7E9#2FFFFF000000FFFF
(1768226064.109729) slcan0 7E9#20FFFFFFFFFF00FF
(1768226064.110246) slcan0 7E9#2100FF0000454000
(1768226064.112952) slcan0 7E9#2200FF10FFFF0000
(1768226064.204895) slcan0 7E1#0221050000000000
(1768226064.209696) slcan0 7E9#1082610516640000
(1768226064.209845) slcan0 7E1#3000000000000000
(1768226064.213081) slcan0 7E9#2127383802C910BE
(1768226064.214393) slcan0 7E9#22FFFFFFFFFF031F
(1768226064.221239) slcan0 7E9#23006400640064FF
(1768226064.222770) slcan0 7E9#2400640064FFFF00
(1768226064.224475) slcan0 7E9#25031800630063FF
(1768226064.226471) slcan0 7E9#26006300630061FF
(1768226064.230759) slcan0 7E9#27FF011734000014
(1768226064.233034) slcan0 7E9#28032D032B466100
(1768226064.234544) slcan0 7E9#29000028000030FF
(1768226064.236357) slcan0 7E9#2A000000FFFF0FFF
(1768226064.239650) slcan0 7E9#2B0FFF0000FFFF00
(1768226064.240355) slcan0 7E9#2C0A0900FF000000
(1768226064.242607) slcan0 7E9#2DFFFFFFFFFF1AAC
(1768226064.244379) slcan0 7E9#2EFF80D003E3032C
(1768226064.253526) slcan0 7E9#2FFFFF000000FFFF
(1768226064.254401) slcan0 7E9#20FFFFFFFFFF00FF
(1768226064.256324) slcan0 7E9#2100FF0000454000
(1768226064.260199) slcan0 7E9#2200FF10FFFF0000
(1768226064.362034) slcan0 7E1#041800FF00000000
(1768226064.364539) slcan0 7E9#0258000000000000
(1768226064.443979) slcan0 7E1#0221050000000000
(1768226064.446433) slcan0 7E9#1082610516500000
(1768226064.446697) slcan0 7E1#3000000000000000
(1768226064.454354) slcan0 7E9#2128386302C910BE
(1768226064.456283) slcan0 7E9#22FFFFFFFFFF031F
(1768226064.460004) slcan0 7E9#23006400640064FF
(1768226064.463133) slcan0 7E9#2400640064FFFF00
(1768226064.464226) slcan0 7E9#25032000630063FF
(1768226064.466369) slcan0 7E9#26006300630063FF
(1768226064.470068) slcan0 7E9#27FF011716000014
(1768226064.473199) slcan0 7E9#280330032D466100
(1768226064.474350) slcan0 7E9#29000028000030FF
(1768226064.476350) slcan0 7E9#2A000000FFFF0FFF
(1768226064.479649) slcan0 7E9#2B0FFF0000FFFF00
(1768226064.480424) slcan0 7E9#2C0A0900FF000000
(1768226064.482434) slcan0 7E9#2DFFFFFFFFFF1AAC
(1768226064.484290) slcan0 7E9#2EFF80C603E30330
(1768226064.486281) slcan0 7E9#2FFFFF000000FFFF
(1768226064.491142) slcan0 7E9#20FFFFFFFFFF00FF
(1768226064.493052) slcan0 7E9#2100FF0000454000
(1768226064.494356) slcan0 7E9#2200FF10FFFF0000
(1768226064.603913) slcan0 7E1#0221050000000000
(1768226064.606332) slcan0 7E9#10826105163C0000
(1768226064.606592) slcan0 7E1#3000000000000000
(1768226064.613149) slcan0 7E9#2128386302C910C3
(1768226064.614276) slcan0 7E9#22FFFFFFFFFF031F
(1768226064.616416) slcan0 7E9#23006400640064FF
(1768226064.621570) slcan0 7E9#2400640064FFFF00
(1768226064.623162) slcan0 7E9#25032600630064FF
(1768226064.624362) slcan0 7E9#26006400640063FF
(1768226064.626343) slcan0 7E9#27FF01171A000014
(1768226064.630371) slcan0 7E9#28032C032D466100
(1768226064.633022) slcan0 7E9#2900002800001DFF
(1768226064.634356) slcan0 7E9#2A000000FFFF0FFF
(1768226064.636341) slcan0 7E9#2B0FFF0000FFFF00
(1768226064.639420) slcan0 7E9#2C0A0900FF000000
(1768226064.640335) slcan0 7E9#2DFFFFFFFFFF1AAC
(1768226064.642429) slcan0 7E9#2EFF80DE03E3032B
(1768226064.644345) slcan0 7E9#2FFFFF000000FFFF
(1768226064.646225) slcan0 7E9#20FFFFFFFFFF00FF
(1768226064.651245) slcan0 7E9#2100FF0000454000
(1768226064.653457) slcan0 7E9#2200FF10FFFF0000
(1768226064.728869) slcan0 7E1#0221050000000000
(1768226064.734282) slcan0 7E9#1082610516400000
(1768226064.734721) slcan0 7E1#3000000000000000
(1768226064.739327) slcan0 7E9#212838A402C410BE
(1768226064.740578) slcan0 7E9#22FFFFFFFFFF031F
(1768226064.743017) slcan0 7E9#23006400640064FF
(1768226064.744397) slcan0 7E9#2400640064FFFF00
(1768226064.746514) slcan0 7E9#25032200630063FF
(1768226064.751394) slcan0 7E9#26006300630063FF
(1768226064.753666) slcan0 7E9#27FF01170C000014
(1768226064.754469) slcan0 7E9#280330032D466100
(1768226064.756452) slcan0 7E9#29000028000030FF
(1768226064.760176) slcan0 7E9#2A000000FFFF0FFF
(1768226064.760638) slcan0 7E9#2B0FFF0000FFFF00
(1768226064.763205) slcan0 7E9#2C0A0900FF000000
(1768226064.764482) slcan0 7E9#2DFFFFFFFFFF1AAC
(1768226064.766447) slcan0 7E9#2EFF80CC03E3032C
(1768226064.770658) slcan0 7E9#2FFFFF000000FFFF
(1768226064.773383) slcan0 7E9#20FFFFFFFFFF00FF
(1768226064.774432) slcan0 7E9#2100FF0000454000
(1768226064.776530) slcan0 7E9#2200FF10FFFF0000
(1768226064.891980) slcan0 7E1#0221050000000000
(1768226064.894535) slcan0 7E9#1082610516200000
(1768226064.894751) slcan0 7E1#3000000000000000
(1768226064.899682) slcan0 7E9#2128384E02C910BE
(1768226064.900521) slcan0 7E9#22FFFFFFFFFF031F
(1768226064.902868) slcan0 7E9#23006400640064FF
(1768226064.904490) slcan0 7E9#2400640064FFFF00
(1768226064.906438) slcan0 7E9#25032100630064FF
(1768226064.910776) slcan0 7E9#26006300630063FF
(1768226064.913261) slcan0 7E9#27FF0116F4000014
(1768226064.914343) slcan0 7E9#28032F032D466100
(1768226064.916379) slcan0 7E9#29000028000030FF
(1768226064.923279) slcan0 7E9#2A000000FFFF0FFF
(1768226064.924383) slcan0 7E9#2B0FFF0000FFFF00
(1768226064.926517) slcan0 7E9#2C0A0900FF000000
(1768226064.930568) slcan0 7E9#2DFFFFFFFFFF1AAC
(1768226064.933136) slcan0 7E9#2EFF80D403E30330
(1768226064.934447) slcan0 7E9#2FFFFF000000FFFF
(1768226064.936525) slcan0 7E9#20FFFFFFFFFF00FF
(1768226064.939616) slcan0 7E9#2100FF0000454000
(1768226064.940754) slcan0 7E9#2200FF10FFFF0000
(1768226065.028923) slcan0 7E1#0221050000000000
(1768226065.034538) slcan0 7E9#10826105161C0000
(1768226065.034728) slcan0 7E1#3000000000000000
(1768226065.039609) slcan0 7E9#212838B902C410C3
(1768226065.040506) slcan0 7E9#22FFFFFFFFFF031F
(1768226065.043126) slcan0 7E9#23006400640064FF
(1768226065.044360) slcan0 7E9#2400640064FFFF00
(1768226065.046456) slcan0 7E9#25031C00630063FF
(1768226065.051369) slcan0 7E9#26006300630062FF
(1768226065.053640) slcan0 7E9#27FF0116F0000014
(1768226065.054471) slcan0 7E9#28032E032E466100
(1768226065.056378) slcan0 7E9#29000028000030FF
(1768226065.060197) slcan0 7E9#2A000000FFFF0FFF
(1768226065.060473) slcan0 7E9#2B0FFF0000FFFF00
(1768226065.063190) slcan0 7E9#2C0A0900FF000000
(1768226065.064398) slcan0 7E9#2DFFFFFFFFFF1AAC
(1768226065.066455) slcan0 7E9#2EFF80D403E3032D
(1768226065.069996) slcan0 7E9#2FFFFF000000FFFF
(1768226065.070486) slcan0 7E9#20FFFFFFFFFF00FF
(1768226065.073262) slcan0 7E9#2100FF0000454000
(1768226065.074509) slcan0 7E9#2200FF10FFFF0000
(1768226065.176855) slcan0 7E1#0221050000000000
(1768226065.182632) slcan0 7E9#1082610516100000
(1768226065.182771) slcan0 7E1#3000000000000000
(1768226065.186444) slcan0 7E9#212837CC02C910BE
(1768226065.189504) slcan0 7E9#22FFFFFFFFFF031F
(1768226065.190484) slcan0 7E9#23006400640064FF
(1768226065.193708) slcan0 7E9#2400640064FFFF00
(1768226065.194465) slcan0 7E9#25031C00630063FF
(1768226065.196446) slcan0 7E9#26006300640063FF
(1768226065.199868) slcan0 7E9#27FF0116E0000014
(1768226065.200356) slcan0 7E9#280333032F466100
(1768226065.203174) slcan0 7E9#2900002800001DFF
(1768226065.204359) slcan0 7E9#2A000000FFFF0FFF
(1768226065.206473) slcan0 7E9#2B0FFF0000FFFF00
(1768226065.210037) slcan0 7E9#2C0A0900FF000000
(1768226065.211125) slcan0 7E9#2DFFFFFFFFFF1AAC
(1768226065.213282) slcan0 7E9#2EFF80D003E30332
(1768226065.214286) slcan0 7E9#2FFFFF000000FFFF
(1768226065.216478) slcan0 7E9#20FFFFFFFFFF00FF
(1768226065.221529) slcan0 7E9#2100FF0000454000
(1768226065.223113) slcan0 7E9#2200FF10FFFF0000
(1768226065.311913) slcan0 7E1#0221050000000000
(1768226065.323085) slcan0 7E9#1082610516140000
(1768226065.323234) slcan0 7E1#3000000000000000
(1768226065.326421) slcan0 7E9#2128386302C910BE
(1768226065.330466) slcan0 7E9#22FFFFFFFFFF031F
(1768226065.333165) slcan0 7E9#23006400640064FF
(1768226065.334322) slcan0 7E9#2400640064FFFF00
(1768226065.339326) slcan0 7E9#25031E00630062FF
(1768226065.340346) slcan0 7E9#26006300630062FF
(1768226065.343030) slcan0 7E9#27FF0116FE000014
(1768226065.344319) slcan0 7E9#280330032E466100
(1768226065.346450) slcan0 7E9#29000028000044FF
(1768226065.351383) slcan0 7E9#2A000000FFFF0FFF
(1768226065.353838) slcan0 7E9#2B0FFF0000FFFF00
(1768226065.354242) slcan0 7E9#2C0A0900FF000000
(1768226065.360071) slcan0 7E9#2DFFFFFFFFFF1AAC
(1768226065.360583) slcan0 7E9#2EFF80EA03E3032F
(1768226065.363175) slcan0 7E9#2FFFFF000000FFFF
(1768226065.364379) slcan0 7E9#20FFFFFFFFFF00FF
(1768226065.369530) slcan0 7E9#2100FF0000454000
(1768226065.370415) slcan0 7E9#2200FF10FFFF0000
(1768226065.456748) slcan0 7E1#0221050000000000
(1768226065.463331) slcan0 7E9#1082610516140000
(1768226065.463606) slcan0 7E1#3000000000000000
(1768226065.469988) slcan0 7E9#2128381402C910BE
(1768226065.470395) slcan0 7E9#22FFFFFFFFFF031F
(1768226065.473282) slcan0 7E9#23006400640064FF
(1768226065.474326) slcan0 7E9#2400640064FFFF00
(1768226065.479421) slcan0 7E9#25031B00620063FF
(1768226065.480337) slcan0 7E9#26006300630062FF
(1768226065.482543) slcan0 7E9#27FF0116E8000014
(1768226065.484333) slcan0 7E9#280331032F466100
(1768226065.486340) slcan0 7E9#29000028000044FF
(1768226065.489645) slcan0 7E9#2A000000FFFF0FFF
(1768226065.490357) slcan0 7E9#2B0FFF0000FFFF00
(1768226065.494036) slcan0 7E9#2C0A0900FF000000
(1768226065.494326) slcan0 7E9#2DFFFFFFFFFF1AAC
(1768226065.496394) slcan0 7E9#2EFF80D403E30330
(1768226065.500088) slcan0 7E9#2FFFFF000000FFFF
(1768226065.500388) slcan0 7E9#20FFFFFFFFFF00FF
(1768226065.503070) slcan0 7E9#2100FF0000454000
(1768226065.504362) slcan0 7E9#2200FF10FFFF0000
(1768226065.585598) slcan0 7E1#0221050000000000
(1768226065.589918) slcan0 7E9#1082610516040000
(1768226065.589940) slcan0 7E1#3000000000000000
(1768226065.594359) slcan0 7E9#2128386202C910BE
(1768226065.596416) slcan0 7E9#22FFFFFFFFFF031F
(1768226065.599948) slcan0 7E9#23006400640064FF
(1768226065.600447) slcan0 7E9#2400640064FFFF00
(1768226065.603048) slcan0 7E9#25032500630063FF
(1768226065.604473) slcan0 7E9#26006400630063FF
(1768226065.606444) slcan0 7E9#27FF0116CE000014
(1768226065.610008) slcan0 7E9#2803340332466100
(1768226065.610440) slcan0 7E9#2900002800001DFF
(1768226065.613522) slcan0 7E9#2A000000FFFF0FFF
(1768226065.614496) slcan0 7E9#2B0FFF0000FFFF00
(1768226065.622693) slcan0 7E9#2C0A0900FF000000
(1768226065.624283) slcan0 7E9#2DFFFFFFFFFF1AAC
(1768226065.626284) slcan0 7E9#2EFF80CA03E30334
(1768226065.630589) slcan0 7E9#2FFFFF000000FFFF
(1768226065.634357) slcan0 7E9#20FFFFFFFFFF00FF
(1768226065.636381) slcan0 7E9#2100FF0000454000
(1768226065.639632) slcan0 7E9#2200FF10FFFF0000
(1768226065.727590) slcan0 7E1#0221050000000000
(1768226065.733220) slcan0 7E9#1082610516100000
(1768226065.733400) slcan0 7E1#3000000000000000
(1768226065.736438) slcan0 7E9#2128383D02C910C3
(1768226065.739988) slcan0 7E9#22FFFFFFFFFF031F
(1768226065.740429) slcan0 7E9#23006400640064FF
(1768226065.742608) slcan0 7E9#2400640064FFFF00
(1768226065.744502) slcan0 7E9#25031600630062FF
(1768226065.746429) slcan0 7E9#26006300630062FF
(1768226065.751600) slcan0 7E9#27FF0116F6000014
(1768226065.754417) slcan0 7E9#280332032F466100
(1768226065.756450) slcan0 7E9#2900002800001DFF
(1768226065.760721) slcan0 7E9#2A000000FFFF0FFF
(1768226065.763430) slcan0 7E9#2B0FFF0000FFFF00
(1768226065.764436) slcan0 7E9#2C0A0900FF000000
(1768226065.766334) slcan0 7E9#2DFFFFFFFFFF1AAC
(1768226065.770451) slcan0 7E9#2EFF80E603E30331
(1768226065.773510) slcan0 7E9#2FFFFF000000FFFF
(1768226065.774412) slcan0 7E9#20FFFFFFFFFF00FF
(1768226065.776363) slcan0 7E9#2100FF0000454000
(1768226065.779721) slcan0 7E9#2200FF10FFFF0000
(1768226065.873611) slcan0 7E1#0221050000000000
(1768226065.879462) slcan0 7E9#1082610516200000
(1768226065.879904) slcan0 7E1#3000000000000000
(1768226065.882649) slcan0 7E9#2128383102C910C3
(1768226065.884553) slcan0 7E9#22FFFFFFFFFF031F
(1768226065.886425) slcan0 7E9#23006400640064FF
(1768226065.889602) slcan0 7E9#2400640064FFFF00
(1768226065.890321) slcan0 7E9#25031F00630063FF
(1768226065.892933) slcan0 7E9#26006300630063FF
(1768226065.894589) slcan0 7E9#27FF0116FA000014
(1768226065.896273) slcan0 7E9#280332032F466100
(1768226065.899704) slcan0 7E9#2900002800001DFF
(1768226065.900439) slcan0 7E9#2A000000FFFF0FFF
(1768226065.902643) slcan0 7E9#2B0FFF0000FFFF00
(1768226065.904442) slcan0 7E9#2C0A0900FF000000
(1768226065.906458) slcan0 7E9#2DFFFFFFFFFF1AAC
(1768226065.909900) slcan0 7E9#2EFF80DA03E30331
(1768226065.910438) slcan0 7E9#2FFFFF000000FFFF
(1768226065.913162) slcan0 7E9#20FFFFFFFFFF00FF
(1768226065.914291) slcan0 7E9#2100FF0000454000
(1768226065.916434) slcan0 7E9#2200FF10FFFF0000
(1768226065.993706) slcan0 7E1#0221050000000000
(1768226065.999656) slcan0 7E9#1082610516300000
(1768226065.999930) slcan0 7E1#3000000000000000
(1768226066.003155) slcan0 7E9#2128388902C910BE
(1768226066.004450) slcan0 7E9#22FFFFFFFFFF031F
(1768226066.006240) slcan0 7E9#23006400640064FF
(1768226066.009921) slcan0 7E9#2400640064FFFF00
(1768226066.010176) slcan0 7E9#25032500640064FF
(1768226066.013251) slcan0 7E9#26006300630064FF
(1768226066.014407) slcan0 7E9#27FF0116FA000014
(1768226066.016216) slcan0 7E9#280332032F466100
(1768226066.022647) slcan0 7E9#29000028000044FF
(1768226066.024330) slcan0 7E9#2A000000FFFF0FFF
(1768226066.026230) slcan0 7E9#2B0FFF0000FFFF00
(1768226066.030278) slcan0 7E9#2C0A0900FF000000
(1768226066.033051) slcan0 7E9#2DFFFFFFFFFF1AAC
(1768226066.034310) slcan0 7E9#2EFF80CA03E30330
(1768226066.036228) slcan0 7E9#2FFFFF000000FFFF
(1768226066.039807) slcan0 7E9#20FFFFFFFFFF00FF
(1768226066.040228) slcan0 7E9#2100FF0000454000
(1768226066.042406) slcan0 7E9#2200FF10FFFF0000
(1768226066.130571) slcan0 7E1#0221050000000000
(1768226066.133041) slcan0 7E9#1082610516340000
(1768226066.133294) slcan0 7E1#3000000000000000
(1768226066.136174) slcan0 7E9#2128386302C910BE
(1768226066.139481) slcan0 7E9#22FFFFFFFFFF031F
(1768226066.140196) slcan0 7E9#23006400640064FF
(1768226066.142387) slcan0 7E9#2400640064FFFF00
(1768226066.144279) slcan0 7E9#25032000630063FF
(1768226066.146195) slcan0 7E9#26006300630063FF
(1768226066.151082) slcan0 7E9#27FF011716000014
(1768226066.153407) slcan0 7E9#280332032E466100
(1768226066.154287) slcan0 7E9#29000028000030FF
(1768226066.156211) slcan0 7E9#2A000000FFFF0FFF
(1768226066.160731) slcan0 7E9#2B0FFF0000FFFF00
(1768226066.162379) slcan0 7E9#2C0A0900FF000000
(1768226066.164266) slcan0 7E9#2DFFFFFFFFFF1AAC
(1768226066.166217) slcan0 7E9#2EFF80E203E30331
(1768226066.170654) slcan0 7E9#2FFFFF000000FFFF
(1768226066.173099) slcan0 7E9#20FFFFFFFFFF00FF
(1768226066.174261) slcan0 7E9#2100FF0000454000
(1768226066.176218) slcan0 7E9#2200FF10FFFF0000
(1768226066.259641) slcan0 7E1#0221050000000000
(1768226066.262589) slcan0 7E9#1082610516440000
(1768226066.262792) slcan0 7E1#3000000000000000
(1768226066.266403) slcan0 7E9#2128387102C910BE
(1768226066.270168) slcan0 7E9#22FFFFFFFFFF031F
(1768226066.273292) slcan0 7E9#23006400640064FF
(1768226066.274460) slcan0 7E9#2400640064FFFF00
(1768226066.276323) slcan0 7E9#25031C00630063FF
(1768226066.280280) slcan0 7E9#26006300630063FF
(1768226066.282621) slcan0 7E9#27FF011720000014
(1768226066.284348) slcan0 7E9#28032C032D466100
(1768226066.286363) slcan0 7E9#29000028000044FF
(1768226066.289916) slcan0 7E9#2A000000FFFF0FFF
(1768226066.290173) slcan0 7E9#2B0FFF0000FFFF00
(1768226066.292945) slcan0 7E9#2C0A0900FF000000
(1768226066.294353) slcan0 7E9#2DFFFFFFFFFF1AAC
(1768226066.300076) slcan0 7E9#2EFF80DC03E3032E
(1768226066.300428) slcan0 7E9#2FFFFF000000FFFF
(1768226066.303351) slcan0 7E9#20FFFFFFFFFF00FF
(1768226066.304436) slcan0 7E9#2100FF0000454000
(1768226066.306336) slcan0 7E9#2200FF10FFFF0000
(1768226066.386804) slcan0 7E1#041800FF00000000
(1768226066.392985) slcan0 7E9#0258000000000000
(1768226066.495534) slcan0 7E1#0221050000000000
(1768226066.500650) slcan0 7E9#10826105165C0000
(1768226066.500712) slcan0 7E1#3000000000000000
(1768226066.504361) slcan0 7E9#212838A402C910BE
(1768226066.506352) slcan0 7E9#22FFFFFFFFFF031F
(1768226066.509944) slcan0 7E9#23006400640064FF
(1768226066.510169) slcan0 7E9#2400640064FFFF00
(1768226066.513012) slcan0 7E9#25032100630063FF
(1768226066.514298) slcan0 7E9#26006300630063FF
(1768226066.523421) slcan0 7E9#27FF011738000014
(1768226066.524241) slcan0 7E9#28032D032D466100
(1768226066.526229) slcan0 7E9#29000028000030FF
(1768226066.530543) slcan0 7E9#2A000000FFFF0FFF
(1768226066.533070) slcan0 7E9#2B0FFF0000FFFF00
(1768226066.534203) slcan0 7E9#2C0A0900FF000000
(1768226066.536263) slcan0 7E9#2DFFFFFFFFFF1AAC
(1768226066.540258) slcan0 7E9#2EFF80DC03E3032C
(1768226066.542895) slcan0 7E9#2FFFFF000000FFFF
(1768226066.544195) slcan0 7E9#20FFFFFFFFFF00FF
(1768226066.546368) slcan0 7E9#2100FF0000454000
(1768226066.551323) slcan0 7E9#2200FF10FFFF0000
(1768226066.633665) slcan0 7E1#0221050000000000
(1768226066.639965) slcan0 7E9#1082610516580000
(1768226066.640296) slcan0 7E1#3000000000000000
(1768226066.642519) slcan0 7E9#212838B902C910BE
(1768226066.644341) slcan0 7E9#22FFFFFFFFFF031F
(1768226066.646310) slcan0 7E9#23006400640064FF
(1768226066.651501) slcan0 7E9#2400640064FFFF00
(1768226066.653624) slcan0 7E9#25031C00630063FF
(1768226066.654330) slcan0 7E9#26006300630063FF
(1768226066.656213) slcan0 7E9#27FF011730000014
(1768226066.661248) slcan0 7E9#28032F032D466100
(1768226066.663299) slcan0 7E9#2900002800001DFF
(1768226066.664173) slcan0 7E9#2A000000FFFF0FFF
(1768226066.666231) slcan0 7E9#2B0FFF0000FFFF00
(1768226066.669995) slcan0 7E9#2C0A0900FF000000
(1768226066.672856) slcan0 7E9#2DFFFFFFFFFF1AAC
(1768226066.674184) slcan0 7E9#2EFF80D803E3032E
(1768226066.676250) slcan0 7E9#2FFFFF000000FFFF
(1768226066.679800) slcan0 7E9#20FFFFFFFFFF00FF
(1768226066.680161) slcan0 7E9#2100FF0000454000
(1768226066.682354) slcan0 7E9#2200FF10FFFF0000
(1768226066.768621) slcan0 7E1#0221050000000000
(1768226066.773098) slcan0 7E9#1082610516500000
(1768226066.773116) slcan0 7E1#3000000000000000
(1768226066.776455) slcan0 7E9#2128384E02C910C3
(1768226066.780440) slcan0 7E9#22FFFFFFFFFF031F
(1768226066.782958) slcan0 7E9#23006400640064FF
(1768226066.784344) slcan0 7E9#2400640064FFFF00
(1768226066.786360) slcan0 7E9#25032100630063FF
(1768226066.789745) slcan0 7E9#26006300630063FF
(1768226066.790190) slcan0 7E9#27FF011728000014
(1768226066.793018) slcan0 7E9#28032D032C466100
(1768226066.794237) slcan0 7E9#29000028000030FF
(1768226066.796449) slcan0 7E9#2A000000FFFF0FFF
(1768226066.800815) slcan0 7E9#2B0FFF0000FFFF00
(1768226066.802617) slcan0 7E9#2C0A0900FF000000
(1768226066.804328) slcan0 7E9#2DFFFFFFFFFF1AAC
(1768226066.806385) slcan0 7E9#2EFF80D803E30330
(1768226066.809976) slcan0 7E9#2FFFFF000000FFFF
(1768226066.810215) slcan0 7E9#20FFFFFFFFFF00FF
(1768226066.812978) slcan0 7E9#2100FF0000454000
(1768226066.814290) slcan0 7E9#2200FF10FFFF0000
(1768226066.892681) slcan0 7E1#0221050000000000
(1768226066.896525) slcan0 7E9#1082610516440000
(1768226066.896540) slcan0 7E1#3000000000000000
(1768226066.904334) slcan0 7E9#2128384E02C910BE
(1768226066.906270) slcan0 7E9#22FFFFFFFFFF031F
(1768226066.909890) slcan0 7E9#23006400640064FF
(1768226066.910156) slcan0 7E9#2400640064FFFF00
(1768226066.912933) slcan0 7E9#25031B00620062FF
(1768226066.914265) slcan0 7E9#26006300630063FF
(1768226066.916336) slcan0 7E9#27FF011710000014
(1768226066.923435) slcan0 7E9#280331032E466100
(1768226066.924172) slcan0 7E9#29000028000000FF
(1768226066.926392) slcan0 7E9#2A000000FFFF0FFF
(1768226066.930330) slcan0 7E9#2B0FFF0000FFFF00
(1768226066.933033) slcan0 7E9#2C0A0900FF000000
(1768226066.934343) slcan0 7E9#2DFFFFFFFFFF1AAC
(1768226066.936352) slcan0 7E9#2EFF80CC03E30331
(1768226066.940182) slcan0 7E9#2FFFFF000000FFFF
(1768226066.942525) slcan0 7E9#20FFFFFFFFFF00FF
(1768226066.944425) slcan0 7E9#2100FF0000454000
(1768226066.946696) slcan0 7E9#2200FF10FFFF0000
(1768226067.031671) slcan0 7E1#0221050000000000
(1768226067.034345) slcan0 7E9#1082610516440000
(1768226067.034672) slcan0 7E1#3000000000000000
(1768226067.039657) slcan0 7E9#2128388B02C910BE
(1768226067.040334) slcan0 7E9#22FFFFFFFFFF031F
(1768226067.042426) slcan0 7E9#23006400640064FF
(1768226067.044250) slcan0 7E9#2400640064FFFF00
(1768226067.046239) slcan0 7E9#25031D00630063FF
(1768226067.051109) slcan0 7E9#26006300630062FF
(1768226067.053167) slcan0 7E9#27FF011722000014
(1768226067.054165) slcan0 7E9#28032E032D466100
(1768226067.056284) slcan0 7E9#29000028000009FF
(1768226067.061031) slcan0 7E9#2A000000FFFF0FFF
(1768226067.062368) slcan0 7E9#2B0FFF0000FFFF00
(1768226067.064185) slcan0 7E9#2C0A0900FF000000
(1768226067.066209) slcan0 7E9#2DFFFFFFFFFF1AAC
(1768226067.070447) slcan0 7E9#2EFF80DE03E3032D
(1768226067.072800) slcan0 7E9#2FFFFF000000FFFF
(1768226067.074164) slcan0 7E9#20FFFFFFFFFF00FF
(1768226067.076206) slcan0 7E9#2100FF0000454000
(1768226067.080237) slcan0 7E9#2200FF10FFFF0000
(1768226067.177599) slcan0 7E1#0221050000000000
(1768226067.182503) slcan0 7E9#10826105163C0000
(1768226067.182691) slcan0 7E1#3000000000000000
(1768226067.186336) slcan0 7E9#2128386302C910BE
(1768226067.189936) slcan0 7E9#22FFFFFFFFFF031F
(1768226067.190366) slcan0 7E9#23006400640064FF
(1768226067.192973) slcan0 7E9#2400640064FFFF00
(1768226067.194409) slcan0 7E9#25032100630063FF
(1768226067.196375) slcan0 7E9#26006300630064FF
(1768226067.201272) slcan0 7E9#27FF011710000014
(1768226067.203011) slcan0 7E9#280330032E466100
(1768226067.204441) slcan0 7E9#29000028000044FF
(1768226067.206465) slcan0 7E9#2A000000FFFF0FFF
(1768226067.209882) slcan0 7E9#2B0FFF0000FFFF00
(1768226067.210394) slcan0 7E9#2C0A0900FF000000
(1768226067.212996) slcan0 7E9#2DFFFFFFFFFF1AAC
(1768226067.214364) slcan0 7E9#2EFF80D403E30330
(1768226067.216407) slcan0 7E9#2FFFFF000000FFFF
(1768226067.223203) slcan0 7E9#20FFFFFFFFFF00FF
(1768226067.224385) slcan0 7E9#2100FF0000454000
(1768226067.226373) slcan0 7E9#2200FF10FFFF0000
(1768226067.307714) slcan0 7E1#0221050000000000
(1768226067.312972) slcan0 7E9#10826105162C0000
(1768226067.313233) slcan0 7E1#3000000000000000
(1768226067.316404) slcan0 7E9#212838A402C910C3
(1768226067.324263) slcan0 7E9#22FFFFFFFFFF031F
(1768226067.326361) slcan0 7E9#23006400640064FF
(1768226067.330291) slcan0 7E9#2400640064FFFF00
(1768226067.332993) slcan0 7E9#25031A00630062FF
(1768226067.334265) slcan0 7E9#26006200630063FF
(1768226067.336343) slcan0 7E9#27FF011702000014
(1768226067.339513) slcan0 7E9#280332032E466100
(1768226067.340450) slcan0 7E9#29000028000030FF
(1768226067.342553) slcan0 7E9#2A000000FFFF0FFF
(1768226067.344295) slcan0 7E9#2B0FFF0000FFFF00
(1768226067.346433) slcan0 7E9#2C0A0900FF000000
(1768226067.351351) slcan0 7E9#2DFFFFFFFFFF1AAC
(1768226067.353216) slcan0 7E9#2EFF80D603E30332
(1768226067.354299) slcan0 7E9#2FFFFF000000FFFF
(1768226067.356389) slcan0 7E9#20FFFFFFFFFF00FF
(1768226067.360854) slcan0 7E9#2100FF0000454000
(1768226067.363184) slcan0 7E9#2200FF10FFFF0000
(1768226067.456787) slcan0 7E1#0221050000000000
(1768226067.462459) slcan0 7E9#1082610516240000
(1768226067.462871) slcan0 7E1#3000000000000000
(1768226067.466360) slcan0 7E9#2128380D02C910BE
(1768226067.470157) slcan0 7E9#22FFFFFFFFFF031F
(1768226067.472956) slcan0 7E9#23006400640064FF
(1768226067.474224) slcan0 7E9#2400640064FFFF00
(1768226067.476259) slcan0 7E9#25031D00630063FF
(1768226067.479879) slcan0 7E9#26006300630063FF
(1768226067.480207) slcan0 7E9#27FF0116FE000014
(1768226067.482793) slcan0 7E9#280332032F466100
(1768226067.484263) slcan0 7E9#29000028000058FF
(1768226067.486375) slcan0 7E9#2A000000FFFF0FFF
(1768226067.489833) slcan0 7E9#2B0FFF0000FFFF00
(1768226067.490347) slcan0 7E9#2C0A0900FF000000
(1768226067.492990) slcan0 7E9#2DFFFFFFFFFF1AAC
(1768226067.494368) slcan0 7E9#2EFF80DA03E30331
(1768226067.496369) slcan0 7E9#2FFFFF000000FFFF
(1768226067.499765) slcan0 7E9#20FFFFFFFFFF00FF
(1768226067.500424) slcan0 7E9#2100FF0000454000
(1768226067.504290) slcan0 7E9#2200FF10FFFF0000
(1768226067.612639) slcan0 7E1#0221050000000000
(1768226067.623699) slcan0 7E9#10826105162C0000
(1768226067.623914) slcan0 7E1#3000000000000000
(1768226067.626255) slcan0 7E9#212838BB02C910BE
(1768226067.630430) slcan0 7E9#22FFFFFFFFFF031F
(1768226067.632970) slcan0 7E9#23006400640064FF
(1768226067.634179) slcan0 7E9#2400640064FFFF00
(1768226067.636136) slcan0 7E9#25031C00630063FF
(1768226067.639567) slcan0 7E9#26006300630063FF
(1768226067.640227) slcan0 7E9#27FF01170A000014
(1768226067.642785) slcan0 7E9#280332032F466100
(1768226067.644169) slcan0 7E9#2900002800001DFF
(1768226067.646207) slcan0 7E9#2A000000FFFF0FFF
(1768226067.651027) slcan0 7E9#2B0FFF0000FFFF00
(1768226067.653179) slcan0 7E9#2C0A0900FF000000
(1768226067.654173) slcan0 7E9#2DFFFFFFFFFF1AAC
(1768226067.656157) slcan0 7E9#2EFF80DE03E30331
(1768226067.660722) slcan0 7E9#2FFFFF000000FFFF
(1768226067.663004) slcan0 7E9#20FFFFFFFFFF00FF
(1768226067.664132) slcan0 7E9#2100FF0000454000
(1768226067.666157) slcan0 7E9#2200FF10FFFF0000
(1768226067.755751) slcan0 7E1#0221050000000000
(1768226067.760576) slcan0 7E9#1082610516380000
(1768226067.760726) slcan0 7E1#3000000000000000
(1768226067.764364) slcan0 7E9#2128384902C910BE
(1768226067.766475) slcan0 7E9#22FFFFFFFFFF031F
(1768226067.770238) slcan0 7E9#23006400640064FF
(1768226067.773121) slcan0 7E9#2400640064FFFF00
(1768226067.774384) slcan0 7E9#25031F00630063FF
(1768226067.776353) slcan0 7E9#26006300630062FF
(1768226067.779837) slcan0 7E9#27FF011714000014
(1768226067.780269) slcan0 7E9#28032F032E466100
(1768226067.782576) slcan0 7E9#29000028000030FF
(1768226067.784487) slcan0 7E9#2A000000FFFF0FFF
(1768226067.786396) slcan0 7E9#2B0FFF0000FFFF00
(1768226067.789946) slcan0 7E9#2C0A0900FF000000
(1768226067.790408) slcan0 7E9#2DFFFFFFFFFF1AAC
(1768226067.793147) slcan0 7E9#2EFF80DC03E3032E
(1768226067.794429) slcan0 7E9#2FFFFF000000FFFF
(1768226067.796500) slcan0 7E9#20FFFFFFFFFF00FF
(1768226067.799755) slcan0 7E9#2100FF0000454000
(1768226067.800449) slcan0 7E9#2200FF10FFFF0000
(1768226067.877763) slcan0 7E1#0221050000000000
(1768226067.882601) slcan0 7E9#1082610516400000
(1768226067.882850) slcan0 7E1#3000000000000000
(1768226067.886364) slcan0 7E9#2128386302C910BE
(1768226067.889622) slcan0 7E9#22FFFFFFFFFF031F
(1768226067.890344) slcan0 7E9#23006400640064FF
(1768226067.893048) slcan0 7E9#2400640064FFFF00
(1768226067.894177) slcan0 7E9#25031F00630063FF
(1768226067.896159) slcan0 7E9#26006300630064FF
(1768226067.899915) slcan0 7E9#27FF011712000014
(1768226067.900235) slcan0 7E9#280332032E466100
(1768226067.902459) slcan0 7E9#2900002800001DFF
(1768226067.904629) slcan0 7E9#2A000000FFFF0FFF
(1768226067.906281) slcan0 7E9#2B0FFF0000FFFF00
(1768226067.910142) slcan0 7E9#2C0A0900FF000000
(1768226067.912976) slcan0 7E9#2DFFFFFFFFFF1AAC
