(1768226002.410719) slcan0 7E0#0221000000000000
(1768226002.417569) slcan0 7E8#10D2610000076100
(1768226002.417754) slcan0 7E0#3000000000000000
(1768226002.424569) slcan0 7E8#21FFFFFFFF35FFFF
(1768226002.425171) slcan0 7E8#22FFFFFFFF02FF84
(1768226002.427364) slcan0 7E8#2378FFFF7CFF0816
(1768226002.432393) slcan0 7E8#24FFFF810124012C
(1768226002.433138) slcan0 7E8#25FFFF3716EEBC01
(1768226002.435158) slcan0 7E8#26DD002A41206100
(1768226002.437118) slcan0 7E8#27FF0C027CFFFFFF
(1768226002.441849) slcan0 7E8#28FFFFFFFFFF6E2A
(1768226002.443137) slcan0 7E8#29D52613001516FF
(1768226002.445176) slcan0 7E8#2AFFFFFFFFFFFFFF
(1768226002.447570) slcan0 7E8#2B26FFFFFFFFFFFF
(1768226002.454767) slcan0 7E8#2CFFFFFFFFFFFFFF
(1768226002.455159) slcan0 7E8#2DFFFFFFFFFFFFFF
(1768226002.457324) slcan0 7E8#2EFFFF37C56437FF
(1768226002.463025) slcan0 7E8#2FFFFFFFFF09FFFF
(1768226002.465194) slcan0 7E8#20FFFFFFFFFFFF19
(1768226002.467412) slcan0 7E8#2100FFFFFFFFA900
(1768226002.472951) slcan0 7E8#22FF00FF01FFFFFF
(1768226002.475199) slcan0 7E8#23FFFF008800FF02
(1768226002.477199) slcan0 7E8#2401FFFF00FFFFFF
(1768226002.482100) slcan0 7E8#251724FF61FFFFFF
(1768226002.483263) slcan0 7E8#26FFFFFFFFFFFFFF
(1768226002.485237) slcan0 7E8#27FFFFFFFFFFFFFF
(1768226002.487425) slcan0 7E8#28FFFFFFFFFFFFFF
(1768226002.491928) slcan0 7E8#29FFFFFFFFFFFFFF
(1768226002.493247) slcan0 7E8#2AFFFFFFFFFFFFFF
(1768226002.495268) slcan0 7E8#2BFFFFFFFFFFFFFF
(1768226002.497195) slcan0 7E8#2CFFFFFFFFFFFFFF
(1768226002.502613) slcan0 7E8#2DFFFFFFFFFFFFFF
(1768226002.503253) slcan0 7E8#2EFF000000000000
(1768226002.602641) slcan0 7E0#0221500000000000
(1768226002.607356) slcan0 7E8#037F211200000000
(1768226002.736782) slcan0 7E0#0221510000000000
(1768226002.747413) slcan0 7E8#037F211200000000
(1768226002.857598) slcan0 7E0#0221520000000000
(1768226002.867472) slcan0 7E8#037F211200000000
(1768226002.996527) slcan0 7E0#0221530000000000
(1768226003.007566) slcan0 7E8#037F211200000000
(1768226003.087400) slcan0 7E0#0221550000000000
(1768226003.097187) slcan0 7E8#037F211200000000
(1768226003.210605) slcan0 7E0#0221700000000000
(1768226003.217330) slcan0 7E8#037F211200000000
(1768226003.295376) slcan0 7E0#0221710000000000
(1768226003.297206) slcan0 7E8#037F211200000000
(1768226003.374456) slcan0 7E0#0221900000000000
(1768226003.377289) slcan0 7E8#106D619021036B0B
(1768226003.377535) slcan0 7E0#3000000000000000
(1768226003.381717) slcan0 7E8#21E50BACDD000900
(1768226003.383142) slcan0 7E8#2202254017200AC0
(1768226003.385138) slcan0 7E8#2300224100000017
(1768226003.387177) slcan0 7E8#242A023E232500FF
(1768226003.391979) slcan0 7E8#25FFFFFF38080003
(1768226003.393226) slcan0 7E8#2600482200002855
(1768226003.395190) slcan0 7E8#27424000008408C5
(1768226003.397224) slcan0 7E8#2868020B29037D04
(1768226003.401647) slcan0 7E8#292B07EB0248018B
(1768226003.403190) slcan0 7E8#2A05837E649A7B14
(1768226003.405803) slcan0 7E8#2BFFFFFFFFFFFFFF
(1768226003.407123) slcan0 7E8#2CFFFFFFFFFFFFFF
(1768226003.412047) slcan0 7E8#2DFFFFFFFFFFFFFF
(1768226003.413129) slcan0 7E8#2EFFFFFFFFFFFFFF
(1768226003.415025) slcan0 7E8#2FFFFFFFFFFF0000
(1768226003.517402) slcan0 7E0#0221000000000000
(1768226003.527495) slcan0 7E8#10D2610000076100
(1768226003.527847) slcan0 7E0#3000000000000000
(1768226003.533232) slcan0 7E8#21FFFFFFFF35FFFF
(1768226003.535184) slcan0 7E8#22FFFFFFFF02FF85
(1768226003.537136) slcan0 7E8#2378FFFF7DFF0827
(1768226003.541780) slcan0 7E8#24FFFF810128012C
(1768226003.543150) slcan0 7E8#25FFFF35172ABC01
(1768226003.545172) slcan0 7E8#26E0002A41206100
(1768226003.547461) slcan0 7E8#27FF0C037DFFFFFF
(1768226003.554986) slcan0 7E8#28FFFFFFFFFF6E2A
(1768226003.557376) slcan0 7E8#29D42613001616FF
(1768226003.562491) slcan0 7E8#2AFFFFFFFFFFFFFF
(1768226003.563131) slcan0 7E8#2B29FFFFFFFFFFFF
(1768226003.565456) slcan0 7E8#2CFFFFFFFFFFFFFF
(1768226003.567639) slcan0 7E8#2DFFFFFFFFFFFFFF
(1768226003.572414) slcan0 7E8#2EFFFF380B6537FF
(1768226003.573211) slcan0 7E8#2FFFFFFFFF09FFFF
(1768226003.575178) slcan0 7E8#20FFFFFFFFFFFF19
(1768226003.577232) slcan0 7E8#2100FFFFFFFFA900
(1768226003.581824) slcan0 7E8#22FF00FF01FFFFFF
(1768226003.583112) slcan0 7E8#23FFFF008800FF02
(1768226003.585155) slcan0 7E8#2401FFFF00FFFFFF
(1768226003.587091) slcan0 7E8#251624FF61FFFFFF
(1768226003.592441) slcan0 7E8#26FFFFFFFFFFFFFF
(1768226003.593589) slcan0 7E8#27FFFFFFFFFFFFFF
(1768226003.595219) slcan0 7E8#28FFFFFFFFFFFFFF
(1768226003.597206) slcan0 7E8#29FFFFFFFFFFFFFF
(1768226003.601734) slcan0 7E8#2AFFFFFFFFFFFFFF
(1768226003.603225) slcan0 7E8#2BFFFFFFFFFFFFFF
(1768226003.606368) slcan0 7E8#2CFFFFFFFFFFFFFF
(1768226003.607588) slcan0 7E8#2DFFFFFFFFFFFFFF
(1768226003.612406) slcan0 7E8#2EFF000000000000
(1768226003.703298) slcan0 7E0#0221000000000000
(1768226003.707516) slcan0 7E8#10D2610000076100
(1768226003.707713) slcan0 7E0#3000000000000000
(1768226003.709185) slcan0 7E8#21FFFFFFFF35FFFF
(1768226003.712827) slcan0 7E8#22FFFFFFFF02FF86
(1768226003.713143) slcan0 7E8#2378FFFF7EFF0844
(1768226003.715154) slcan0 7E8#24FFFF800119012C
(1768226003.717222) slcan0 7E8#25FFFF361732BC01
(1768226003.725859) slcan0 7E8#26D8002A41206100
(1768226003.727395) slcan0 7E8#27FF0C027CFFFFFF
(1768226003.732821) slcan0 7E8#28FFFFFFFFFF6F2A
(1768226003.733002) slcan0 7E8#29D52613001616FF
(1768226003.735145) slcan0 7E8#2AFFFFFFFFFFFFFF
(1768226003.737258) slcan0 7E8#2B29FFFFFFFFFFFF
(1768226003.741835) slcan0 7E8#2CFFFFFFFFFFFFFF
(1768226003.743320) slcan0 7E8#2DFFFFFFFFFFFFFF
(1768226003.745231) slcan0 7E8#2EFFFF37AD6537FF
(1768226003.747487) slcan0 7E8#2FFFFFFFFF09FFFF
(1768226003.755240) slcan0 7E8#20FFFFFFFFFFFF19
(1768226003.757454) slcan0 7E8#2100FFFFFFFFA900
(1768226003.762779) slcan0 7E8#22FF00FF01FFFFFF
(1768226003.763254) slcan0 7E8#23FFFF008800FF02
(1768226003.765288) slcan0 7E8#2401FFFF00FFFFFF
(1768226003.767520) slcan0 7E8#251824FF61FFFFFF
(1768226003.772601) slcan0 7E8#26FFFFFFFFFFFFFF
(1768226003.773240) slcan0 7E8#27FFFFFFFFFFFFFF
(1768226003.775131) slcan0 7E8#28FFFFFFFFFFFFFF
(1768226003.777168) slcan0 7E8#29FFFFFFFFFFFFFF
(1768226003.782149) slcan0 7E8#2AFFFFFFFFFFFFFF
(1768226003.783133) slcan0 7E8#2BFFFFFFFFFFFFFF
(1768226003.785608) slcan0 7E8#2CFFFFFFFFFFFFFF
(1768226003.787277) slcan0 7E8#2DFFFFFFFFFFFFFF
(1768226003.792217) slcan0 7E8#2EFF000000000000
(1768226003.888374) slcan0 7E0#0418000000000000
(1768226003.897261) slcan0 7E8#037F181200000000
(1768226003.981369) slcan0 7E0#0418004000000000
(1768226003.987321) slcan0 7E8#037F181200000000
(1768226004.073053) slcan0 7E0#0418008000000000
(1768226004.077280) slcan0 7E8#037F181200000000
(1768226004.164379) slcan0 7E0#041800C000000000
(1768226004.167398) slcan0 7E8#037F181200000000
(1768226004.240322) slcan0 7E0#041800FF00000000
(1768226004.247407) slcan0 7E8#0258000000000000
(1768226004.335283) slcan0 7E0#041800FFFF000000
(1768226004.337143) slcan0 7E8#037F181200000000
(1768226004.441094) slcan0 7E0#0221000000000000
(1768226004.447450) slcan0 7E8#10D2610000076100
(1768226004.447724) slcan0 7E0#3000000000000000
(1768226004.448986) slcan0 7E8#21FFFFFFFF35FFFF
(1768226004.455847) slcan0 7E8#22FFFFFFFF02FF83
(1768226004.457032) slcan0 7E8#2378FFFF7BFF07F0
(1768226004.462714) slcan0 7E8#24FFFF7E0125012C
(1768226004.462994) slcan0 7E8#25FFFF371712BC01
(1768226004.465092) slcan0 7E8#26E8002A41206100
(1768226004.467345) slcan0 7E8#27FF0C027DFFFFFF
(1768226004.472774) slcan0 7E8#28FFFFFFFFFF6E2A
(1768226004.472983) slcan0 7E8#29D52613001616FF
(1768226004.475147) slcan0 7E8#2AFFFFFFFFFFFFFF
(1768226004.477236) slcan0 7E8#2BA3FFFFFFFFFFFF
(1768226004.482056) slcan0 7E8#2CFFFFFFFFFFFFFF
(1768226004.483103) slcan0 7E8#2DFFFFFFFFFFFFFF
(1768226004.485013) slcan0 7E8#2EFFFF37086537FF
(1768226004.487186) slcan0 7E8#2FFFFFFFFF09FFFF
(1768226004.492271) slcan0 7E8#20FFFFFFFFFFFF19
(1768226004.493093) slcan0 7E8#2100FFFFFFFFA900
(1768226004.495051) slcan0 7E8#22FF00FF01FFFFFF
(1768226004.497118) slcan0 7E8#23FFFF008800FF02
(1768226004.501532) slcan0 7E8#2401FFFF00FFFFFF
(1768226004.503110) slcan0 7E8#251724FF61FFFFFF
(1768226004.505112) slcan0 7E8#26FFFFFFFFFFFFFF
(1768226004.507090) slcan0 7E8#27FFFFFFFFFFFFFF
(1768226004.514599) slcan0 7E8#28FFFFFFFFFFFFFF
(1768226004.515079) slcan0 7E8#29FFFFFFFFFFFFFF
(1768226004.517111) slcan0 7E8#2AFFFFFFFFFFFFFF
(1768226004.524798) slcan0 7E8#2BFFFFFFFFFFFFFF
(1768226004.527039) slcan0 7E8#2CFFFFFFFFFFFFFF
(1768226004.532646) slcan0 7E8#2DFFFFFFFFFFFFFF
(1768226004.533098) slcan0 7E8#2EFF000000000000
(1768226004.638128) slcan0 7E0#0221000000000000
(1768226004.647589) slcan0 7E8#10D2610000076100
(1768226004.647641) slcan0 7E0#3000000000000000
(1768226004.655541) slcan0 7E8#21FFFFFFFF35FFFF
(1768226004.657127) slcan0 7E8#22FFFFFFFF02FF82
(1768226004.662407) slcan0 7E8#2378FFFF7AFF07F2
(1768226004.663099) slcan0 7E8#24FFFF800119012C
(1768226004.664960) slcan0 7E8#25FFFF361724BC01
(1768226004.666960) slcan0 7E8#26DD002A41206100
(1768226004.673141) slcan0 7E8#27FF0C037CFFFFFF
(1768226004.675103) slcan0 7E8#28FFFFFFFFFF6E2A
(1768226004.676961) slcan0 7E8#29D52613001616FF
(1768226004.681798) slcan0 7E8#2AFFFFFFFFFFFFFF
(1768226004.682992) slcan0 7E8#2BA0FFFFFFFFFFFF
(1768226004.684964) slcan0 7E8#2CFFFFFFFFFFFFFF
(1768226004.687108) slcan0 7E8#2DFFFFFFFFFFFFFF
(1768226004.692852) slcan0 7E8#2EFFFF37C56537FF
(1768226004.695213) slcan0 7E8#2FFFFFFFFF09FFFF
(1768226004.697099) slcan0 7E8#20FFFFFFFFFFFF19
(1768226004.701846) slcan0 7E8#2100FFFFFFFFA900
(1768226004.703099) slcan0 7E8#22FF00FF01FFFFFF
(1768226004.705105) slcan0 7E8#23FFFF008800FF02
(1768226004.707125) slcan0 7E8#2401FFFF00FFFFFF
(1768226004.714824) slcan0 7E8#251824FF61FFFFFF
(1768226004.715096) slcan0 7E8#26FFFFFFFFFFFFFF
(1768226004.716986) slcan0 7E8#27FFFFFFFFFFFFFF
(1768226004.724754) slcan0 7E8#28FFFFFFFFFFFFFF
(1768226004.725004) slcan0 7E8#29FFFFFFFFFFFFFF
(1768226004.727083) slcan0 7E8#2AFFFFFFFFFFFFFF
(1768226004.732746) slcan0 7E8#2BFFFFFFFFFFFFFF
(1768226004.732980) slcan0 7E8#2CFFFFFFFFFFFFFF
(1768226004.735082) slcan0 7E8#2DFFFFFFFFFFFFFF
(1768226004.737086) slcan0 7E8#2EFF000000000000
(1768226004.837937) slcan0 7E0#0221000000000000
(1768226004.847402) slcan0 7E8#10D2610000076100
(1768226004.847752) slcan0 7E0#3000000000000000
(1768226004.855464) slcan0 7E8#21FFFFFFFF35FFFF
(1768226004.857010) slcan0 7E8#22FFFFFFFF02FF81
(1768226004.862813) slcan0 7E8#2378FFFF79FF07AE
(1768226004.862951) slcan0 7E8#24FFFF800129012C
(1768226004.865457) slcan0 7E8#25FFFF361716BC01
(1768226004.867418) slcan0 7E8#26E0002A41206100
(1768226004.874948) slcan0 7E8#27FF0C037DFFFFFF
(1768226004.877182) slcan0 7E8#28FFFFFFFFFF6E2A
(1768226004.881876) slcan0 7E8#29D52613001616FF
(1768226004.883051) slcan0 7E8#2AFFFFFFFFFFFFFF
(1768226004.885051) slcan0 7E8#2B3CFFFFFFFFFFFF
(1768226004.887174) slcan0 7E8#2CFFFFFFFFFFFFFF
(1768226004.892464) slcan0 7E8#2DFFFFFFFFFFFFFF
(1768226004.893073) slcan0 7E8#2EFFFF380B6537FF
(1768226004.895083) slcan0 7E8#2FFFFFFFFF09FFFF
(1768226004.896995) slcan0 7E8#20FFFFFFFFFFFF19
(1768226004.901569) slcan0 7E8#2100FFFFFFFFA900
(1768226004.902984) slcan0 7E8#22FF00FF01FFFFFF
(1768226004.905019) slcan0 7E8#23FFFF008800FF02
(1768226004.907011) slcan0 7E8#2401FFFF00FFFFFF
(1768226004.914762) slcan0 7E8#251624FF61FFFFFF
(1768226004.915201) slcan0 7E8#26FFFFFFFFFFFFFF
(1768226004.917203) slcan0 7E8#27FFFFFFFFFFFFFF
(1768226004.924833) slcan0 7E8#28FFFFFFFFFFFFFF
(1768226004.924927) slcan0 7E8#29FFFFFFFFFFFFFF
(1768226004.927060) slcan0 7E8#2AFFFFFFFFFFFFFF
(1768226004.934618) slcan0 7E8#2BFFFFFFFFFFFFFF
(1768226004.935208) slcan0 7E8#2CFFFFFFFFFFFFFF
(1768226004.937208) slcan0 7E8#2DFFFFFFFFFFFFFF
(1768226004.942116) slcan0 7E8#2EFF000000000000
(1768226005.063974) slcan0 7E0#0221000000000000
(1768226005.067330) slcan0 7E8#10D2610000076100
(1768226005.067754) slcan0 7E0#3000000000000000
(1768226005.069176) slcan0 7E8#21FFFFFFFF35FFFF
(1768226005.074511) slcan0 7E8#22FFFFFFFF02FF84
(1768226005.075096) slcan0 7E8#2378FFFF7CFF081B
(1768226005.076976) slcan0 7E8#24FFFF800126012C
(1768226005.081951) slcan0 7E8#25FFFF3816EEBC01
(1768226005.082938) slcan0 7E8#26F1002A41206100
(1768226005.084942) slcan0 7E8#27FF0C027DFFFFFF
(1768226005.087079) slcan0 7E8#28FFFFFFFFFF6E2A
(1768226005.092185) slcan0 7E8#29D52613001516FF
(1768226005.093075) slcan0 7E8#2AFFFFFFFFFFFFFF
(1768226005.095065) slcan0 7E8#2B28FFFFFFFFFFFF
(1768226005.097061) slcan0 7E8#2CFFFFFFFFFFFFFF
(1768226005.101570) slcan0 7E8#2DFFFFFFFFFFFFFF
(1768226005.102978) slcan0 7E8#2EFFFF37956437FF
(1768226005.105080) slcan0 7E8#2FFFFFFFFF09FFFF
(1768226005.107072) slcan0 7E8#20FFFFFFFFFFFF19
(1768226005.115266) slcan0 7E8#2100FFFFFFFFA900
(1768226005.117069) slcan0 7E8#22FF00FF01FFFFFF
(1768226005.124803) slcan0 7E8#23FFFF008800FF02
(1768226005.126947) slcan0 7E8#2401FFFF00FFFFFF
(1768226005.132898) slcan0 7E8#251724FF61FFFFFF
(1768226005.135084) slcan0 7E8#26FFFFFFFFFFFFFF
(1768226005.137064) slcan0 7E8#27FFFFFFFFFFFFFF
(1768226005.141721) slcan0 7E8#28FFFFFFFFFFFFFF
(1768226005.143085) slcan0 7E8#29FFFFFFFFFFFFFF
(1768226005.145004) slcan0 7E8#2AFFFFFFFFFFFFFF
(1768226005.147064) slcan0 7E8#2BFFFFFFFFFFFFFF
(1768226005.155074) slcan0 7E8#2CFFFFFFFFFFFFFF
(1768226005.157200) slcan0 7E8#2DFFFFFFFFFFFFFF
(1768226005.162852) slcan0 7E8#2EFF000000000000
(1768226005.249049) slcan0 7E0#0221000000000000
(1768226005.257503) slcan0 7E8#10D2610000076100
(1768226005.257770) slcan0 7E0#3000000000000000
(1768226005.263191) slcan0 7E8#21FFFFFFFF35FFFF
(1768226005.265200) slcan0 7E8#22FFFFFFFF02FF85
(1768226005.267184) slcan0 7E8#2378FFFF7DFF086B
(1768226005.272753) slcan0 7E8#24FFFF800129012C
(1768226005.273236) slcan0 7E8#25FFFF3716E0BC01
(1768226005.275294) slcan0 7E8#26E3002A41206100
(1768226005.277251) slcan0 7E8#27FF0C037CFFFFFF
(1768226005.282034) slcan0 7E8#28FFFFFFFFFF6D2A
(1768226005.283182) slcan0 7E8#29D52613001515FF
(1768226005.285028) slcan0 7E8#2AFFFFFFFFFFFFFF
(1768226005.287290) slcan0 7E8#2B29FFFFFFFFFFFF
(1768226005.292977) slcan0 7E8#2CFFFFFFFFFFFFFF
(1768226005.295203) slcan0 7E8#2DFFFFFFFFFFFFFF
(1768226005.297332) slcan0 7E8#2EFFFF37DC6537FF
(1768226005.301663) slcan0 7E8#2FFFFFFFFF09FFFF
(1768226005.303245) slcan0 7E8#20FFFFFFFFFFFF19
(1768226005.305052) slcan0 7E8#2100FFFFFFFFA900
(1768226005.307244) slcan0 7E8#22FF00FF01FFFFFF
(1768226005.314773) slcan0 7E8#23FFFF008800FF02
(1768226005.315096) slcan0 7E8#2401FFFF00FFFFFF
(1768226005.317140) slcan0 7E8#251724FF61FFFFFF
(1768226005.324785) slcan0 7E8#26FFFFFFFFFFFFFF
(1768226005.325073) slcan0 7E8#27FFFFFFFFFFFFFF
(1768226005.327162) slcan0 7E8#28FFFFFFFFFFFFFF
(1768226005.332601) slcan0 7E8#29FFFFFFFFFFFFFF
(1768226005.333190) slcan0 7E8#2AFFFFFFFFFFFFFF
(1768226005.335163) slcan0 7E8#2BFFFFFFFFFFFFFF
(1768226005.337017) slcan0 7E8#2CFFFFFFFFFFFFFF
(1768226005.341839) slcan0 7E8#2DFFFFFFFFFFFFFF
(1768226005.343070) slcan0 7E8#2EFF000000000000
(1768226005.486877) slcan0 7E0#0221000000000000
(1768226005.497437) slcan0 7E8#10D2610000076100
(1768226005.497609) slcan0 7E0#3000000000000000
(1768226005.501828) slcan0 7E8#21FFFFFFFF35FFFF
(1768226005.503050) slcan0 7E8#22FFFFFFFF02FF86
(1768226005.505142) slcan0 7E8#2378FFFF7EFF07D3
(1768226005.507070) slcan0 7E8#24FFFF830123012C
(1768226005.512664) slcan0 7E8#25FFFF3516FCBC01
(1768226005.512976) slcan0 7E8#26CA002A41206100
(1768226005.515343) slcan0 7E8#27FF0C027DFFFFFF
(1768226005.517037) slcan0 7E8#28FFFFFFFFFF6E2A
(1768226005.524671) slcan0 7E8#29D52613001516FF
(1768226005.524940) slcan0 7E8#2AFFFFFFFFFFFFFF
(1768226005.527097) slcan0 7E8#2B5EFFFFFFFFFFFF
(1768226005.532760) slcan0 7E8#2CFFFFFFFFFFFFFF
(1768226005.534803) slcan0 7E8#2DFFFFFFFFFFFFFF
(1768226005.535047) slcan0 7E8#2EFFFF380B6537FF
(1768226005.537177) slcan0 7E8#2FFFFFFFFF09FFFF
(1768226005.541878) slcan0 7E8#20FFFFFFFFFFFF19
(1768226005.543161) slcan0 7E8#2100FFFFFFFFA900
(1768226005.545061) slcan0 7E8#22FF00FF01FFFFFF
(1768226005.547167) slcan0 7E8#23FFFF008800FF02
(1768226005.555485) slcan0 7E8#2401FFFF00FFFFFF
(1768226005.557130) slcan0 7E8#251724FF61FFFFFF
(1768226005.562498) slcan0 7E8#26FFFFFFFFFFFFFF
(1768226005.563032) slcan0 7E8#27FFFFFFFFFFFFFF
(1768226005.565050) slcan0 7E8#28FFFFFFFFFFFFFF
(1768226005.567217) slcan0 7E8#29FFFFFFFFFFFFFF
(1768226005.572879) slcan0 7E8#2AFFFFFFFFFFFFFF
(1768226005.575162) slcan0 7E8#2BFFFFFFFFFFFFFF
(1768226005.577001) slcan0 7E8#2CFFFFFFFFFFFFFF
(1768226005.581997) slcan0 7E8#2DFFFFFFFFFFFFFF
(1768226005.583061) slcan0 7E8#2EFF000000000000
(1768226005.679983) slcan0 7E0#0221000000000000
(1768226005.687501) slcan0 7E8#10D2610000076100
(1768226005.687715) slcan0 7E0#3000000000000000
(1768226005.692270) slcan0 7E8#21FFFFFFFF35FFFF
(1768226005.693208) slcan0 7E8#22FFFFFFFF02FF83
(1768226005.695041) slcan0 7E8#2378FFFF7BFF0815
(1768226005.697040) slcan0 7E8#24FFFF81011E012C
(1768226005.701723) slcan0 7E8#25FFFF3616FABC01
(1768226005.702966) slcan0 7E8#26DA002941206100
(1768226005.705255) slcan0 7E8#27FF0C037CFFFFFF
(1768226005.707052) slcan0 7E8#28FFFFFFFFFF6E2A
(1768226005.712743) slcan0 7E8#29D52613001516FF
(1768226005.713016) slcan0 7E8#2AFFFFFFFFFFFFFF
(1768226005.716060) slcan0 7E8#2BA2FFFFFFFFFFFF
(1768226005.717047) slcan0 7E8#2CFFFFFFFFFFFFFF
(1768226005.724905) slcan0 7E8#2DFFFFFFFFFFFFFF
(1768226005.726918) slcan0 7E8#2EFFFF37C56537FF
(1768226005.732460) slcan0 7E8#2FFFFFFFFF09FFFF
(1768226005.732944) slcan0 7E8#20FFFFFFFFFFFF19
(1768226005.734915) slcan0 7E8#2100FFFFFFFFA900
(1768226005.736959) slcan0 7E8#22FF00FF01FFFFFF
(1768226005.741619) slcan0 7E8#23FFFF008800FF02
(1768226005.743102) slcan0 7E8#2401FFFF00FFFFFF
(1768226005.744998) slcan0 7E8#251724FF61FFFFFF
(1768226005.747117) slcan0 7E8#26FFFFFFFFFFFFFF
(1768226005.754712) slcan0 7E8#27FFFFFFFFFFFFFF
(1768226005.755060) slcan0 7E8#28FFFFFFFFFFFFFF
(1768226005.756979) slcan0 7E8#29FFFFFFFFFFFFFF
(1768226005.762806) slcan0 7E8#2AFFFFFFFFFFFFFF
(1768226005.765046) slcan0 7E8#2BFFFFFFFFFFFFFF
(1768226005.767084) slcan0 7E8#2CFFFFFFFFFFFFFF
(1768226005.772821) slcan0 7E8#2DFFFFFFFFFFFFFF
(1768226005.775074) slcan0 7E8#2EFF000000000000
(1768226005.962095) slcan0 7E0#0221000000000000
(1768226005.967498) slcan0 7E8#10D2610000076100
(1768226005.967783) slcan0 7E0#3000000000000000
(1768226005.969154) slcan0 7E8#21FFFFFFFF35FFFF
(1768226005.973292) slcan0 7E8#22FFFFFFFF02FF82
(1768226005.975287) slcan0 7E8#2378FFFF7AFF07E9
(1768226005.977077) slcan0 7E8#24FFFF810129012C
(1768226005.981614) slcan0 7E8#25FFFF351716BC01
(1768226005.982884) slcan0 7E8#26E6002941206100
(1768226005.984933) slcan0 7E8#27FF0C027DFFFFFF
(1768226005.986984) slcan0 7E8#28FFFFFFFFFF6E2A
(1768226005.991970) slcan0 7E8#29D52613001516FF
(1768226005.992945) slcan0 7E8#2AFFFFFFFFFFFFFF
(1768226005.994958) slcan0 7E8#2B9BFFFFFFFFFFFF
(1768226005.996956) slcan0 7E8#2CFFFFFFFFFFFFFF
(1768226006.001754) slcan0 7E8#2DFFFFFFFFFFFFFF
(1768226006.003013) slcan0 7E8#2EFFFF37AD6537FF
(1768226006.005065) slcan0 7E8#2FFFFFFFFF09FFFF
(1768226006.007081) slcan0 7E8#20FFFFFFFFFFFF19
(1768226006.012656) slcan0 7E8#2100FFFFFFFFA900
(1768226006.013018) slcan0 7E8#22FF00FF01FFFFFF
(1768226006.015028) slcan0 7E8#23FFFF008800FF02
(1768226006.017060) slcan0 7E8#2401FFFF00FFFFFF
(1768226006.024516) slcan0 7E8#251624FF61FFFFFF
(1768226006.025119) slcan0 7E8#26FFFFFFFFFFFFFF
(1768226006.027080) slcan0 7E8#27FFFFFFFFFFFFFF
(1768226006.032691) slcan0 7E8#28FFFFFFFFFFFFFF
(1768226006.033016) slcan0 7E8#29FFFFFFFFFFFFFF
(1768226006.034992) slcan0 7E8#2AFFFFFFFFFFFFFF
(1768226006.037077) slcan0 7E8#2BFFFFFFFFFFFFFF
(1768226006.041770) slcan0 7E8#2CFFFFFFFFFFFFFF
(1768226006.043038) slcan0 7E8#2DFFFFFFFFFFFFFF
(1768226006.045037) slcan0 7E8#2EFF000000000000
(1768226006.153119) slcan0 7E0#0221000000000000
(1768226006.157523) slcan0 7E8#10D2610000076100
(1768226006.157832) slcan0 7E0#3000000000000000
(1768226006.162932) slcan0 7E8#21FFFFFFFF35FFFF
(1768226006.163072) slcan0 7E8#22FFFFFFFF02FF81
(1768226006.165175) slcan0 7E8#2378FFFF79FF07C8
(1768226006.167421) slcan0 7E8#24FFFF810128012C
(1768226006.172700) slcan0 7E8#25FFFF371738BC01
(1768226006.172967) slcan0 7E8#26EE002941206100
(1768226006.175057) slcan0 7E8#27FF0C037CFFFFFF
(1768226006.177032) slcan0 7E8#28FFFFFFFFFF6D2A
(1768226006.181783) slcan0 7E8#29D52613001515FF
(1768226006.183089) slcan0 7E8#2AFFFFFFFFFFFFFF
(1768226006.185041) slcan0 7E8#2B7DFFFFFFFFFFFF
(1768226006.187104) slcan0 7E8#2CFFFFFFFFFFFFFF
(1768226006.192475) slcan0 7E8#2DFFFFFFFFFFFFFF
(1768226006.193033) slcan0 7E8#2EFFFF383A6537FF
(1768226006.195011) slcan0 7E8#2FFFFFFFFF09FFFF
(1768226006.197041) slcan0 7E8#20FFFFFFFFFFFF19
(1768226006.201584) slcan0 7E8#2100FFFFFFFFA900
(1768226006.203035) slcan0 7E8#22FF00FF01FFFFFF
(1768226006.205030) slcan0 7E8#23FFFF008800FF02
(1768226006.207034) slcan0 7E8#2401FFFF00FFFFFF
(1768226006.212473) slcan0 7E8#251624FF61FFFFFF
(1768226006.213072) slcan0 7E8#26FFFFFFFFFFFFFF
(1768226006.215066) slcan0 7E8#27FFFFFFFFFFFFFF
(1768226006.217069) slcan0 7E8#28FFFFFFFFFFFFFF
(1768226006.224661) slcan0 7E8#29FFFFFFFFFFFFFF
(1768226006.225026) slcan0 7E8#2AFFFFFFFFFFFFFF
(1768226006.227046) slcan0 7E8#2BFFFFFFFFFFFFFF
(1768226006.232526) slcan0 7E8#2CFFFFFFFFFFFFFF
(1768226006.233007) slcan0 7E8#2DFFFFFFFFFFFFFF
(1768226006.235017) slcan0 7E8#2EFF000000000000
(1768226006.350045) slcan0 7E0#0221000000000000
(1768226006.357431) slcan0 7E8#10D2610000076100
(1768226006.357653) slcan0 7E0#3000000000000000
(1768226006.363042) slcan0 7E8#21FFFFFFFF35FFFF
(1768226006.365030) slcan0 7E8#22FFFFFFFF02FF80
(1768226006.366956) slcan0 7E8#2378FFFF79FF07AA
(1768226006.372803) slcan0 7E8#24FFFF800116012C
(1768226006.374997) slcan0 7E8#25FFFF3716FCBC01
(1768226006.377456) slcan0 7E8#26DD002A41206100
(1768226006.381718) slcan0 7E8#27FF0C027DFFFFFF
(1768226006.382981) slcan0 7E8#28FFFFFFFFFF6D2A
(1768226006.384984) slcan0 7E8#29D52613001516FF
(1768226006.387128) slcan0 7E8#2AFFFFFFFFFFFFFF
(1768226006.392096) slcan0 7E8#2B2FFFFFFFFFFFFF
(1768226006.393107) slcan0 7E8#2CFFFFFFFFFFFFFF
(1768226006.395124) slcan0 7E8#2DFFFFFFFFFFFFFF
(1768226006.397080) slcan0 7E8#2EFFFF36F16337FF
(1768226006.401659) slcan0 7E8#2FFFFFFFFF09FFFF
(1768226006.402990) slcan0 7E8#20FFFFFFFFFFFF19
(1768226006.405000) slcan0 7E8#2100FFFFFFFFA900
(1768226006.407014) slcan0 7E8#22FF00FF01FFFFFF
(1768226006.412656) slcan0 7E8#23FFFF008800FF02
(1768226006.413068) slcan0 7E8#2401FFFF00FFFFFF
(1768226006.415101) slcan0 7E8#251824FF61FFFFFF
(1768226006.417095) slcan0 7E8#26FFFFFFFFFFFFFF
(1768226006.425155) slcan0 7E8#27FFFFFFFFFFFFFF
(1768226006.427167) slcan0 7E8#28FFFFFFFFFFFFFF
(1768226006.432931) slcan0 7E8#29FFFFFFFFFFFFFF
(1768226006.435166) slcan0 7E8#2AFFFFFFFFFFFFFF
(1768226006.437192) slcan0 7E8#2BFFFFFFFFFFFFFF
(1768226006.441790) slcan0 7E8#2CFFFFFFFFFFFFFF
(1768226006.443063) slcan0 7E8#2DFFFFFFFFFFFFFF
(1768226006.445031) slcan0 7E8#2EFF000000000000
(1768226006.553198) slcan0 7E0#0221000000000000
(1768226006.557488) slcan0 7E8#10D2610000076100
(1768226006.557658) slcan0 7E0#3000000000000000
(1768226006.565177) slcan0 7E8#21FFFFFFFF35FFFF
(1768226006.567132) slcan0 7E8#22FFFFFFFF02FF83
(1768226006.572902) slcan0 7E8#2378FFFF7BFF0807
(1768226006.572927) slcan0 7E8#24FFFF810128012C
(1768226006.575037) slcan0 7E8#25FFFF36171ABC01
(1768226006.577002) slcan0 7E8#26DA002A42206100
(1768226006.581812) slcan0 7E8#27FF0C027CFFFFFF
(1768226006.583007) slcan0 7E8#28FFFFFFFFFF6E2A
(1768226006.585007) slcan0 7E8#29D52613001515FF
(1768226006.587060) slcan0 7E8#2AFFFFFFFFFFFFFF
(1768226006.592023) slcan0 7E8#2B38FFFFFFFFFFFF
(1768226006.593038) slcan0 7E8#2CFFFFFFFFFFFFFF
(1768226006.595035) slcan0 7E8#2DFFFFFFFFFFFFFF
(1768226006.597021) slcan0 7E8#2EFFFF37C56537FF
(1768226006.602024) slcan0 7E8#2FFFFFFFFF09FFFF
(1768226006.603040) slcan0 7E8#20FFFFFFFFFFFF19
(1768226006.605021) slcan0 7E8#2100FFFFFFFFA900
(1768226006.607036) slcan0 7E8#22FF00FF01FFFFFF
(1768226006.612647) slcan0 7E8#23FFFF008800FF02
(1768226006.612946) slcan0 7E8#2401FFFF00FFFFFF
(1768226006.614998) slcan0 7E8#251624FF61FFFFFF
(1768226006.617021) slcan0 7E8#26FFFFFFFFFFFFFF
(1768226006.625925) slcan0 7E8#27FFFFFFFFFFFFFF
(1768226006.627106) slcan0 7E8#28FFFFFFFFFFFFFF
(1768226006.632468) slcan0 7E8#29FFFFFFFFFFFFFF
(1768226006.633033) slcan0 7E8#2AFFFFFFFFFFFFFF
(1768226006.635026) slcan0 7E8#2BFFFFFFFFFFFFFF
(1768226006.637112) slcan0 7E8#2CFFFFFFFFFFFFFF
(1768226006.641783) slcan0 7E8#2DFFFFFFFFFFFFFF
(1768226006.643123) slcan0 7E8#2EFF000000000000
(1768226006.719068) slcan0 7E0#0221000000000000
(1768226006.727485) slcan0 7E8#10D2610000076100
(1768226006.727660) slcan0 7E0#3000000000000000
(1768226006.729117) slcan0 7E8#21FFFFFFFF35FFFF
(1768226006.733383) slcan0 7E8#22FFFFFFFF02FF84
(1768226006.735036) slcan0 7E8#2378FFFF7CFF07CB
(1768226006.737061) slcan0 7E8#24FFFF810129012C
(1768226006.742533) slcan0 7E8#25FFFF3616EABC01
(1768226006.742985) slcan0 7E8#26DA002A42206100
(1768226006.745045) slcan0 7E8#27FF0C027CFFFFFF
(1768226006.747025) slcan0 7E8#28FFFFFFFFFF6D2A
(1768226006.754856) slcan0 7E8#29D52613001515FF
(1768226006.757291) slcan0 7E8#2AFFFFFFFFFFFFFF
(1768226006.762837) slcan0 7E8#2B2BFFFFFFFFFFFF
(1768226006.765046) slcan0 7E8#2CFFFFFFFFFFFFFF
(1768226006.767025) slcan0 7E8#2DFFFFFFFFFFFFFF
(1768226006.772554) slcan0 7E8#2EFFFF38236537FF
(1768226006.772961) slcan0 7E8#2FFFFFFFFF09FFFF
(1768226006.775001) slcan0 7E8#20FFFFFFFFFFFF19
(1768226006.777008) slcan0 7E8#2100FFFFFFFFA900
(1768226006.781978) slcan0 7E8#22FF00FF01FFFFFF
(1768226006.783026) slcan0 7E8#23FFFF008800FF02
(1768226006.785037) slcan0 7E8#2401FFFF00FFFFFF
(1768226006.786983) slcan0 7E8#251624FF61FFFFFF
(1768226006.792486) slcan0 7E8#26FFFFFFFFFFFFFF
(1768226006.793001) slcan0 7E8#27FFFFFFFFFFFFFF
(1768226006.795031) slcan0 7E8#28FFFFFFFFFFFFFF
(1768226006.797033) slcan0 7E8#29FFFFFFFFFFFFFF
(1768226006.802574) slcan0 7E8#2AFFFFFFFFFFFFFF
(1768226006.802966) slcan0 7E8#2BFFFFFFFFFFFFFF
(1768226006.805032) slcan0 7E8#2CFFFFFFFFFFFFFF
(1768226006.807009) slcan0 7E8#2DFFFFFFFFFFFFFF
(1768226006.812452) slcan0 7E8#2EFF000000000000
(1768226006.899062) slcan0 7E0#0221000000000000
(1768226006.907433) slcan0 7E8#10D2610000076100
(1768226006.907705) slcan0 7E0#3000000000000000
(1768226006.909010) slcan0 7E8#21FFFFFFFF35FFFF
(1768226006.913439) slcan0 7E8#22FFFFFFFF02FF85
(1768226006.915008) slcan0 7E8#2378FFFF7DFF0806
(1768226006.916999) slcan0 7E8#24FFFF81011D012C
(1768226006.926583) slcan0 7E8#25FFFF3516FCBC01
(1768226006.926961) slcan0 7E8#26DD002A42206100
(1768226006.932481) slcan0 7E8#27FF0C037DFFFFFF
(1768226006.932996) slcan0 7E8#28FFFFFFFFFF6E2A
(1768226006.935121) slcan0 7E8#29D52613001516FF
(1768226006.937004) slcan0 7E8#2AFFFFFFFFFFFFFF
(1768226006.941959) slcan0 7E8#2B2BFFFFFFFFFFFF
(1768226006.943102) slcan0 7E8#2CFFFFFFFFFFFFFF
(1768226006.945087) slcan0 7E8#2DFFFFFFFFFFFFFF
(1768226006.947009) slcan0 7E8#2EFFFF37DC6437FF
(1768226006.954747) slcan0 7E8#2FFFFFFFFF09FFFF
(1768226006.954960) slcan0 7E8#20FFFFFFFFFFFF19
(1768226006.957247) slcan0 7E8#2100FFFFFFFFA900
(1768226006.962925) slcan0 7E8#22FF00FF01FFFFFF
(1768226006.965082) slcan0 7E8#23FFFF008800FF02
(1768226006.967061) slcan0 7E8#2401FFFF00FFFFFF
(1768226006.972849) slcan0 7E8#251724FF61FFFFFF
(1768226006.975275) slcan0 7E8#26FFFFFFFFFFFFFF
(1768226006.976982) slcan0 7E8#27FFFFFFFFFFFFFF
(1768226006.982999) slcan0 7E8#28FFFFFFFFFFFFFF
(1768226006.985008) slcan0 7E8#29FFFFFFFFFFFFFF
(1768226006.987074) slcan0 7E8#2AFFFFFFFFFFFFFF
(1768226006.992057) slcan0 7E8#2BFFFFFFFFFFFFFF
(1768226006.993031) slcan0 7E8#2CFFFFFFFFFFFFFF
(1768226006.995202) slcan0 7E8#2DFFFFFFFFFFFFFF
(1768226006.997041) slcan0 7E8#2EFF000000000000
(1768226007.086970) slcan0 7E0#0221000000000000
(1768226007.097336) slcan0 7E8#10D2610000076100
(1768226007.097641) slcan0 7E0#3000000000000000
(1768226007.102729) slcan0 7E8#21FFFFFFFF35FFFF
(1768226007.104952) slcan0 7E8#22FFFFFFFF02FF86
(1768226007.106896) slcan0 7E8#2378FFFF7EFF0805
(1768226007.108969) slcan0 7E8#24FFFF81011F012C
(1768226007.112966) slcan0 7E8#25FFFF36170CBC01
(1768226007.114956) slcan0 7E8#26E6002A42206100
(1768226007.116920) slcan0 7E8#27FF0C027CFFFFFF
(1768226007.125570) slcan0 7E8#28FFFFFFFFFF6E2A
(1768226007.126867) slcan0 7E8#29D52613001516FF
(1768226007.132456) slcan0 7E8#2AFFFFFFFFFFFFFF
(1768226007.132970) slcan0 7E8#2B34FFFFFFFFFFFF
(1768226007.134998) slcan0 7E8#2CFFFFFFFFFFFFFF
(1768226007.136957) slcan0 7E8#2DFFFFFFFFFFFFFF
(1768226007.142022) slcan0 7E8#2EFFFF37956537FF
(1768226007.142958) slcan0 7E8#2FFFFFFFFF09FFFF
(1768226007.144962) slcan0 7E8#20FFFFFFFFFFFF19
(1768226007.146988) slcan0 7E8#2100FFFFFFFFA900
(1768226007.154844) slcan0 7E8#22FF00FF01FFFFFF
(1768226007.157281) slcan0 7E8#23FFFF008800FF02
(1768226007.164772) slcan0 7E8#2401FFFF00FFFFFF
(1768226007.166897) slcan0 7E8#251724FF61FFFFFF
(1768226007.172761) slcan0 7E8#26FFFFFFFFFFFFFF
(1768226007.175051) slcan0 7E8#27FFFFFFFFFFFFFF
(1768226007.177006) slcan0 7E8#28FFFFFFFFFFFFFF
(1768226007.181632) slcan0 7E8#29FFFFFFFFFFFFFF
(1768226007.182993) slcan0 7E8#2AFFFFFFFFFFFFFF
(1768226007.185003) slcan0 7E8#2BFFFFFFFFFFFFFF
(1768226007.186926) slcan0 7E8#2CFFFFFFFFFFFFFF
(1768226007.192198) slcan0 7E8#2DFFFFFFFFFFFFFF
(1768226007.193002) slcan0 7E8#2EFF000000000000
(1768226007.290145) slcan0 7E0#041800FF00000000
(1768226007.297189) slcan0 7E8#0258000000000000
(1768226007.397722) slcan0 7E0#0221000000000000
(1768226007.407330) slcan0 7E8#10D2610000076100
(1768226007.407555) slcan0 7E0#3000000000000000
(1768226007.408969) slcan0 7E8#21FFFFFFFF35FFFF
(1768226007.412998) slcan0 7E8#22FFFFFFFF02FF83
(1768226007.415032) slcan0 7E8#2378FFFF7BFF07BB
(1768226007.416994) slcan0 7E8#24FFFF810127012C
(1768226007.425249) slcan0 7E8#25FFFF35172ABC01
(1768226007.426896) slcan0 7E8#26D2002A42206100
(1768226007.432535) slcan0 7E8#27FF0C037DFFFFFF
(1768226007.432988) slcan0 7E8#28FFFFFFFFFF6E2A
(1768226007.435005) slcan0 7E8#29D52613001516FF
(1768226007.437044) slcan0 7E8#2AFFFFFFFFFFFFFF
(1768226007.441659) slcan0 7E8#2BA4FFFFFFFFFFFF
(1768226007.443315) slcan0 7E8#2CFFFFFFFFFFFFFF
(1768226007.445102) slcan0 7E8#2DFFFFFFFFFFFFFF
(1768226007.447081) slcan0 7E8#2EFFFF37AD6537FF
(1768226007.454836) slcan0 7E8#2FFFFFFFFF09FFFF
(1768226007.455032) slcan0 7E8#20FFFFFFFFFFFF19
(1768226007.457072) slcan0 7E8#2100FFFFFFFFA900
(1768226007.464770) slcan0 7E8#22FF00FF01FFFFFF
(1768226007.465098) slcan0 7E8#23FFFF008800FF02
(1768226007.467047) slcan0 7E8#2401FFFF00FFFFFF
(1768226007.472662) slcan0 7E8#251624FF61FFFFFF
(1768226007.472958) slcan0 7E8#26FFFFFFFFFFFFFF
(1768226007.474964) slcan0 7E8#27FFFFFFFFFFFFFF
(1768226007.476907) slcan0 7E8#28FFFFFFFFFFFFFF
(1768226007.481433) slcan0 7E8#29FFFFFFFFFFFFFF
(1768226007.483034) slcan0 7E8#2AFFFFFFFFFFFFFF
(1768226007.485039) slcan0 7E8#2BFFFFFFFFFFFFFF
(1768226007.487036) slcan0 7E8#2CFFFFFFFFFFFFFF
(1768226007.491799) slcan0 7E8#2DFFFFFFFFFFFFFF
(1768226007.493001) slcan0 7E8#2EFF000000000000
(1768226007.580694) slcan0 7E0#0221000000000000
(1768226007.587455) slcan0 7E8#10D2610000076100
(1768226007.587552) slcan0 7E0#3000000000000000
(1768226007.589003) slcan0 7E8#21FFFFFFFF35FFFF
(1768226007.592518) slcan0 7E8#22FFFFFFFF02FF82
(1768226007.592845) slcan0 7E8#2378FFFF7AFF079E
(1768226007.594923) slcan0 7E8#24FFFF810126012C
(1768226007.596966) slcan0 7E8#25FFFF351726BC01
(1768226007.601408) slcan0 7E8#26CD002A42206100
(1768226007.603058) slcan0 7E8#27FF0C027DFFFFFF
(1768226007.604963) slcan0 7E8#28FFFFFFFFFF6E2A
(1768226007.606956) slcan0 7E8#29D52613001516FF
(1768226007.612092) slcan0 7E8#2AFFFFFFFFFFFFFF
(1768226007.612948) slcan0 7E8#2B9EFFFFFFFFFFFF
(1768226007.614988) slcan0 7E8#2CFFFFFFFFFFFFFF
(1768226007.616986) slcan0 7E8#2DFFFFFFFFFFFFFF
(1768226007.625647) slcan0 7E8#2EFFFF37C56537FF
(1768226007.626886) slcan0 7E8#2FFFFFFFFF09FFFF
(1768226007.632755) slcan0 7E8#20FFFFFFFFFFFF19
(1768226007.634928) slcan0 7E8#2100FFFFFFFFA900
(1768226007.636967) slcan0 7E8#22FF00FF01FFFFFF
(1768226007.641408) slcan0 7E8#23FFFF008800FF02
(1768226007.644455) slcan0 7E8#2401FFFF00FFFFFF
(1768226007.644964) slcan0 7E8#251624FF61FFFFFF
(1768226007.646982) slcan0 7E8#26FFFFFFFFFFFFFF
(1768226007.654884) slcan0 7E8#27FFFFFFFFFFFFFF
(1768226007.656929) slcan0 7E8#28FFFFFFFFFFFFFF
(1768226007.662464) slcan0 7E8#29FFFFFFFFFFFFFF
(1768226007.662949) slcan0 7E8#2AFFFFFFFFFFFFFF
(1768226007.664951) slcan0 7E8#2BFFFFFFFFFFFFFF
(1768226007.667005) slcan0 7E8#2CFFFFFFFFFFFFFF
(1768226007.672657) slcan0 7E8#2DFFFFFFFFFFFFFF
(1768226007.672907) slcan0 7E8#2EFF000000000000
(1768226007.783725) slcan0 7E0#0221000000000000
(1768226007.787493) slcan0 7E8#10D2610000076100
(1768226007.787679) slcan0 7E0#3000000000000000
(1768226007.789109) slcan0 7E8#21FFFFFFFF35FFFF
(1768226007.792498) slcan0 7E8#22FFFFFFFF02FF82
(1768226007.793094) slcan0 7E8#2378FFFF7AFF0790
(1768226007.795090) slcan0 7E8#24FFFF830124012C
(1768226007.797012) slcan0 7E8#25FFFF351724BC01
(1768226007.801239) slcan0 7E8#26DA002942206100
(1768226007.802977) slcan0 7E8#27FF0C037CFFFFFF
(1768226007.804988) slcan0 7E8#28FFFFFFFFFF6E2A
(1768226007.806962) slcan0 7E8#29D52613001516FF
(1768226007.812667) slcan0 7E8#2AFFFFFFFFFFFFFF
(1768226007.812886) slcan0 7E8#2B38FFFFFFFFFFFF
(1768226007.814991) slcan0 7E8#2CFFFFFFFFFFFFFF
(1768226007.816985) slcan0 7E8#2DFFFFFFFFFFFFFF
(1768226007.826143) slcan0 7E8#2EFFFF38236537FF
(1768226007.826965) slcan0 7E8#2FFFFFFFFF09FFFF
(1768226007.832216) slcan0 7E8#20FFFFFFFFFFFF19
(1768226007.832957) slcan0 7E8#2100FFFFFFFFA900
(1768226007.834963) slcan0 7E8#22FF00FF01FFFFFF
(1768226007.836987) slcan0 7E8#23FFFF008800FF02
(1768226007.841624) slcan0 7E8#2401FFFF00FFFFFF
(1768226007.842995) slcan0 7E8#251724FF61FFFFFF
(1768226007.844955) slcan0 7E8#26FFFFFFFFFFFFFF
(1768226007.846990) slcan0 7E8#27FFFFFFFFFFFFFF
(1768226007.854516) slcan0 7E8#28FFFFFFFFFFFFFF
(1768226007.854925) slcan0 7E8#29FFFFFFFFFFFFFF
(1768226007.856991) slcan0 7E8#2AFFFFFFFFFFFFFF
(1768226007.862430) slcan0 7E8#2BFFFFFFFFFFFFFF
(1768226007.863001) slcan0 7E8#2CFFFFFFFFFFFFFF
(1768226007.864990) slcan0 7E8#2DFFFFFFFFFFFFFF
(1768226007.867281) slcan0 7E8#2EFF000000000000
(1768226007.957747) slcan0 7E0#0221000000000000
(1768226007.967513) slcan0 7E8#10D2610000076100
(1768226007.967659) slcan0 7E0#3000000000000000
(1768226007.972971) slcan0 7E8#21FFFFFFFF35FFFF
(1768226007.975107) slcan0 7E8#22FFFFFFFF02FF82
(1768226007.977104) slcan0 7E8#2378FFFF7AFF07B4
(1768226007.981581) slcan0 7E8#24FFFF83012B012C
(1768226007.983081) slcan0 7E8#25FFFF351724BC01
(1768226007.985057) slcan0 7E8#26DA002A42206100
(1768226007.987100) slcan0 7E8#27FF0C037CFFFFFF
(1768226007.992117) slcan0 7E8#28FFFFFFFFFF6E2A
(1768226007.993113) slcan0 7E8#29D52613001516FF
(1768226007.995078) slcan0 7E8#2AFFFFFFFFFFFFFF
(1768226007.997039) slcan0 7E8#2B27FFFFFFFFFFFF
(1768226008.001414) slcan0 7E8#2CFFFFFFFFFFFFFF
(1768226008.003109) slcan0 7E8#2DFFFFFFFFFFFFFF
(1768226008.005192) slcan0 7E8#2EFFFF37956537FF
(1768226008.007061) slcan0 7E8#2FFFFFFFFF09FFFF
(1768226008.012173) slcan0 7E8#20FFFFFFFFFFFF19
(1768226008.013068) slcan0 7E8#2100FFFFFFFFA900
(1768226008.015002) slcan0 7E8#22FF00FF01FFFFFF
(1768226008.017088) slcan0 7E8#23FFFF008800FF02
(1768226008.023361) slcan0 7E8#2401FFFF00FFFFFF
(1768226008.025767) slcan0 7E8#251624FF61FFFFFF
(1768226008.027097) slcan0 7E8#26FFFFFFFFFFFFFF
(1768226008.029124) slcan0 7E8#27FFFFFFFFFFFFFF
(1768226008.033165) slcan0 7E8#28FFFFFFFFFFFFFF
(1768226008.035091) slcan0 7E8#29FFFFFFFFFFFFFF
(1768226008.037025) slcan0 7E8#2AFFFFFFFFFFFFFF
(1768226008.041474) slcan0 7E8#2BFFFFFFFFFFFFFF
(1768226008.043096) slcan0 7E8#2CFFFFFFFFFFFFFF
(1768226008.045092) slcan0 7E8#2DFFFFFFFFFFFFFF
(1768226008.047018) slcan0 7E8#2EFF000000000000
(1768226008.136596) slcan0 7E0#0221000000000000
(1768226008.147463) slcan0 7E8#10D2610000076100
(1768226008.147675) slcan0 7E0#3000000000000000
(1768226008.149051) slcan0 7E8#21FFFFFFFF36FFFF
(1768226008.155172) slcan0 7E8#22FFFFFFFF02FF85
(1768226008.157607) slcan0 7E8#2378FFFF7DFF0832
(1768226008.162462) slcan0 7E8#24FFFF840114012C
(1768226008.163086) slcan0 7E8#25FFFF3616F4BC01
(1768226008.165017) slcan0 7E8#26E3002A42206100
(1768226008.167094) slcan0 7E8#27FF0C027CFFFFFF
(1768226008.172663) slcan0 7E8#28FFFFFFFFFF6E2A
(1768226008.173258) slcan0 7E8#29D52613001616FF
(1768226008.175047) slcan0 7E8#2AFFFFFFFFFFFFFF
(1768226008.176992) slcan0 7E8#2B25FFFFFFFFFFFF
(1768226008.181425) slcan0 7E8#2CFFFFFFFFFFFFFF
(1768226008.183156) slcan0 7E8#2DFFFFFFFFFFFFFF
(1768226008.185056) slcan0 7E8#2EFFFF37AD6537FF
(1768226008.186978) slcan0 7E8#2FFFFFFFFF09FFFF
(1768226008.191767) slcan0 7E8#20FFFFFFFFFFFF19
(1768226008.193142) slcan0 7E8#2100FFFFFFFFA900
(1768226008.195074) slcan0 7E8#22FF00FF01FFFFFF
(1768226008.197085) slcan0 7E8#23FFFF008800FF02
(1768226008.201597) slcan0 7E8#2401FFFF00FFFFFF
(1768226008.203084) slcan0 7E8#251824FF61FFFFFF
(1768226008.205041) slcan0 7E8#26FFFFFFFFFFFFFF
(1768226008.207429) slcan0 7E8#27FFFFFFFFFFFFFF
(1768226008.212224) slcan0 7E8#28FFFFFFFFFFFFFF
(1768226008.213118) slcan0 7E8#29FFFFFFFFFFFFFF
(1768226008.214984) slcan0 7E8#2AFFFFFFFFFFFFFF
(1768226008.216986) slcan0 7E8#2BFFFFFFFFFFFFFF
(1768226008.224487) slcan0 7E8#2CFFFFFFFFFFFFFF
(1768226008.225080) slcan0 7E8#2DFFFFFFFFFFFFFF
(1768226008.227431) slcan0 7E8#2EFF000000000000
(1768226008.351520) slcan0 7E0#0221000000000000
(1768226008.357587) slcan0 7E8#10D2610000076100
(1768226008.357745) slcan0 7E0#3000000000000000
(1768226008.363195) slcan0 7E8#21FFFFFFFF36FFFF
(1768226008.364994) slcan0 7E8#22FFFFFFFF02FF86
(1768226008.366856) slcan0 7E8#2378FFFF7EFF081F
(1768226008.372250) slcan0 7E8#24FFFF810127012C
(1768226008.373041) slcan0 7E8#25FFFF3716E4BC01
(1768226008.374926) slcan0 7E8#26F1002A42206100
(1768226008.376955) slcan0 7E8#27FF0C037CFFFFFF
(1768226008.381324) slcan0 7E8#28FFFFFFFFFF6E2A
(1768226008.383083) slcan0 7E8#29D52613001516FF
(1768226008.384865) slcan0 7E8#2AFFFFFFFFFFFFFF
(1768226008.386966) slcan0 7E8#2B26FFFFFFFFFFFF
(1768226008.391782) slcan0 7E8#2CFFFFFFFFFFFFFF
(1768226008.393116) slcan0 7E8#2DFFFFFFFFFFFFFF
(1768226008.394840) slcan0 7E8#2EFFFF383A6537FF
(1768226008.396868) slcan0 7E8#2FFFFFFFFF09FFFF
(1768226008.401181) slcan0 7E8#20FFFFFFFFFFFF19
(1768226008.403077) slcan0 7E8#2100FFFFFFFFA900
(1768226008.404864) slcan0 7E8#22FF00FF01FFFFFF
(1768226008.406868) slcan0 7E8#23FFFF008800FF02
(1768226008.412393) slcan0 7E8#2401FFFF00FFFFFF
(1768226008.413051) slcan0 7E8#251724FF61FFFFFF
(1768226008.414874) slcan0 7E8#26FFFFFFFFFFFFFF
(1768226008.416978) slcan0 7E8#27FFFFFFFFFFFFFF
(1768226008.424467) slcan0 7E8#28FFFFFFFFFFFFFF
(1768226008.424952) slcan0 7E8#29FFFFFFFFFFFFFF
(1768226008.428065) slcan0 7E8#2AFFFFFFFFFFFFFF
(1768226008.432370) slcan0 7E8#2BFFFFFFFFFFFFFF
(1768226008.432951) slcan0 7E8#2CFFFFFFFFFFFFFF
(1768226008.434948) slcan0 7E8#2DFFFFFFFFFFFFFF
(1768226008.436959) slcan0 7E8#2EFF000000000000
(1768226008.521402) slcan0 7E0#0221000000000000
(1768226008.527441) slcan0 7E8#10D2610000076100
(1768226008.527671) slcan0 7E0#3000000000000000
(1768226008.535083) slcan0 7E8#21FFFFFFFF36FFFF
(1768226008.537184) slcan0 7E8#22FFFFFFFF02FF87
(1768226008.541387) slcan0 7E8#2378FFFF7FFF0831
(1768226008.543056) slcan0 7E8#24FFFF80011B012C
(1768226008.545038) slcan0 7E8#25FFFF351704BC01
(1768226008.547940) slcan0 7E8#26E3002A42206100
(1768226008.554954) slcan0 7E8#27FF0C017CFFFFFF
(1768226008.557108) slcan0 7E8#28FFFFFFFFFF6F2A
(1768226008.562096) slcan0 7E8#29D52613001516FF
(1768226008.563059) slcan0 7E8#2AFFFFFFFFFFFFFF
(1768226008.565072) slcan0 7E8#2B2DFFFFFFFFFFFF
(1768226008.566883) slcan0 7E8#2CFFFFFFFFFFFFFF
(1768226008.572414) slcan0 7E8#2DFFFFFFFFFFFFFF
(1768226008.573075) slcan0 7E8#2EFFFF37C56737FF
(1768226008.575016) slcan0 7E8#2FFFFFFFFF09FFFF
(1768226008.576961) slcan0 7E8#20FFFFFFFFFFFF19
(1768226008.581398) slcan0 7E8#2100FFFFFFFFA900
(1768226008.582906) slcan0 7E8#22FF00FF01FFFFFF
(1768226008.584948) slcan0 7E8#23FFFF008800FF02
(1768226008.586975) slcan0 7E8#2401FFFF00FFFFFF
(1768226008.592056) slcan0 7E8#251824FF61FFFFFF
(1768226008.592990) slcan0 7E8#26FFFFFFFFFFFFFF
(1768226008.594991) slcan0 7E8#27FFFFFFFFFFFFFF
(1768226008.597347) slcan0 7E8#28FFFFFFFFFFFFFF
(1768226008.601559) slcan0 7E8#29FFFFFFFFFFFFFF
(1768226008.602976) slcan0 7E8#2AFFFFFFFFFFFFFF
(1768226008.604851) slcan0 7E8#2BFFFFFFFFFFFFFF
(1768226008.606822) slcan0 7E8#2CFFFFFFFFFFFFFF
(1768226008.611921) slcan0 7E8#2DFFFFFFFFFFFFFF
(1768226008.613007) slcan0 7E8#2EFF000000000000
(1768226008.716178) slcan0 7E0#0221000000000000
(1768226008.727364) slcan0 7E8#10D2610000076100
(1768226008.727601) slcan0 7E0#3000000000000000
(1768226008.737040) slcan0 7E8#21FFFFFFFF36FFFF
(1768226008.741419) slcan0 7E8#22FFFFFFFF02FF85
(1768226008.742962) slcan0 7E8#2378FFFF7DFF0844
(1768226008.744964) slcan0 7E8#24FFFF810127012C
(1768226008.746973) slcan0 7E8#25FFFF36171EBC01
(1768226008.754533) slcan0 7E8#26E6002A42206100
(1768226008.754826) slcan0 7E8#27FF0C037DFFFFFF
(1768226008.757027) slcan0 7E8#28FFFFFFFFFF6E2A
(1768226008.762222) slcan0 7E8#29D52613001616FF
(1768226008.763039) slcan0 7E8#2AFFFFFFFFFFFFFF
(1768226008.764958) slcan0 7E8#2B9BFFFFFFFFFFFF
(1768226008.766866) slcan0 7E8#2CFFFFFFFFFFFFFF
(1768226008.772731) slcan0 7E8#2DFFFFFFFFFFFFFF
(1768226008.775030) slcan0 7E8#2EFFFF380B6537FF
(1768226008.777034) slcan0 7E8#2FFFFFFFFF09FFFF
(1768226008.781385) slcan0 7E8#20FFFFFFFFFFFF19
(1768226008.783042) slcan0 7E8#2100FFFFFFFFA900
(1768226008.785044) slcan0 7E8#22FF00FF01FFFFFF
(1768226008.787032) slcan0 7E8#23FFFF008800FF02
(1768226008.788949) slcan0 7E8#2401FFFF00FFFFFF
(1768226008.792349) slcan0 7E8#251724FF61FFFFFF
(1768226008.793245) slcan0 7E8#26FFFFFFFFFFFFFF
(1768226008.795056) slcan0 7E8#27FFFFFFFFFFFFFF
(1768226008.797049) slcan0 7E8#28FFFFFFFFFFFFFF
(1768226008.801354) slcan0 7E8#29FFFFFFFFFFFFFF
(1768226008.803002) slcan0 7E8#2AFFFFFFFFFFFFFF
(1768226008.805042) slcan0 7E8#2BFFFFFFFFFFFFFF
(1768226008.806970) slcan0 7E8#2CFFFFFFFFFFFFFF
(1768226008.811950) slcan0 7E8#2DFFFFFFFFFFFFFF
(1768226008.813034) slcan0 7E8#2EFF000000000000
(1768226008.921327) slcan0 7E0#0221000000000000
(1768226008.927337) slcan0 7E8#10D2610000076100
(1768226008.927682) slcan0 7E0#3000000000000000
(1768226008.934952) slcan0 7E8#21FFFFFFFF36FFFF
(1768226008.937070) slcan0 7E8#22FFFFFFFF02FF84
(1768226008.941513) slcan0 7E8#2378FFFF7CFF07D5
(1768226008.942994) slcan0 7E8#24FFFF810124012C
(1768226008.945061) slcan0 7E8#25FFFF361730BC01
(1768226008.947017) slcan0 7E8#26F1002A42206100
(1768226008.955201) slcan0 7E8#27FF0C027CFFFFFF
(1768226008.957031) slcan0 7E8#28FFFFFFFFFF6E2A
(1768226008.962534) slcan0 7E8#29D52613001616FF
(1768226008.962975) slcan0 7E8#2AFFFFFFFFFFFFFF
(1768226008.964925) slcan0 7E8#2B9DFFFFFFFFFFFF
(1768226008.967043) slcan0 7E8#2CFFFFFFFFFFFFFF
(1768226008.973076) slcan0 7E8#2DFFFFFFFFFFFFFF
(1768226008.975178) slcan0 7E8#2EFFFF37AD6537FF
(1768226008.977135) slcan0 7E8#2FFFFFFFFF09FFFF
(1768226008.981553) slcan0 7E8#20FFFFFFFFFFFF19
(1768226008.982923) slcan0 7E8#2100FFFFFFFFA900
(1768226008.984888) slcan0 7E8#22FF00FF01FFFFFF
(1768226008.986931) slcan0 7E8#23FFFF008800FF02
(1768226008.991965) slcan0 7E8#2401FFFF00FFFFFF
(1768226008.992910) slcan0 7E8#251724FF61FFFFFF
(1768226008.994993) slcan0 7E8#26FFFFFFFFFFFFFF
(1768226008.997042) slcan0 7E8#27FFFFFFFFFFFFFF
(1768226009.001345) slcan0 7E8#28FFFFFFFFFFFFFF
(1768226009.002985) slcan0 7E8#29FFFFFFFFFFFFFF
(1768226009.005010) slcan0 7E8#2AFFFFFFFFFFFFFF
(1768226009.006968) slcan0 7E8#2BFFFFFFFFFFFFFF
(1768226009.012454) slcan0 7E8#2CFFFFFFFFFFFFFF
(1768226009.013051) slcan0 7E8#2DFFFFFFFFFFFFFF
(1768226009.015012) slcan0 7E8#2EFF000000000000
(1768226009.105924) slcan0 7E0#0221000000000000
(1768226009.107170) slcan0 7E8#10D2610000076100
(1768226009.107478) slcan0 7E0#3000000000000000
(1768226009.108798) slcan0 7E8#21FFFFFFFF36FFFF
(1768226009.112812) slcan0 7E8#22FFFFFFFF02FF83
(1768226009.114823) slcan0 7E8#2378FFFF7BFF07D1
(1768226009.116801) slcan0 7E8#24FFFF800126012C
(1768226009.124499) slcan0 7E8#25FFFF371728BC01
(1768226009.124793) slcan0 7E8#26EE002A42206100
(1768226009.126819) slcan0 7E8#27FF0C037DFFFFFF
(1768226009.134704) slcan0 7E8#28FFFFFFFFFF6F2A
(1768226009.136854) slcan0 7E8#29D52613001616FF
(1768226009.141475) slcan0 7E8#2AFFFFFFFFFFFFFF
(1768226009.142916) slcan0 7E8#2B94FFFFFFFFFFFF
(1768226009.144945) slcan0 7E8#2CFFFFFFFFFFFFFF
(1768226009.146946) slcan0 7E8#2DFFFFFFFFFFFFFF
(1768226009.155763) slcan0 7E8#2EFFFF38236537FF
(1768226009.156941) slcan0 7E8#2FFFFFFFFF09FFFF
(1768226009.162175) slcan0 7E8#20FFFFFFFFFFFF19
(1768226009.162970) slcan0 7E8#2100FFFFFFFFA900
(1768226009.165044) slcan0 7E8#22FF00FF01FFFFFF
(1768226009.167321) slcan0 7E8#23FFFF008800FF02
(1768226009.172891) slcan0 7E8#2401FFFF00FFFFFF
(1768226009.174984) slcan0 7E8#251724FF61FFFFFF
(1768226009.177039) slcan0 7E8#26FFFFFFFFFFFFFF
(1768226009.181585) slcan0 7E8#27FFFFFFFFFFFFFF
(1768226009.183002) slcan0 7E8#28FFFFFFFFFFFFFF
(1768226009.184880) slcan0 7E8#29FFFFFFFFFFFFFF
(1768226009.186898) slcan0 7E8#2AFFFFFFFFFFFFFF
(1768226009.192211) slcan0 7E8#2BFFFFFFFFFFFFFF
(1768226009.192806) slcan0 7E8#2CFFFFFFFFFFFFFF
(1768226009.195089) slcan0 7E8#2DFFFFFFFFFFFFFF
(1768226009.196960) slcan0 7E8#2EFF000000000000
(1768226009.273180) slcan0 7E0#0221000000000000
(1768226009.277389) slcan0 7E8#10D2610000076100
(1768226009.277627) slcan0 7E0#3000000000000000
(1768226009.279022) slcan0 7E8#21FFFFFFFF36FFFF
(1768226009.281982) slcan0 7E8#22FFFFFFFF02FF82
(1768226009.282812) slcan0 7E8#2378FFFF7AFF07F3
(1768226009.284933) slcan0 7E8#24FFFF810126012C
(1768226009.286841) slcan0 7E8#25FFFF36171ABC01
(1768226009.291818) slcan0 7E8#26E0002A42206100
(1768226009.292922) slcan0 7E8#27FF0C027CFFFFFF
(1768226009.294900) slcan0 7E8#28FFFFFFFFFF6E2A
(1768226009.296806) slcan0 7E8#29D52613001616FF
(1768226009.301140) slcan0 7E8#2AFFFFFFFFFFFFFF
(1768226009.302828) slcan0 7E8#2B2FFFFFFFFFFFFF
(1768226009.304777) slcan0 7E8#2CFFFFFFFFFFFFFF
(1768226009.307165) slcan0 7E8#2DFFFFFFFFFFFFFF
(1768226009.312539) slcan0 7E8#2EFFFF37666537FF
(1768226009.312947) slcan0 7E8#2FFFFFFFFF09FFFF
(1768226009.314840) slcan0 7E8#20FFFFFFFFFFFF19
(1768226009.316825) slcan0 7E8#2100FFFFFFFFA900
(1768226009.324660) slcan0 7E8#22FF00FF01FFFFFF
(1768226009.326830) slcan0 7E8#23FFFF008800FF02
(1768226009.335174) slcan0 7E8#2401FFFF00FFFFFF
(1768226009.336892) slcan0 7E8#251724FF61FFFFFF
(1768226009.341478) slcan0 7E8#26FFFFFFFFFFFFFF
(1768226009.343011) slcan0 7E8#27FFFFFFFFFFFFFF
(1768226009.345186) slcan0 7E8#28FFFFFFFFFFFFFF
(1768226009.346926) slcan0 7E8#29FFFFFFFFFFFFFF
(1768226009.354851) slcan0 7E8#2AFFFFFFFFFFFFFF
(1768226009.357260) slcan0 7E8#2BFFFFFFFFFFFFFF
(1768226009.362534) slcan0 7E8#2CFFFFFFFFFFFFFF
(1768226009.363059) slcan0 7E8#2DFFFFFFFFFFFFFF
(1768226009.364934) slcan0 7E8#2EFF000000000000
(1768226009.459971) slcan0 7E0#0221000000000000
(1768226009.467507) slcan0 7E8#10D2610000076100
(1768226009.467667) slcan0 7E0#3000000000000000
(1768226009.468972) slcan0 7E8#21FFFFFFFF36FFFF
(1768226009.473255) slcan0 7E8#22FFFFFFFF02FF85
(1768226009.475015) slcan0 7E8#2378FFFF7DFF0808
(1768226009.476986) slcan0 7E8#24FFFF810126012C
(1768226009.481639) slcan0 7E8#25FFFF37170ABC01
(1768226009.482923) slcan0 7E8#26E6002A42206100
(1768226009.484953) slcan0 7E8#27FF0C037DFFFFFF
(1768226009.486946) slcan0 7E8#28FFFFFFFFFF6E2A
(1768226009.491846) slcan0 7E8#29D52613001616FF
(1768226009.492811) slcan0 7E8#2AFFFFFFFFFFFFFF
(1768226009.494960) slcan0 7E8#2B34FFFFFFFFFFFF
(1768226009.497095) slcan0 7E8#2CFFFFFFFFFFFFFF
(1768226009.501465) slcan0 7E8#2DFFFFFFFFFFFFFF
(1768226009.502934) slcan0 7E8#2EFFFF37DC6437FF
(1768226009.504918) slcan0 7E8#2FFFFFFFFF09FFFF
(1768226009.506952) slcan0 7E8#20FFFFFFFFFFFF19
(1768226009.512657) slcan0 7E8#2100FFFFFFFFA900
(1768226009.513163) slcan0 7E8#22FF00FF01FFFFFF
(1768226009.514941) slcan0 7E8#23FFFF008800FF02
(1768226009.517041) slcan0 7E8#2401FFFF00FFFFFF
(1768226009.524530) slcan0 7E8#251724FF61FFFFFF
(1768226009.524805) slcan0 7E8#26FFFFFFFFFFFFFF
(1768226009.526956) slcan0 7E8#27FFFFFFFFFFFFFF
(1768226009.534635) slcan0 7E8#28FFFFFFFFFFFFFF
(1768226009.534932) slcan0 7E8#29FFFFFFFFFFFFFF
(1768226009.536929) slcan0 7E8#2AFFFFFFFFFFFFFF
(1768226009.541398) slcan0 7E8#2BFFFFFFFFFFFFFF
(1768226009.543015) slcan0 7E8#2CFFFFFFFFFFFFFF
(1768226009.545038) slcan0 7E8#2DFFFFFFFFFFFFFF
(1768226009.546935) slcan0 7E8#2EFF000000000000
(1768226009.641907) slcan0 7E0#0221000000000000
(1768226009.647364) slcan0 7E8#10D2610000076100
(1768226009.647550) slcan0 7E0#3000000000000000
(1768226009.654980) slcan0 7E8#21FFFFFFFF36FFFF
(1768226009.656936) slcan0 7E8#22FFFFFFFF02FF86
(1768226009.662255) slcan0 7E8#2378FFFF7EFF0807
(1768226009.663071) slcan0 7E8#24FFFF81012A012C
(1768226009.664859) slcan0 7E8#25FFFF371702BC01
(1768226009.666897) slcan0 7E8#26EB002A42206100
(1768226009.672359) slcan0 7E8#27FF0C037DFFFFFF
(1768226009.674448) slcan0 7E8#28FFFFFFFFFF6E2A
(1768226009.674912) slcan0 7E8#29D52613001616FF
(1768226009.677035) slcan0 7E8#2AFFFFFFFFFFFFFF
(1768226009.681522) slcan0 7E8#2B2CFFFFFFFFFFFF
(1768226009.682973) slcan0 7E8#2CFFFFFFFFFFFFFF
(1768226009.685005) slcan0 7E8#2DFFFFFFFFFFFFFF
(1768226009.687215) slcan0 7E8#2EFFFF38236537FF
(1768226009.691750) slcan0 7E8#2FFFFFFFFF09FFFF
(1768226009.693068) slcan0 7E8#20FFFFFFFFFFFF19
(1768226009.695000) slcan0 7E8#2100FFFFFFFFA900
(1768226009.696873) slcan0 7E8#22FF00FF01FFFFFF
(1768226009.701284) slcan0 7E8#23FFFF008800FF02
(1768226009.703001) slcan0 7E8#2401FFFF00FFFFFF
(1768226009.704982) slcan0 7E8#251724FF61FFFFFF
(1768226009.706913) slcan0 7E8#26FFFFFFFFFFFFFF
(1768226009.712123) slcan0 7E8#27FFFFFFFFFFFFFF
(1768226009.713014) slcan0 7E8#28FFFFFFFFFFFFFF
(1768226009.714994) slcan0 7E8#29FFFFFFFFFFFFFF
(1768226009.716868) slcan0 7E8#2AFFFFFFFFFFFFFF
(1768226009.724482) slcan0 7E8#2BFFFFFFFFFFFFFF
(1768226009.724912) slcan0 7E8#2CFFFFFFFFFFFFFF
(1768226009.726953) slcan0 7E8#2DFFFFFFFFFFFFFF
(1768226009.732468) slcan0 7E8#2EFF000000000000
(1768226009.853986) slcan0 7E0#0221000000000000
(1768226009.857393) slcan0 7E8#10D2610000076100
(1768226009.857598) slcan0 7E0#3000000000000000
(1768226009.862711) slcan0 7E8#21FFFFFFFF36FFFF
(1768226009.862888) slcan0 7E8#22FFFFFFFF02FF87
(1768226009.864877) slcan0 7E8#2378FFFF7FFF085D
(1768226009.866887) slcan0 7E8#24FFFF800119012C
(1768226009.872138) slcan0 7E8#25FFFF37171ABC01
(1768226009.872981) slcan0 7E8#26EB002A42206100
(1768226009.875800) slcan0 7E8#27FF0C027DFFFFFF
(1768226009.876937) slcan0 7E8#28FFFFFFFFFF6E2A
(1768226009.881558) slcan0 7E8#29D52613001616FF
(1768226009.882886) slcan0 7E8#2AFFFFFFFFFFFFFF
(1768226009.884907) slcan0 7E8#2B36FFFFFFFFFFFF
(1768226009.886974) slcan0 7E8#2CFFFFFFFFFFFFFF
(1768226009.891676) slcan0 7E8#2DFFFFFFFFFFFFFF
(1768226009.892951) slcan0 7E8#2EFFFF37C56537FF
(1768226009.894990) slcan0 7E8#2FFFFFFFFF09FFFF
(1768226009.896942) slcan0 7E8#20FFFFFFFFFFFF19
(1768226009.899022) slcan0 7E8#2100FFFFFFFFA900
(1768226009.901632) slcan0 7E8#22FF00FF01FFFFFF
(1768226009.902992) slcan0 7E8#23FFFF008800FF02
(1768226009.904880) slcan0 7E8#2401FFFF00FFFFFF
(1768226009.906949) slcan0 7E8#251824FF61FFFFFF
(1768226009.912139) slcan0 7E8#26FFFFFFFFFFFFFF
(1768226009.912789) slcan0 7E8#27FFFFFFFFFFFFFF
(1768226009.914780) slcan0 7E8#28FFFFFFFFFFFFFF
(1768226009.916923) slcan0 7E8#29FFFFFFFFFFFFFF
(1768226009.924627) slcan0 7E8#2AFFFFFFFFFFFFFF
(1768226009.926910) slcan0 7E8#2BFFFFFFFFFFFFFF
(1768226009.932020) slcan0 7E8#2CFFFFFFFFFFFFFF
(1768226009.932903) slcan0 7E8#2DFFFFFFFFFFFFFF
(1768226009.936883) slcan0 7E8#2EFF000000000000
(1768226010.032917) slcan0 7E0#041800FF00000000
(1768226010.037070) slcan0 7E8#0258000000000000
(1768226010.143564) slcan0 7E0#0221000000000000
(1768226010.147136) slcan0 7E8#10D2610000076100
(1768226010.147403) slcan0 7E0#3000000000000000
(1768226010.148792) slcan0 7E8#21FFFFFFFF36FFFF
(1768226010.155592) slcan0 7E8#22FFFFFFFF02FF84
(1768226010.156845) slcan0 7E8#2378FFFF7CFF07ED
(1768226010.162500) slcan0 7E8#24FFFF80011A012C
(1768226010.162808) slcan0 7E8#25FFFF35175EBC01
(1768226010.164821) slcan0 7E8#26D8002A42206100
(1768226010.166800) slcan0 7E8#27FF0C037DFFFFFF
(1768226010.172359) slcan0 7E8#28FFFFFFFFFF6E2A
(1768226010.172841) slcan0 7E8#29D52613001616FF
(1768226010.175790) slcan0 7E8#2AFFFFFFFFFFFFFF
(1768226010.176770) slcan0 7E8#2BA6FFFFFFFFFFFF
(1768226010.181429) slcan0 7E8#2CFFFFFFFFFFFFFF
(1768226010.182926) slcan0 7E8#2DFFFFFFFFFFFFFF
(1768226010.184869) slcan0 7E8#2EFFFF37C56537FF
(1768226010.186830) slcan0 7E8#2FFFFFFFFF09FFFF
(1768226010.192143) slcan0 7E8#20FFFFFFFFFFFF19
(1768226010.192831) slcan0 7E8#2100FFFFFFFFA900
(1768226010.195037) slcan0 7E8#22FF00FF01FFFFFF
(1768226010.196858) slcan0 7E8#23FFFF008800FF02
(1768226010.201391) slcan0 7E8#2401FFFF00FFFFFF
(1768226010.202869) slcan0 7E8#251824FF61FFFFFF
(1768226010.204906) slcan0 7E8#26FFFFFFFFFFFFFF
(1768226010.206929) slcan0 7E8#27FFFFFFFFFFFFFF
(1768226010.212027) slcan0 7E8#28FFFFFFFFFFFFFF
(1768226010.212903) slcan0 7E8#29FFFFFFFFFFFFFF
(1768226010.214920) slcan0 7E8#2AFFFFFFFFFFFFFF
(1768226010.216935) slcan0 7E8#2BFFFFFFFFFFFFFF
(1768226010.223062) slcan0 7E8#2CFFFFFFFFFFFFFF
(1768226010.224944) slcan0 7E8#2DFFFFFFFFFFFFFF
(1768226010.226870) slcan0 7E8#2EFF000000000000
(1768226010.303758) slcan0 7E0#0221000000000000
(1768226010.307391) slcan0 7E8#10D2610000076100
(1768226010.307551) slcan0 7E0#3000000000000000
(1768226010.308784) slcan0 7E8#21FFFFFFFF36FFFF
(1768226010.312423) slcan0 7E8#22FFFFFFFF02FF83
(1768226010.312982) slcan0 7E8#2378FFFF7CFF07E5
(1768226010.315132) slcan0 7E8#24FFFF80011A012C
(1768226010.316790) slcan0 7E8#25FFFF341740BC01
(1768226010.323167) slcan0 7E8#26E3002A42206100
(1768226010.325062) slcan0 7E8#27FF0C027CFFFFFF
(1768226010.326939) slcan0 7E8#28FFFFFFFFFF6E2A
(1768226010.332398) slcan0 7E8#29D52613001616FF
(1768226010.332977) slcan0 7E8#2AFFFFFFFFFFFFFF
(1768226010.334918) slcan0 7E8#2BA9FFFFFFFFFFFF
(1768226010.337328) slcan0 7E8#2CFFFFFFFFFFFFFF
(1768226010.341685) slcan0 7E8#2DFFFFFFFFFFFFFF
(1768226010.342901) slcan0 7E8#2EFFFF377E6537FF
(1768226010.345133) slcan0 7E8#2FFFFFFFFF09FFFF
(1768226010.347001) slcan0 7E8#20FFFFFFFFFFFF19
(1768226010.353350) slcan0 7E8#2100FFFFFFFFA900
(1768226010.355056) slcan0 7E8#22FF00FF01FFFFFF
(1768226010.356893) slcan0 7E8#23FFFF008800FF02
(1768226010.362550) slcan0 7E8#2401FFFF00FFFFFF
(1768226010.362880) slcan0 7E8#251824FF61FFFFFF
(1768226010.365263) slcan0 7E8#26FFFFFFFFFFFFFF
(1768226010.366911) slcan0 7E8#27FFFFFFFFFFFFFF
(1768226010.372064) slcan0 7E8#28FFFFFFFFFFFFFF
(1768226010.372895) slcan0 7E8#29FFFFFFFFFFFFFF
(1768226010.375027) slcan0 7E8#2AFFFFFFFFFFFFFF
(1768226010.376897) slcan0 7E8#2BFFFFFFFFFFFFFF
(1768226010.381481) slcan0 7E8#2CFFFFFFFFFFFFFF
(1768226010.382907) slcan0 7E8#2DFFFFFFFFFFFFFF
(1768226010.385027) slcan0 7E8#2EFF000000000000
(1768226010.495704) slcan0 7E0#0221000000000000
(1768226010.497197) slcan0 7E8#10D2610000076100
(1768226010.497479) slcan0 7E0#3000000000000000
(1768226010.501608) slcan0 7E8#21FFFFFFFF36FFFF
(1768226010.502890) slcan0 7E8#22FFFFFFFF02FF82
(1768226010.505184) slcan0 7E8#2378FFFF7BFF080C
(1768226010.506865) slcan0 7E8#24FFFF800119012C
(1768226010.512361) slcan0 7E8#25FFFF34176ABC01
(1768226010.512939) slcan0 7E8#26E8002A42206100
(1768226010.514925) slcan0 7E8#27FF0C037CFFFFFF
(1768226010.516944) slcan0 7E8#28FFFFFFFFFF6E2A
(1768226010.524504) slcan0 7E8#29D52613001616FF
(1768226010.524968) slcan0 7E8#2AFFFFFFFFFFFFFF
(1768226010.526986) slcan0 7E8#2B9FFFFFFFFFFFFF
(1768226010.532031) slcan0 7E8#2CFFFFFFFFFFFFFF
(1768226010.532933) slcan0 7E8#2DFFFFFFFFFFFFFF
(1768226010.534910) slcan0 7E8#2EFFFF37F46537FF
(1768226010.537730) slcan0 7E8#2FFFFFFFFF09FFFF
(1768226010.541360) slcan0 7E8#20FFFFFFFFFFFF19
(1768226010.542894) slcan0 7E8#2100FFFFFFFFA900
(1768226010.544954) slcan0 7E8#22FF00FF01FFFFFF
(1768226010.546979) slcan0 7E8#23FFFF008800FF02
(1768226010.553220) slcan0 7E8#2401FFFF00FFFFFF
(1768226010.554877) slcan0 7E8#251824FF61FFFFFF
(1768226010.556895) slcan0 7E8#26FFFFFFFFFFFFFF
(1768226010.562613) slcan0 7E8#27FFFFFFFFFFFFFF
(1768226010.562804) slcan0 7E8#28FFFFFFFFFFFFFF
(1768226010.564900) slcan0 7E8#29FFFFFFFFFFFFFF
(1768226010.566897) slcan0 7E8#2AFFFFFFFFFFFFFF
(1768226010.572474) slcan0 7E8#2BFFFFFFFFFFFFFF
(1768226010.573018) slcan0 7E8#2CFFFFFFFFFFFFFF
(1768226010.574936) slcan0 7E8#2DFFFFFFFFFFFFFF
(1768226010.576821) slcan0 7E8#2EFF000000000000
(1768226010.675321) slcan0 7E0#0221000000000000
(1768226010.677123) slcan0 7E8#10D2610000076100
(1768226010.677434) slcan0 7E0#3000000000000000
(1768226010.678793) slcan0 7E8#21FFFFFFFF36FFFF
(1768226010.682003) slcan0 7E8#22FFFFFFFF02FF81
(1768226010.682709) slcan0 7E8#2378FFFF7AFF0794
(1768226010.684772) slcan0 7E8#24FFFF80012A012C
(1768226010.686712) slcan0 7E8#25FFFF341744BC01
(1768226010.691686) slcan0 7E8#26DA002A42206100
(1768226010.692765) slcan0 7E8#27FF0C027DFFFFFF
(1768226010.694792) slcan0 7E8#28FFFFFFFFFF6E2A
(1768226010.696758) slcan0 7E8#29D52613001516FF
(1768226010.701094) slcan0 7E8#2AFFFFFFFFFFFFFF
(1768226010.702780) slcan0 7E8#2B98FFFFFFFFFFFF
(1768226010.704790) slcan0 7E8#2CFFFFFFFFFFFFFF
(1768226010.706789) slcan0 7E8#2DFFFFFFFFFFFFFF
(1768226010.712048) slcan0 7E8#2EFFFF37376537FF
(1768226010.712786) slcan0 7E8#2FFFFFFFFF09FFFF
(1768226010.714926) slcan0 7E8#20FFFFFFFFFFFF19
(1768226010.716927) slcan0 7E8#2100FFFFFFFFA900
(1768226010.723089) slcan0 7E8#22FF00FF01FFFFFF
(1768226010.724875) slcan0 7E8#23FFFF008800FF02
(1768226010.726906) slcan0 7E8#2401FFFF00FFFFFF
(1768226010.732063) slcan0 7E8#251624FF61FFFFFF
(1768226010.732874) slcan0 7E8#26FFFFFFFFFFFFFF
(1768226010.735075) slcan0 7E8#27FFFFFFFFFFFFFF
(1768226010.736864) slcan0 7E8#28FFFFFFFFFFFFFF
(1768226010.741348) slcan0 7E8#29FFFFFFFFFFFFFF
(1768226010.742875) slcan0 7E8#2AFFFFFFFFFFFFFF
(1768226010.744806) slcan0 7E8#2BFFFFFFFFFFFFFF
(1768226010.746874) slcan0 7E8#2CFFFFFFFFFFFFFF
(1768226010.754605) slcan0 7E8#2DFFFFFFFFFFFFFF
(1768226010.754940) slcan0 7E8#2EFF000000000000
(1768226010.842583) slcan0 7E0#0221000000000000
(1768226010.847532) slcan0 7E8#10D2610000076100
(1768226010.847557) slcan0 7E0#3000000000000000
(1768226010.854540) slcan0 7E8#21FFFFFFFF36FFFF
(1768226010.854908) slcan0 7E8#22FFFFFFFF02FF81
(1768226010.856953) slcan0 7E8#2378FFFF79FF07E0
(1768226010.862514) slcan0 7E8#24FFFF800118012C
(1768226010.862951) slcan0 7E8#25FFFF36171EBC01
(1768226010.865024) slcan0 7E8#26DA002A42206100
(1768226010.866963) slcan0 7E8#27FF0C037DFFFFFF
(1768226010.872573) slcan0 7E8#28FFFFFFFFFF6E2A
(1768226010.872857) slcan0 7E8#29D52613001616FF
(1768226010.874891) slcan0 7E8#2AFFFFFFFFFFFFFF
(1768226010.876960) slcan0 7E8#2B3BFFFFFFFFFFFF
(1768226010.881943) slcan0 7E8#2CFFFFFFFFFFFFFF
(1768226010.883001) slcan0 7E8#2DFFFFFFFFFFFFFF
(1768226010.885043) slcan0 7E8#2EFFFF37AD6537FF
(1768226010.887078) slcan0 7E8#2FFFFFFFFF09FFFF
(1768226010.891635) slcan0 7E8#20FFFFFFFFFFFF19
(1768226010.892958) slcan0 7E8#2100FFFFFFFFA900
(1768226010.895021) slcan0 7E8#22FF00FF01FFFFFF
(1768226010.896918) slcan0 7E8#23FFFF008800FF02
(1768226010.901464) slcan0 7E8#2401FFFF00FFFFFF
(1768226010.902959) slcan0 7E8#251824FF61FFFFFF
(1768226010.905102) slcan0 7E8#26FFFFFFFFFFFFFF
(1768226010.906963) slcan0 7E8#27FFFFFFFFFFFFFF
(1768226010.912179) slcan0 7E8#28FFFFFFFFFFFFFF
(1768226010.912989) slcan0 7E8#29FFFFFFFFFFFFFF
(1768226010.914861) slcan0 7E8#2AFFFFFFFFFFFFFF
(1768226010.917009) slcan0 7E8#2BFFFFFFFFFFFFFF
(1768226010.923178) slcan0 7E8#2CFFFFFFFFFFFFFF
(1768226010.924961) slcan0 7E8#2DFFFFFFFFFFFFFF
(1768226010.926876) slcan0 7E8#2EFF000000000000
(1768226011.014331) slcan0 7E0#0221000000000000
(1768226011.017275) slcan0 7E8#10D2610000076100
(1768226011.017376) slcan0 7E0#3000000000000000
(1768226011.026973) slcan0 7E8#21FFFFFFFF36FFFF
(1768226011.032175) slcan0 7E8#22FFFFFFFF02FF81
(1768226011.032986) slcan0 7E8#2378FFFF79FF07FF
(1768226011.034916) slcan0 7E8#24FFFF800120012C
(1768226011.036885) slcan0 7E8#25FFFF3716F8BC01
(1768226011.042367) slcan0 7E8#26E6002A42206100
(1768226011.042873) slcan0 7E8#27FF0C027CFFFFFF
(1768226011.044961) slcan0 7E8#28FFFFFFFFFF6D2A
(1768226011.046960) slcan0 7E8#29D52613001615FF
(1768226011.054461) slcan0 7E8#2AFFFFFFFFFFFFFF
(1768226011.054815) slcan0 7E8#2B27FFFFFFFFFFFF
(1768226011.056904) slcan0 7E8#2CFFFFFFFFFFFFFF
(1768226011.062904) slcan0 7E8#2DFFFFFFFFFFFFFF
(1768226011.064930) slcan0 7E8#2EFFFF37376537FF
(1768226011.066963) slcan0 7E8#2FFFFFFFFF09FFFF
(1768226011.072175) slcan0 7E8#20FFFFFFFFFFFF19
(1768226011.072892) slcan0 7E8#2100FFFFFFFFA900
(1768226011.074908) slcan0 7E8#22FF00FF01FFFFFF
(1768226011.076760) slcan0 7E8#23FFFF008800FF02
(1768226011.082151) slcan0 7E8#2401FFFF00FFFFFF
(1768226011.082855) slcan0 7E8#251724FF61FFFFFF
(1768226011.084808) slcan0 7E8#26FFFFFFFFFFFFFF
(1768226011.086882) slcan0 7E8#27FFFFFFFFFFFFFF
(1768226011.091619) slcan0 7E8#28FFFFFFFFFFFFFF
(1768226011.092918) slcan0 7E8#29FFFFFFFFFFFFFF
(1768226011.094862) slcan0 7E8#2AFFFFFFFFFFFFFF
(1768226011.096810) slcan0 7E8#2BFFFFFFFFFFFFFF
(1768226011.101353) slcan0 7E8#2CFFFFFFFFFFFFFF
(1768226011.102741) slcan0 7E8#2DFFFFFFFFFFFFFF
(1768226011.104817) slcan0 7E8#2EFF000000000000
(1768226011.209225) slcan0 7E0#0221000000000000
(1768226011.217194) slcan0 7E8#10D2610000076100
(1768226011.217408) slcan0 7E0#3000000000000000
(1768226011.218854) slcan0 7E8#21FFFFFFFF36FFFF
(1768226011.224651) slcan0 7E8#22FFFFFFFF02FF84
(1768226011.226821) slcan0 7E8#2378FFFF7CFF0833
(1768226011.232342) slcan0 7E8#24FFFF800127012C
(1768226011.232834) slcan0 7E8#25FFFF361720BC01
(1768226011.234818) slcan0 7E8#26E6002A42206100
(1768226011.236740) slcan0 7E8#27FF0C037EFFFFFF
(1768226011.242472) slcan0 7E8#28FFFFFFFFFF6D2A
(1768226011.242805) slcan0 7E8#29D52613001515FF
(1768226011.244770) slcan0 7E8#2AFFFFFFFFFFFFFF
(1768226011.246734) slcan0 7E8#2B28FFFFFFFFFFFF
(1768226011.254464) slcan0 7E8#2CFFFFFFFFFFFFFF
(1768226011.254835) slcan0 7E8#2DFFFFFFFFFFFFFF
(1768226011.256838) slcan0 7E8#2EFFFF37C56537FF
(1768226011.263066) slcan0 7E8#2FFFFFFFFF09FFFF
(1768226011.264823) slcan0 7E8#20FFFFFFFFFFFF19
(1768226011.266835) slcan0 7E8#2100FFFFFFFFA900
(1768226011.272074) slcan0 7E8#22FF00FF01FFFFFF
(1768226011.272711) slcan0 7E8#23FFFF008800FF02
(1768226011.274744) slcan0 7E8#2401FFFF00FFFFFF
(1768226011.276847) slcan0 7E8#251624FF61FFFFFF
(1768226011.281918) slcan0 7E8#26FFFFFFFFFFFFFF
(1768226011.282809) slcan0 7E8#27FFFFFFFFFFFFFF
(1768226011.284825) slcan0 7E8#28FFFFFFFFFFFFFF
(1768226011.286866) slcan0 7E8#29FFFFFFFFFFFFFF
(1768226011.291689) slcan0 7E8#2AFFFFFFFFFFFFFF
(1768226011.292858) slcan0 7E8#2BFFFFFFFFFFFFFF
(1768226011.294744) slcan0 7E8#2CFFFFFFFFFFFFFF
(1768226011.296745) slcan0 7E8#2DFFFFFFFFFFFFFF
(1768226011.301505) slcan0 7E8#2EFF000000000000
(1768226011.408208) slcan0 7E0#0221000000000000
(1768226011.417217) slcan0 7E8#10D2610000076100
(1768226011.417399) slcan0 7E0#3000000000000000
(1768226011.424750) slcan0 7E8#21FFFFFFFF36FFFF
(1768226011.426863) slcan0 7E8#22FFFFFFFF02FF85
(1768226011.432033) slcan0 7E8#2378FFFF7DFF07BE
(1768226011.432870) slcan0 7E8#24FFFF800119012C
(1768226011.434892) slcan0 7E8#25FFFF3716F8BC01
(1768226011.436870) slcan0 7E8#26CF002A42206100
(1768226011.442974) slcan0 7E8#27FF0C027DFFFFFF
(1768226011.444883) slcan0 7E8#28FFFFFFFFFF6D2A
(1768226011.446864) slcan0 7E8#29D52613001516FF
(1768226011.453395) slcan0 7E8#2AFFFFFFFFFFFFFF
(1768226011.454916) slcan0 7E8#2B2EFFFFFFFFFFFF
(1768226011.456888) slcan0 7E8#2CFFFFFFFFFFFFFF
(1768226011.462698) slcan0 7E8#2DFFFFFFFFFFFFFF
(1768226011.464855) slcan0 7E8#2EFFFF36F16537FF
(1768226011.466898) slcan0 7E8#2FFFFFFFFF09FFFF
(1768226011.472612) slcan0 7E8#20FFFFFFFFFFFF19
(1768226011.472858) slcan0 7E8#2100FFFFFFFFA900
(1768226011.474887) slcan0 7E8#22FF00FF01FFFFFF
(1768226011.476874) slcan0 7E8#23FFFF008800FF02
(1768226011.482098) slcan0 7E8#2401FFFF00FFFFFF
(1768226011.482871) slcan0 7E8#251824FF61FFFFFF
(1768226011.484853) slcan0 7E8#26FFFFFFFFFFFFFF
(1768226011.486892) slcan0 7E8#27FFFFFFFFFFFFFF
(1768226011.491700) slcan0 7E8#28FFFFFFFFFFFFFF
(1768226011.492979) slcan0 7E8#29FFFFFFFFFFFFFF
(1768226011.494954) slcan0 7E8#2AFFFFFFFFFFFFFF
(1768226011.496868) slcan0 7E8#2BFFFFFFFFFFFFFF
(1768226011.501977) slcan0 7E8#2CFFFFFFFFFFFFFF
(1768226011.502908) slcan0 7E8#2DFFFFFFFFFFFFFF
(1768226011.504970) slcan0 7E8#2EFF000000000000
(1768226011.601996) slcan0 7E0#0221000000000000
(1768226011.607229) slcan0 7E8#10D2610000076100
(1768226011.607400) slcan0 7E0#3000000000000000
(1768226011.612337) slcan0 7E8#21FFFFFFFF36FFFF
(1768226011.612827) slcan0 7E8#22FFFFFFFF02FF87
(1768226011.614840) slcan0 7E8#2378FFFF7EFF0869
(1768226011.616828) slcan0 7E8#24FFFF80011C012C
(1768226011.624680) slcan0 7E8#25FFFF36171CBC01
(1768226011.626804) slcan0 7E8#26F1002A42206100
(1768226011.632091) slcan0 7E8#27FF0C037CFFFFFF
(1768226011.632831) slcan0 7E8#28FFFFFFFFFF6E2A
(1768226011.634795) slcan0 7E8#29D52613001516FF
(1768226011.636833) slcan0 7E8#2AFFFFFFFFFFFFFF
(1768226011.641344) slcan0 7E8#2B2FFFFFFFFFFFFF
(1768226011.642874) slcan0 7E8#2CFFFFFFFFFFFFFF
(1768226011.644867) slcan0 7E8#2DFFFFFFFFFFFFFF
(1768226011.646836) slcan0 7E8#2EFFFF37956537FF
(1768226011.654389) slcan0 7E8#2FFFFFFFFF09FFFF
(1768226011.654837) slcan0 7E8#20FFFFFFFFFFFF19
(1768226011.656789) slcan0 7E8#2100FFFFFFFFA900
(1768226011.662865) slcan0 7E8#22FF00FF01FFFFFF
(1768226011.664761) slcan0 7E8#23FFFF008800FF02
(1768226011.666694) slcan0 7E8#2401FFFF00FFFFFF
(1768226011.671935) slcan0 7E8#251824FF61FFFFFF
(1768226011.672742) slcan0 7E8#26FFFFFFFFFFFFFF
(1768226011.674744) slcan0 7E8#27FFFFFFFFFFFFFF
(1768226011.676740) slcan0 7E8#28FFFFFFFFFFFFFF
(1768226011.682191) slcan0 7E8#29FFFFFFFFFFFFFF
(1768226011.682721) slcan0 7E8#2AFFFFFFFFFFFFFF
(1768226011.684775) slcan0 7E8#2BFFFFFFFFFFFFFF
(1768226011.686693) slcan0 7E8#2CFFFFFFFFFFFFFF
(1768226011.691382) slcan0 7E8#2DFFFFFFFFFFFFFF
(1768226011.692742) slcan0 7E8#2EFF000000000000
(1768226011.793971) slcan0 7E0#0221000000000000
(1768226011.797165) slcan0 7E8#10D2610000076100
(1768226011.797453) slcan0 7E0#3000000000000000
(1768226011.801545) slcan0 7E8#21FFFFFFFF36FFFF
(1768226011.802814) slcan0 7E8#22FFFFFFFF02FF85
(1768226011.804859) slcan0 7E8#2378FFFF7FFF0855
(1768226011.806777) slcan0 7E8#24FFFF800117012C
(1768226011.812032) slcan0 7E8#25FFFF351732BC01
(1768226011.812923) slcan0 7E8#26DA002A42206100
(1768226011.814855) slcan0 7E8#27FF0C027CFFFFFF
(1768226011.816936) slcan0 7E8#28FFFFFFFFFF6E2A
(1768226011.823223) slcan0 7E8#29D52613001516FF
(1768226011.824771) slcan0 7E8#2AFFFFFFFFFFFFFF
(1768226011.826861) slcan0 7E8#2B94FFFFFFFFFFFF
(1768226011.832369) slcan0 7E8#2CFFFFFFFFFFFFFF
(1768226011.832756) slcan0 7E8#2DFFFFFFFFFFFFFF
(1768226011.834951) slcan0 7E8#2EFFFF37DC6537FF
(1768226011.836925) slcan0 7E8#2FFFFFFFFF09FFFF
(1768226011.841293) slcan0 7E8#20FFFFFFFFFFFF19
(1768226011.842893) slcan0 7E8#2100FFFFFFFFA900
(1768226011.845037) slcan0 7E8#22FF00FF01FFFFFF
(1768226011.846855) slcan0 7E8#23FFFF008800FF02
(1768226011.853112) slcan0 7E8#2401FFFF00FFFFFF
(1768226011.854899) slcan0 7E8#251824FF61FFFFFF
(1768226011.856946) slcan0 7E8#26FFFFFFFFFFFFFF
(1768226011.863148) slcan0 7E8#27FFFFFFFFFFFFFF
(1768226011.864927) slcan0 7E8#28FFFFFFFFFFFFFF
(1768226011.866955) slcan0 7E8#29FFFFFFFFFFFFFF
(1768226011.872341) slcan0 7E8#2AFFFFFFFFFFFFFF
(1768226011.872874) slcan0 7E8#2BFFFFFFFFFFFFFF
(1768226011.874751) slcan0 7E8#2CFFFFFFFFFFFFFF
(1768226011.876844) slcan0 7E8#2DFFFFFFFFFFFFFF
(1768226011.881388) slcan0 7E8#2EFF000000000000
(1768226011.969814) slcan0 7E0#0221000000000000
(1768226011.977143) slcan0 7E8#10D2610000076100
(1768226011.977481) slcan0 7E0#3000000000000000
(1768226011.978945) slcan0 7E8#21FFFFFFFF36FFFF
(1768226011.982155) slcan0 7E8#22FFFFFFFF02FF84
(1768226011.982872) slcan0 7E8#2378FFFF7CFF07CD
(1768226011.984954) slcan0 7E8#24FFFF800129012C
(1768226011.986926) slcan0 7E8#25FFFF351732BC01
(1768226011.991687) slcan0 7E8#26DD002A42206100
(1768226011.992920) slcan0 7E8#27FF0C027DFFFFFF
(1768226011.994856) slcan0 7E8#28FFFFFFFFFF6E2A
(1768226011.996842) slcan0 7E8#29D52613001516FF
(1768226012.001211) slcan0 7E8#2AFFFFFFFFFFFFFF
(1768226012.002825) slcan0 7E8#2BA6FFFFFFFFFFFF
(1768226012.004822) slcan0 7E8#2CFFFFFFFFFFFFFF
(1768226012.006744) slcan0 7E8#2DFFFFFFFFFFFFFF
(1768226012.012322) slcan0 7E8#2EFFFF36F16537FF
(1768226012.012838) slcan0 7E8#2FFFFFFFFF09FFFF
(1768226012.014886) slcan0 7E8#20FFFFFFFFFFFF19
(1768226012.016847) slcan0 7E8#2100FFFFFFFFA900
(1768226012.023108) slcan0 7E8#22FF00FF01FFFFFF
(1768226012.024743) slcan0 7E8#23FFFF008800FF02
(1768226012.026783) slcan0 7E8#2401FFFF00FFFFFF
(1768226012.032027) slcan0 7E8#251624FF61FFFFFF
(1768226012.032871) slcan0 7E8#26FFFFFFFFFFFFFF
(1768226012.034913) slcan0 7E8#27FFFFFFFFFFFFFF
(1768226012.036929) slcan0 7E8#28FFFFFFFFFFFFFF
(1768226012.041409) slcan0 7E8#29FFFFFFFFFFFFFF
(1768226012.042783) slcan0 7E8#2AFFFFFFFFFFFFFF
(1768226012.046142) slcan0 7E8#2BFFFFFFFFFFFFFF
(1768226012.046951) slcan0 7E8#2CFFFFFFFFFFFFFF
(1768226012.053175) slcan0 7E8#2DFFFFFFFFFFFFFF
(1768226012.054955) slcan0 7E8#2EFF000000000000
(1768226012.161876) slcan0 7E0#0221000000000000
(1768226012.167332) slcan0 7E8#10D2610000076100
(1768226012.167601) slcan0 7E0#3000000000000000
(1768226012.168898) slcan0 7E8#21FFFFFFFF36FFFF
(1768226012.172577) slcan0 7E8#22FFFFFFFF02FF83
(1768226012.174989) slcan0 7E8#2378FFFF7BFF07DF
(1768226012.176857) slcan0 7E8#24FFFF800124012C
(1768226012.181330) slcan0 7E8#25FFFF341752BC01
(1768226012.182810) slcan0 7E8#26DA002A42206100
(1768226012.184837) slcan0 7E8#27FF0C037CFFFFFF
(1768226012.186781) slcan0 7E8#28FFFFFFFFFF6E2A
(1768226012.191888) slcan0 7E8#29D52613001516FF
(1768226012.192828) slcan0 7E8#2AFFFFFFFFFFFFFF
(1768226012.194825) slcan0 7E8#2B9DFFFFFFFFFFFF
(1768226012.196927) slcan0 7E8#2CFFFFFFFFFFFFFF
(1768226012.201241) slcan0 7E8#2DFFFFFFFFFFFFFF
(1768226012.202917) slcan0 7E8#2EFFFF37DC6437FF
(1768226012.204941) slcan0 7E8#2FFFFFFFFF09FFFF
(1768226012.206790) slcan0 7E8#20FFFFFFFFFFFF19
(1768226012.211912) slcan0 7E8#2100FFFFFFFFA900
(1768226012.212888) slcan0 7E8#22FF00FF01FFFFFF
(1768226012.215144) slcan0 7E8#23FFFF008800FF02
(1768226012.216865) slcan0 7E8#2401FFFF00FFFFFF
(1768226012.223198) slcan0 7E8#251724FF61FFFFFF
(1768226012.225768) slcan0 7E8#26FFFFFFFFFFFFFF
(1768226012.226847) slcan0 7E8#27FFFFFFFFFFFFFF
(1768226012.232223) slcan0 7E8#28FFFFFFFFFFFFFF
(1768226012.232878) slcan0 7E8#29FFFFFFFFFFFFFF
(1768226012.234983) slcan0 7E8#2AFFFFFFFFFFFFFF
(1768226012.236755) slcan0 7E8#2BFFFFFFFFFFFFFF
(1768226012.241586) slcan0 7E8#2CFFFFFFFFFFFFFF
(1768226012.242862) slcan0 7E8#2DFFFFFFFFFFFFFF
(1768226012.245182) slcan0 7E8#2EFF000000000000
(1768226012.340869) slcan0 7E0#0221000000000000
(1768226012.347295) slcan0 7E8#10D2610000076100
(1768226012.347613) slcan0 7E0#3000000000000000
(1768226012.348897) slcan0 7E8#21FFFFFFFF36FFFF
(1768226012.354700) slcan0 7E8#22FFFFFFFF02FF82
(1768226012.356997) slcan0 7E8#2378FFFF7AFF07A8
(1768226012.362759) slcan0 7E8#24FFFF810124012C
(1768226012.365350) slcan0 7E8#25FFFF351734BC01
(1768226012.367252) slcan0 7E8#26D8002A42206100
(1768226012.372347) slcan0 7E8#27FF0C027CFFFFFF
(1768226012.372764) slcan0 7E8#28FFFFFFFFFF6E2A
(1768226012.374841) slcan0 7E8#29D52613001516FF
(1768226012.376935) slcan0 7E8#2AFFFFFFFFFFFFFF
(1768226012.381571) slcan0 7E8#2B90FFFFFFFFFFFF
(1768226012.382903) slcan0 7E8#2CFFFFFFFFFFFFFF
(1768226012.384909) slcan0 7E8#2DFFFFFFFFFFFFFF
(1768226012.386924) slcan0 7E8#2EFFFF374F6537FF
(1768226012.391676) slcan0 7E8#2FFFFFFFFF09FFFF
(1768226012.392894) slcan0 7E8#20FFFFFFFFFFFF19
(1768226012.394859) slcan0 7E8#2100FFFFFFFFA900
(1768226012.397083) slcan0 7E8#22FF00FF01FFFFFF
(1768226012.401371) slcan0 7E8#23FFFF008800FF02
(1768226012.402940) slcan0 7E8#2401FFFF00FFFFFF
(1768226012.405985) slcan0 7E8#251724FF61FFFFFF
(1768226012.406944) slcan0 7E8#26FFFFFFFFFFFFFF
(1768226012.412231) slcan0 7E8#27FFFFFFFFFFFFFF
(1768226012.412707) slcan0 7E8#28FFFFFFFFFFFFFF
(1768226012.414762) slcan0 7E8#29FFFFFFFFFFFFFF
(1768226012.416963) slcan0 7E8#2AFFFFFFFFFFFFFF
(1768226012.423071) slcan0 7E8#2BFFFFFFFFFFFFFF
(1768226012.424855) slcan0 7E8#2CFFFFFFFFFFFFFF
(1768226012.427335) slcan0 7E8#2DFFFFFFFFFFFFFF
(1768226012.432346) slcan0 7E8#2EFF000000000000
(1768226012.531760) slcan0 7E0#0221000000000000
(1768226012.537244) slcan0 7E8#10D2610000076100
(1768226012.537514) slcan0 7E0#3000000000000000
(1768226012.541617) slcan0 7E8#21FFFFFFFF36FFFF
(1768226012.542937) slcan0 7E8#22FFFFFFFF02FF82
(1768226012.544902) slcan0 7E8#2378FFFF7AFF07E8
(1768226012.546915) slcan0 7E8#24FFFF800127012C
(1768226012.554684) slcan0 7E8#25FFFF35171EBC01
(1768226012.556904) slcan0 7E8#26E3002A42206100
(1768226012.562754) slcan0 7E8#27FF0C037DFFFFFF
(1768226012.564822) slcan0 7E8#28FFFFFFFFFF6E2A
(1768226012.566955) slcan0 7E8#29D52613001516FF
(1768226012.572174) slcan0 7E8#2AFFFFFFFFFFFFFF
(1768226012.572796) slcan0 7E8#2B2AFFFFFFFFFFFF
(1768226012.574915) slcan0 7E8#2CFFFFFFFFFFFFFF
(1768226012.576808) slcan0 7E8#2DFFFFFFFFFFFFFF
(1768226012.581370) slcan0 7E8#2EFFFF37956537FF
(1768226012.582875) slcan0 7E8#2FFFFFFFFF09FFFF
(1768226012.584912) slcan0 7E8#20FFFFFFFFFFFF19
(1768226012.586807) slcan0 7E8#2100FFFFFFFFA900
(1768226012.591630) slcan0 7E8#22FF00FF01FFFFFF
(1768226012.592808) slcan0 7E8#23FFFF008800FF02
(1768226012.594921) slcan0 7E8#2401FFFF00FFFFFF
(1768226012.596873) slcan0 7E8#251624FF61FFFFFF
(1768226012.601486) slcan0 7E8#26FFFFFFFFFFFFFF
(1768226012.602936) slcan0 7E8#27FFFFFFFFFFFFFF
(1768226012.604962) slcan0 7E8#28FFFFFFFFFFFFFF
(1768226012.606795) slcan0 7E8#29FFFFFFFFFFFFFF
(1768226012.612165) slcan0 7E8#2AFFFFFFFFFFFFFF
(1768226012.612884) slcan0 7E8#2BFFFFFFFFFFFFFF
(1768226012.614817) slcan0 7E8#2CFFFFFFFFFFFFFF
(1768226012.616896) slcan0 7E8#2DFFFFFFFFFFFFFF
(1768226012.624227) slcan0 7E8#2EFF000000000000
(1768226012.708850) slcan0 7E0#041800FF00000000
(1768226012.716832) slcan0 7E8#0258000000000000
(1768226012.836818) slcan0 7E0#0221000000000000
(1768226012.848341) slcan0 7E8#10D2610000076100
(1768226012.848673) slcan0 7E0#3000000000000000
(1768226012.856842) slcan0 7E8#21FFFFFFFF36FFFF
(1768226012.862648) slcan0 7E8#22FFFFFFFF02FF85
(1768226012.864732) slcan0 7E8#2378FFFF7DFF07EB
(1768226012.866731) slcan0 7E8#24FFFF810119012C
(1768226012.872176) slcan0 7E8#25FFFF36170ABC01
(1768226012.872785) slcan0 7E8#26E8002A42216100
(1768226012.874690) slcan0 7E8#27FF0C037CFFFFFF
(1768226012.876728) slcan0 7E8#28FFFFFFFFFF6D2A
(1768226012.881235) slcan0 7E8#29D52613001515FF
(1768226012.882703) slcan0 7E8#2AFFFFFFFFFFFFFF
(1768226012.884871) slcan0 7E8#2B27FFFFFFFFFFFF
(1768226012.886658) slcan0 7E8#2CFFFFFFFFFFFFFF
(1768226012.891353) slcan0 7E8#2DFFFFFFFFFFFFFF
(1768226012.892733) slcan0 7E8#2EFFFF37AD6537FF
(1768226012.894697) slcan0 7E8#2FFFFFFFFF09FFFF
(1768226012.896691) slcan0 7E8#20FFFFFFFFFFFF19
(1768226012.901229) slcan0 7E8#2100FFFFFFFFA900
(1768226012.902759) slcan0 7E8#22FF00FF01FFFFFF
(1768226012.904763) slcan0 7E8#23FFFF008800FF02
(1768226012.906818) slcan0 7E8#2401FFFF00FFFFFF
(1768226012.912298) slcan0 7E8#251824FF61FFFFFF
(1768226012.912839) slcan0 7E8#26FFFFFFFFFFFFFF
(1768226012.914805) slcan0 7E8#27FFFFFFFFFFFFFF
(1768226012.916785) slcan0 7E8#28FFFFFFFFFFFFFF
(1768226012.924399) slcan0 7E8#29FFFFFFFFFFFFFF
(1768226012.924796) slcan0 7E8#2AFFFFFFFFFFFFFF
(1768226012.926751) slcan0 7E8#2BFFFFFFFFFFFFFF
(1768226012.932067) slcan0 7E8#2CFFFFFFFFFFFFFF
(1768226012.932776) slcan0 7E8#2DFFFFFFFFFFFFFF
(1768226012.934814) slcan0 7E8#2EFF000000000000
(1768226013.062807) slcan0 7E0#0221000000000000
(1768226013.067171) slcan0 7E8#10D2610000076100
(1768226013.067345) slcan0 7E0#3000000000000000
(1768226013.072398) slcan0 7E8#21FFFFFFFF36FFFF
(1768226013.072784) slcan0 7E8#22FFFFFFFF02FF86
(1768226013.074847) slcan0 7E8#2378FFFF7EFF07C7
(1768226013.076854) slcan0 7E8#24FFFF81011F012C
(1768226013.081204) slcan0 7E8#25FFFF351716BC01
(1768226013.082700) slcan0 7E8#26D5002942206100
(1768226013.084637) slcan0 7E8#27FF0C037CFFFFFF
(1768226013.086918) slcan0 7E8#28FFFFFFFFFF6D2A
(1768226013.091651) slcan0 7E8#29D52613001515FF
(1768226013.092627) slcan0 7E8#2AFFFFFFFFFFFFFF
(1768226013.094629) slcan0 7E8#2B2CFFFFFFFFFFFF
(1768226013.096657) slcan0 7E8#2CFFFFFFFFFFFFFF
(1768226013.101063) slcan0 7E8#2DFFFFFFFFFFFFFF
(1768226013.102750) slcan0 7E8#2EFFFF383A6437FF
(1768226013.104735) slcan0 7E8#2FFFFFFFFF09FFFF
(1768226013.106751) slcan0 7E8#20FFFFFFFFFFFF19
(1768226013.112258) slcan0 7E8#2100FFFFFFFFA900
(1768226013.112759) slcan0 7E8#22FF00FF01FFFFFF
(1768226013.114683) slcan0 7E8#23FFFF008800FF02
(1768226013.116826) slcan0 7E8#2401FFFF00FFFFFF
(1768226013.123099) slcan0 7E8#251724FF61FFFFFF
(1768226013.124625) slcan0 7E8#26FFFFFFFFFFFFFF
(1768226013.126662) slcan0 7E8#27FFFFFFFFFFFFFF
(1768226013.132640) slcan0 7E8#28FFFFFFFFFFFFFF
(1768226013.134731) slcan0 7E8#29FFFFFFFFFFFFFF
(1768226013.136819) slcan0 7E8#2AFFFFFFFFFFFFFF
(1768226013.141638) slcan0 7E8#2BFFFFFFFFFFFFFF
(1768226013.142812) slcan0 7E8#2CFFFFFFFFFFFFFF
(1768226013.144899) slcan0 7E8#2DFFFFFFFFFFFFFF
(1768226013.146866) slcan0 7E8#2EFF000000000000
(1768226013.240754) slcan0 7E0#0221000000000000
(1768226013.247475) slcan0 7E8#10D2610000076100
(1768226013.247499) slcan0 7E0#3000000000000000
(1768226013.256193) slcan0 7E8#21FFFFFFFF36FFFF
(1768226013.256799) slcan0 7E8#22FFFFFFFF02FF85
(1768226013.262475) slcan0 7E8#2378FFFF7DFF07F8
(1768226013.262766) slcan0 7E8#24FFFF810125012C
(1768226013.264842) slcan0 7E8#25FFFF35172CBC01
(1768226013.266889) slcan0 7E8#26D2002942206100
(1768226013.272620) slcan0 7E8#27FF0C027CFFFFFF
(1768226013.274830) slcan0 7E8#28FFFFFFFFFF6D2A
(1768226013.276801) slcan0 7E8#29D52613001515FF
(1768226013.281826) slcan0 7E8#2AFFFFFFFFFFFFFF
(1768226013.282882) slcan0 7E8#2B9CFFFFFFFFFFFF
(1768226013.284943) slcan0 7E8#2CFFFFFFFFFFFFFF
(1768226013.286854) slcan0 7E8#2DFFFFFFFFFFFFFF
(1768226013.291782) slcan0 7E8#2EFFFF37376537FF
(1768226013.292869) slcan0 7E8#2FFFFFFFFF09FFFF
(1768226013.294812) slcan0 7E8#20FFFFFFFFFFFF19
(1768226013.296841) slcan0 7E8#2100FFFFFFFFA900
(1768226013.301171) slcan0 7E8#22FF00FF01FFFFFF
(1768226013.303037) slcan0 7E8#23FFFF008800FF02
(1768226013.304864) slcan0 7E8#2401FFFF00FFFFFF
(1768226013.306794) slcan0 7E8#251624FF61FFFFFF
(1768226013.312790) slcan0 7E8#26FFFFFFFFFFFFFF
(1768226013.314783) slcan0 7E8#27FFFFFFFFFFFFFF
(1768226013.316744) slcan0 7E8#28FFFFFFFFFFFFFF
(1768226013.323322) slcan0 7E8#29FFFFFFFFFFFFFF
(1768226013.324847) slcan0 7E8#2AFFFFFFFFFFFFFF
(1768226013.326858) slcan0 7E8#2BFFFFFFFFFFFFFF
(1768226013.332717) slcan0 7E8#2CFFFFFFFFFFFFFF
(1768226013.334889) slcan0 7E8#2DFFFFFFFFFFFFFF
(1768226013.336946) slcan0 7E8#2EFF000000000000
(1768226013.441748) slcan0 7E0#0221000000000000
(1768226013.447210) slcan0 7E8#10D2610000076100
(1768226013.447437) slcan0 7E0#3000000000000000
(1768226013.455901) slcan0 7E8#21FFFFFFFF36FFFF
(1768226013.456938) slcan0 7E8#22FFFFFFFF02FF84
(1768226013.462760) slcan0 7E8#2378FFFF7CFF080D
(1768226013.464835) slcan0 7E8#24FFFF810119012C
(1768226013.466900) slcan0 7E8#25FFFF35172ABC01
(1768226013.472654) slcan0 7E8#26EB002942216100
(1768226013.472788) slcan0 7E8#27FF0C037DFFFFFF
(1768226013.474787) slcan0 7E8#28FFFFFFFFFF6D2A
(1768226013.476744) slcan0 7E8#29D52613001515FF
(1768226013.481286) slcan0 7E8#2AFFFFFFFFFFFFFF
(1768226013.482981) slcan0 7E8#2BA4FFFFFFFFFFFF
(1768226013.484628) slcan0 7E8#2CFFFFFFFFFFFFFF
(1768226013.486674) slcan0 7E8#2DFFFFFFFFFFFFFF
(1768226013.492347) slcan0 7E8#2EFFFF37DC6437FF
(1768226013.492626) slcan0 7E8#2FFFFFFFFF09FFFF
(1768226013.494647) slcan0 7E8#20FFFFFFFFFFFF19
(1768226013.496625) slcan0 7E8#2100FFFFFFFFA900
(1768226013.500956) slcan0 7E8#22FF00FF01FFFFFF
(1768226013.502806) slcan0 7E8#23FFFF008800FF02
(1768226013.504801) slcan0 7E8#2401FFFF00FFFFFF
(1768226013.506819) slcan0 7E8#251724FF61FFFFFF
(1768226013.512507) slcan0 7E8#26FFFFFFFFFFFFFF
(1768226013.512651) slcan0 7E8#27FFFFFFFFFFFFFF
(1768226013.514785) slcan0 7E8#28FFFFFFFFFFFFFF
(1768226013.516648) slcan0 7E8#29FFFFFFFFFFFFFF
(1768226013.524402) slcan0 7E8#2AFFFFFFFFFFFFFF
(1768226013.524803) slcan0 7E8#2BFFFFFFFFFFFFFF
(1768226013.526788) slcan0 7E8#2CFFFFFFFFFFFFFF
(1768226013.532280) slcan0 7E8#2DFFFFFFFFFFFFFF
(1768226013.532758) slcan0 7E8#2EFF000000000000
(1768226013.623508) slcan0 7E0#0221000000000000
(1768226013.627107) slcan0 7E8#10D2610000076100
(1768226013.627516) slcan0 7E0#3000000000000000
(1768226013.628777) slcan0 7E8#21FFFFFFFF36FFFF
(1768226013.632856) slcan0 7E8#22FFFFFFFF02FF83
(1768226013.634639) slcan0 7E8#2378FFFF7BFF07BB
(1768226013.636598) slcan0 7E8#24FFFF80012A012C
(1768226013.641346) slcan0 7E8#25FFFF361702BC01
(1768226013.642602) slcan0 7E8#26E0002942216100
(1768226013.644646) slcan0 7E8#27FF0C027CFFFFFF
(1768226013.646665) slcan0 7E8#28FFFFFFFFFF6D2A
(1768226013.655459) slcan0 7E8#29D52613001515FF
(1768226013.656716) slcan0 7E8#2AFFFFFFFFFFFFFF
(1768226013.662407) slcan0 7E8#2B7AFFFFFFFFFFFF
(1768226013.662673) slcan0 7E8#2CFFFFFFFFFFFFFF
(1768226013.664705) slcan0 7E8#2DFFFFFFFFFFFFFF
(1768226013.666660) slcan0 7E8#2EFFFF36AA6537FF
(1768226013.672664) slcan0 7E8#2FFFFFFFFF09FFFF
(1768226013.674700) slcan0 7E8#20FFFFFFFFFFFF19
(1768226013.676781) slcan0 7E8#2100FFFFFFFFA900
(1768226013.681325) slcan0 7E8#22FF00FF01FFFFFF
(1768226013.682765) slcan0 7E8#23FFFF008800FF02
(1768226013.684797) slcan0 7E8#2401FFFF00FFFFFF
(1768226013.686818) slcan0 7E8#251624FF61FFFFFF
(1768226013.692019) slcan0 7E8#26FFFFFFFFFFFFFF
(1768226013.692791) slcan0 7E8#27FFFFFFFFFFFFFF
(1768226013.694879) slcan0 7E8#28FFFFFFFFFFFFFF
(1768226013.696926) slcan0 7E8#29FFFFFFFFFFFFFF
(1768226013.701194) slcan0 7E8#2AFFFFFFFFFFFFFF
(1768226013.702867) slcan0 7E8#2BFFFFFFFFFFFFFF
(1768226013.704897) slcan0 7E8#2CFFFFFFFFFFFFFF
(1768226013.706893) slcan0 7E8#2DFFFFFFFFFFFFFF
(1768226013.712606) slcan0 7E8#2EFF000000000000
(1768226013.819549) slcan0 7E0#0221000000000000
(1768226013.827188) slcan0 7E8#10D2610000076100
(1768226013.827601) slcan0 7E0#3000000000000000
(1768226013.828979) slcan0 7E8#21FFFFFFFF36FFFF
(1768226013.832645) slcan0 7E8#22FFFFFFFF02FF83
(1768226013.834793) slcan0 7E8#2378FFFF7BFF07FA
(1768226013.836720) slcan0 7E8#24FFFF800119012C
(1768226013.841219) slcan0 7E8#25FFFF361710BC01
(1768226013.842765) slcan0 7E8#26D8002942206100
(1768226013.844777) slcan0 7E8#27FF0C037EFFFFFF
(1768226013.846790) slcan0 7E8#28FFFFFFFFFF6D2A
(1768226013.855992) slcan0 7E8#29D52613001515FF
(1768226013.856908) slcan0 7E8#2AFFFFFFFFFFFFFF
(1768226013.862517) slcan0 7E8#2B44FFFFFFFFFFFF
(1768226013.862774) slcan0 7E8#2CFFFFFFFFFFFFFF
(1768226013.864825) slcan0 7E8#2DFFFFFFFFFFFFFF
(1768226013.866885) slcan0 7E8#2EFFFF37AD6537FF
(1768226013.872709) slcan0 7E8#2FFFFFFFFF09FFFF
(1768226013.874863) slcan0 7E8#20FFFFFFFFFFFF19
(1768226013.876798) slcan0 7E8#2100FFFFFFFFA900
(1768226013.881479) slcan0 7E8#22FF00FF01FFFFFF
(1768226013.882745) slcan0 7E8#23FFFF008800FF02
(1768226013.884689) slcan0 7E8#2401FFFF00FFFFFF
(1768226013.886757) slcan0 7E8#251724FF61FFFFFF
(1768226013.891425) slcan0 7E8#26FFFFFFFFFFFFFF
(1768226013.892701) slcan0 7E8#27FFFFFFFFFFFFFF
(1768226013.894727) slcan0 7E8#28FFFFFFFFFFFFFF
(1768226013.896746) slcan0 7E8#29FFFFFFFFFFFFFF
(1768226013.901557) slcan0 7E8#2AFFFFFFFFFFFFFF
(1768226013.902862) slcan0 7E8#2BFFFFFFFFFFFFFF
(1768226013.904865) slcan0 7E8#2CFFFFFFFFFFFFFF
(1768226013.906881) slcan0 7E8#2DFFFFFFFFFFFFFF
(1768226013.912819) slcan0 7E8#2EFF000000000000
(1768226014.022572) slcan0 7E0#0221000000000000
(1768226014.027241) slcan0 7E8#10D2610000076100
(1768226014.027593) slcan0 7E0#3000000000000000
(1768226014.034185) slcan0 7E8#21FFFFFFFF36FFFF
(1768226014.034677) slcan0 7E8#22FFFFFFFF02FF85
(1768226014.036723) slcan0 7E8#2378FFFF7DFF0830
(1768226014.041471) slcan0 7E8#24FFFF810127012C
(1768226014.042714) slcan0 7E8#25FFFF361704BC01
(1768226014.044788) slcan0 7E8#26E6002942206100
(1768226014.046715) slcan0 7E8#27FF0C027DFFFFFF
(1768226014.055612) slcan0 7E8#28FFFFFFFFFF6D2A
(1768226014.056604) slcan0 7E8#29D52613001515FF
(1768226014.062875) slcan0 7E8#2AFFFFFFFFFFFFFF
(1768226014.064726) slcan0 7E8#2B63FFFFFFFFFFFF
(1768226014.066808) slcan0 7E8#2CFFFFFFFFFFFFFF
(1768226014.072129) slcan0 7E8#2DFFFFFFFFFFFFFF
(1768226014.072779) slcan0 7E8#2EFFFF37F46537FF
(1768226014.074773) slcan0 7E8#2FFFFFFFFF09FFFF
(1768226014.076818) slcan0 7E8#20FFFFFFFFFFFF19
(1768226014.081376) slcan0 7E8#2100FFFFFFFFA900
(1768226014.082633) slcan0 7E8#22FF00FF01FFFFFF
(1768226014.084815) slcan0 7E8#23FFFF008800FF02
(1768226014.086958) slcan0 7E8#2401FFFF00FFFFFF
(1768226014.091731) slcan0 7E8#251624FF61FFFFFF
(1768226014.094462) slcan0 7E8#26FFFFFFFFFFFFFF
(1768226014.094691) slcan0 7E8#27FFFFFFFFFFFFFF
(1768226014.096669) slcan0 7E8#28FFFFFFFFFFFFFF
(1768226014.101229) slcan0 7E8#29FFFFFFFFFFFFFF
(1768226014.102844) slcan0 7E8#2AFFFFFFFFFFFFFF
(1768226014.104679) slcan0 7E8#2BFFFFFFFFFFFFFF
(1768226014.106646) slcan0 7E8#2CFFFFFFFFFFFFFF
(1768226014.112219) slcan0 7E8#2DFFFFFFFFFFFFFF
(1768226014.112625) slcan0 7E8#2EFF000000000000
(1768226014.229472) slcan0 7E0#0221000000000000
(1768226014.237141) slcan0 7E8#10D2610000076100
(1768226014.237401) slcan0 7E0#3000000000000000
(1768226014.241846) slcan0 7E8#21FFFFFFFF36FFFF
(1768226014.242610) slcan0 7E8#22FFFFFFFF02FF87
(1768226014.244667) slcan0 7E8#2378FFFF7EFF07C6
(1768226014.246726) slcan0 7E8#24FFFF81011A012C
(1768226014.255729) slcan0 7E8#25FFFF351722BC01
(1768226014.256749) slcan0 7E8#26D2002942216100
(1768226014.262647) slcan0 7E8#27FF0C037CFFFFFF
(1768226014.264808) slcan0 7E8#28FFFFFFFFFF6D2A
(1768226014.266767) slcan0 7E8#29D52613001515FF
(1768226014.272280) slcan0 7E8#2AFFFFFFFFFFFFFF
(1768226014.272772) slcan0 7E8#2B30FFFFFFFFFFFF
(1768226014.274879) slcan0 7E8#2CFFFFFFFFFFFFFF
(1768226014.276779) slcan0 7E8#2DFFFFFFFFFFFFFF
(1768226014.281581) slcan0 7E8#2EFFFF37AD6437FF
(1768226014.282805) slcan0 7E8#2FFFFFFFFF09FFFF
(1768226014.284777) slcan0 7E8#20FFFFFFFFFFFF19
(1768226014.286746) slcan0 7E8#2100FFFFFFFFA900
(1768226014.291962) slcan0 7E8#22FF00FF01FFFFFF
(1768226014.292813) slcan0 7E8#23FFFF008800FF02
(1768226014.294811) slcan0 7E8#2401FFFF00FFFFFF
(1768226014.296830) slcan0 7E8#251824FF61FFFFFF
(1768226014.301691) slcan0 7E8#26FFFFFFFFFFFFFF
(1768226014.302797) slcan0 7E8#27FFFFFFFFFFFFFF
(1768226014.304749) slcan0 7E8#28FFFFFFFFFFFFFF
(1768226014.306897) slcan0 7E8#29FFFFFFFFFFFFFF
(1768226014.312381) slcan0 7E8#2AFFFFFFFFFFFFFF
(1768226014.312733) slcan0 7E8#2BFFFFFFFFFFFFFF
(1768226014.314838) slcan0 7E8#2CFFFFFFFFFFFFFF
(1768226014.316740) slcan0 7E8#2DFFFFFFFFFFFFFF
(1768226014.324462) slcan0 7E8#2EFF000000000000
(1768226014.407534) slcan0 7E0#0221000000000000
(1768226014.417234) slcan0 7E8#10D2610000076100
(1768226014.417381) slcan0 7E0#3000000000000000
(1768226014.424486) slcan0 7E8#21FFFFFFFF36FFFF
(1768226014.424724) slcan0 7E8#22FFFFFFFF02FF85
(1768226014.426712) slcan0 7E8#2378FFFF7FFF0819
(1768226014.432469) slcan0 7E8#24FFFF81011C012C
(1768226014.432674) slcan0 7E8#25FFFF341746BC01
(1768226014.434675) slcan0 7E8#26D8002942216100
(1768226014.436707) slcan0 7E8#27FF0C027DFFFFFF
(1768226014.441681) slcan0 7E8#28FFFFFFFFFF6D2A
(1768226014.442600) slcan0 7E8#29D52613001516FF
(1768226014.444821) slcan0 7E8#2AFFFFFFFFFFFFFF
(1768226014.446811) slcan0 7E8#2B8BFFFFFFFFFFFF
(1768226014.453297) slcan0 7E8#2CFFFFFFFFFFFFFF
(1768226014.456242) slcan0 7E8#2DFFFFFFFFFFFFFF
(1768226014.456810) slcan0 7E8#2EFFFF38236437FF
(1768226014.462661) slcan0 7E8#2FFFFFFFFF09FFFF
(1768226014.464879) slcan0 7E8#20FFFFFFFFFFFF19
(1768226014.466737) slcan0 7E8#2100FFFFFFFFA900
(1768226014.472712) slcan0 7E8#22FF00FF01FFFFFF
(1768226014.474802) slcan0 7E8#23FFFF008800FF02
(1768226014.476784) slcan0 7E8#2401FFFF00FFFFFF
(1768226014.481659) slcan0 7E8#251824FF61FFFFFF
(1768226014.482832) slcan0 7E8#26FFFFFFFFFFFFFF
(1768226014.484787) slcan0 7E8#27FFFFFFFFFFFFFF
(1768226014.486760) slcan0 7E8#28FFFFFFFFFFFFFF
(1768226014.491667) slcan0 7E8#29FFFFFFFFFFFFFF
(1768226014.492767) slcan0 7E8#2AFFFFFFFFFFFFFF
(1768226014.494776) slcan0 7E8#2BFFFFFFFFFFFFFF
(1768226014.496724) slcan0 7E8#2CFFFFFFFFFFFFFF
(1768226014.501474) slcan0 7E8#2DFFFFFFFFFFFFFF
(1768226014.502827) slcan0 7E8#2EFF000000000000
(1768226014.581421) slcan0 7E0#0221000000000000
(1768226014.587186) slcan0 7E8#10D2610000076100
(1768226014.587363) slcan0 7E0#3000000000000000
(1768226014.592172) slcan0 7E8#21FFFFFFFF36FFFF
(1768226014.592688) slcan0 7E8#22FFFFFFFF02FF84
(1768226014.594655) slcan0 7E8#2378FFFF7CFF07C8
(1768226014.596691) slcan0 7E8#24FFFF80011D012C
(1768226014.601566) slcan0 7E8#25FFFF34175EBC01
(1768226014.602683) slcan0 7E8#26DD002942216100
(1768226014.604621) slcan0 7E8#27FF0C037DFFFFFF
(1768226014.606763) slcan0 7E8#28FFFFFFFFFF6E2A
(1768226014.612048) slcan0 7E8#29D52613001515FF
(1768226014.612699) slcan0 7E8#2AFFFFFFFFFFFFFF
(1768226014.614708) slcan0 7E8#2BA4FFFFFFFFFFFF
(1768226014.616746) slcan0 7E8#2CFFFFFFFFFFFFFF
(1768226014.624127) slcan0 7E8#2DFFFFFFFFFFFFFF
(1768226014.624694) slcan0 7E8#2EFFFF37956537FF
(1768226014.626729) slcan0 7E8#2FFFFFFFFF09FFFF
(1768226014.632340) slcan0 7E8#20FFFFFFFFFFFF19
(1768226014.632690) slcan0 7E8#2100FFFFFFFFA900
(1768226014.634642) slcan0 7E8#22FF00FF01FFFFFF
(1768226014.636703) slcan0 7E8#23FFFF008800FF02
(1768226014.641378) slcan0 7E8#2401FFFF00FFFFFF
(1768226014.642721) slcan0 7E8#251724FF61FFFFFF
(1768226014.644731) slcan0 7E8#26FFFFFFFFFFFFFF
(1768226014.646711) slcan0 7E8#27FFFFFFFFFFFFFF
(1768226014.654466) slcan0 7E8#28FFFFFFFFFFFFFF
(1768226014.654681) slcan0 7E8#29FFFFFFFFFFFFFF
(1768226014.656699) slcan0 7E8#2AFFFFFFFFFFFFFF
(1768226014.662807) slcan0 7E8#2BFFFFFFFFFFFFFF
(1768226014.664575) slcan0 7E8#2CFFFFFFFFFFFFFF
(1768226014.666580) slcan0 7E8#2DFFFFFFFFFFFFFF
(1768226014.672168) slcan0 7E8#2EFF000000000000
(1768226014.754411) slcan0 7E0#0221000000000000
(1768226014.757627) slcan0 7E8#10D2610000076100
(1768226014.757910) slcan0 7E0#3000000000000000
(1768226014.764710) slcan0 7E8#21FFFFFFFF36FFFF
(1768226014.766779) slcan0 7E8#22FFFFFFFF02FF83
(1768226014.772333) slcan0 7E8#2378FFFF7BFF07C1
(1768226014.772692) slcan0 7E8#24FFFF81012A012C
(1768226014.774670) slcan0 7E8#25FFFF33175EBC01
(1768226014.776694) slcan0 7E8#26CF002942206100
(1768226014.781618) slcan0 7E8#27FF0C037CFFFFFF
(1768226014.782703) slcan0 7E8#28FFFFFFFFFF6D2A
(1768226014.784587) slcan0 7E8#29D52613001515FF
(1768226014.786582) slcan0 7E8#2AFFFFFFFFFFFFFF
(1768226014.791802) slcan0 7E8#2BA5FFFFFFFFFFFF
(1768226014.792693) slcan0 7E8#2CFFFFFFFFFFFFFF
(1768226014.794609) slcan0 7E8#2DFFFFFFFFFFFFFF
(1768226014.796680) slcan0 7E8#2EFFFF37F46537FF
(1768226014.801272) slcan0 7E8#2FFFFFFFFF09FFFF
(1768226014.802647) slcan0 7E8#20FFFFFFFFFFFF19
(1768226014.804610) slcan0 7E8#2100FFFFFFFFA900
(1768226014.806581) slcan0 7E8#22FF00FF01FFFFFF
(1768226014.811969) slcan0 7E8#23FFFF008800FF02
(1768226014.812585) slcan0 7E8#2401FFFF00FFFFFF
(1768226014.814556) slcan0 7E8#251624FF61FFFFFF
(1768226014.816765) slcan0 7E8#26FFFFFFFFFFFFFF
(1768226014.824182) slcan0 7E8#27FFFFFFFFFFFFFF
(1768226014.824673) slcan0 7E8#28FFFFFFFFFFFFFF
(1768226014.826752) slcan0 7E8#29FFFFFFFFFFFFFF
(1768226014.832598) slcan0 7E8#2AFFFFFFFFFFFFFF
(1768226014.834671) slcan0 7E8#2BFFFFFFFFFFFFFF
(1768226014.836899) slcan0 7E8#2CFFFFFFFFFFFFFF
(1768226014.841656) slcan0 7E8#2DFFFFFFFFFFFFFF
(1768226014.842698) slcan0 7E8#2EFF000000000000
(1768226014.925408) slcan0 7E0#0221000000000000
(1768226014.927288) slcan0 7E8#10D2610000076100
(1768226014.927499) slcan0 7E0#3000000000000000
(1768226014.928973) slcan0 7E8#21FFFFFFFF36FFFF
(1768226014.932786) slcan0 7E8#22FFFFFFFF02FF82
(1768226014.934703) slcan0 7E8#2378FFFF7BFF075C
(1768226014.937820) slcan0 7E8#24FFFF830121012C
(1768226014.941344) slcan0 7E8#25FFFF331736BC01
(1768226014.942732) slcan0 7E8#26CF002942216100
(1768226014.944755) slcan0 7E8#27FF0C027CFFFFFF
(1768226014.946788) slcan0 7E8#28FFFFFFFFFF6D2A
(1768226014.954755) slcan0 7E8#29D52613001515FF
(1768226014.957988) slcan0 7E8#2AFFFFFFFFFFFFFF
(1768226014.964415) slcan0 7E8#2B9DFFFFFFFFFFFF
(1768226014.964788) slcan0 7E8#2CFFFFFFFFFFFFFF
(1768226014.966841) slcan0 7E8#2DFFFFFFFFFFFFFF
(1768226014.972200) slcan0 7E8#2EFFFF36F16437FF
(1768226014.972795) slcan0 7E8#2FFFFFFFFF09FFFF
(1768226014.974732) slcan0 7E8#20FFFFFFFFFFFF19
(1768226014.976720) slcan0 7E8#2100FFFFFFFFA900
(1768226014.981609) slcan0 7E8#22FF00FF01FFFFFF
(1768226014.982808) slcan0 7E8#23FFFF008800FF02
(1768226014.984826) slcan0 7E8#2401FFFF00FFFFFF
(1768226014.986609) slcan0 7E8#251624FF61FFFFFF
(1768226014.991796) slcan0 7E8#26FFFFFFFFFFFFFF
(1768226014.992811) slcan0 7E8#27FFFFFFFFFFFFFF
(1768226014.994816) slcan0 7E8#28FFFFFFFFFFFFFF
(1768226014.996949) slcan0 7E8#29FFFFFFFFFFFFFF
(1768226015.001317) slcan0 7E8#2AFFFFFFFFFFFFFF
(1768226015.002811) slcan0 7E8#2BFFFFFFFFFFFFFF
(1768226015.004811) slcan0 7E8#2CFFFFFFFFFFFFFF
(1768226015.006675) slcan0 7E8#2DFFFFFFFFFFFFFF
(1768226015.012639) slcan0 7E8#2EFF000000000000
(1768226015.106241) slcan0 7E0#0221000000000000
(1768226015.117270) slcan0 7E8#10D2610000076100
(1768226015.117513) slcan0 7E0#3000000000000000
(1768226015.126602) slcan0 7E8#21FFFFFFFF36FFFF
(1768226015.132474) slcan0 7E8#22FFFFFFFF02FF82
(1768226015.134548) slcan0 7E8#2378FFFF7AFF0766
(1768226015.136541) slcan0 7E8#24FFFF81011D012C
(1768226015.141681) slcan0 7E8#25FFFF33173EBC01
(1768226015.142545) slcan0 7E8#26D8002942206100
(1768226015.144595) slcan0 7E8#27FF0C037DFFFFFF
(1768226015.146604) slcan0 7E8#28FFFFFFFFFF6D2A
(1768226015.154489) slcan0 7E8#29D52613001515FF
(1768226015.156709) slcan0 7E8#2AFFFFFFFFFFFFFF
(1768226015.165588) slcan0 7E8#2B27FFFFFFFFFFFF
(1768226015.166813) slcan0 7E8#2CFFFFFFFFFFFFFF
(1768226015.172251) slcan0 7E8#2DFFFFFFFFFFFFFF
(1768226015.172651) slcan0 7E8#2EFFFF380B6537FF
(1768226015.174735) slcan0 7E8#2FFFFFFFFF09FFFF
(1768226015.176745) slcan0 7E8#20FFFFFFFFFFFF19
(1768226015.181572) slcan0 7E8#2100FFFFFFFFA900
(1768226015.182732) slcan0 7E8#22FF00FF01FFFFFF
(1768226015.184702) slcan0 7E8#23FFFF008800FF02
(1768226015.186611) slcan0 7E8#2401FFFF00FFFFFF
(1768226015.191977) slcan0 7E8#251724FF61FFFFFF
(1768226015.192623) slcan0 7E8#26FFFFFFFFFFFFFF
(1768226015.194697) slcan0 7E8#27FFFFFFFFFFFFFF
(1768226015.196984) slcan0 7E8#28FFFFFFFFFFFFFF
(1768226015.201790) slcan0 7E8#29FFFFFFFFFFFFFF
(1768226015.202749) slcan0 7E8#2AFFFFFFFFFFFFFF
(1768226015.204633) slcan0 7E8#2BFFFFFFFFFFFFFF
(1768226015.206725) slcan0 7E8#2CFFFFFFFFFFFFFF
(1768226015.211848) slcan0 7E8#2DFFFFFFFFFFFFFF
(1768226015.212668) slcan0 7E8#2EFF000000000000
(1768226015.296283) slcan0 7E0#0221000000000000
(1768226015.307130) slcan0 7E8#10D2610000076100
(1768226015.307343) slcan0 7E0#3000000000000000
(1768226015.308676) slcan0 7E8#21FFFFFFFF36FFFF
(1768226015.313037) slcan0 7E8#22FFFFFFFF02FF82
(1768226015.314789) slcan0 7E8#2378FFFF7AFF077B
(1768226015.316771) slcan0 7E8#24FFFF83011C012C
(1768226015.324919) slcan0 7E8#25FFFF351710BC01
(1768226015.326697) slcan0 7E8#26D2002942216100
(1768226015.332403) slcan0 7E8#27FF0C027CFFFFFF
(1768226015.332609) slcan0 7E8#28FFFFFFFFFF6D2A
(1768226015.334777) slcan0 7E8#29D52613001515FF
(1768226015.336730) slcan0 7E8#2AFFFFFFFFFFFFFF
(1768226015.341699) slcan0 7E8#2B25FFFFFFFFFFFF
(1768226015.342800) slcan0 7E8#2CFFFFFFFFFFFFFF
(1768226015.344795) slcan0 7E8#2DFFFFFFFFFFFFFF
(1768226015.346704) slcan0 7E8#2EFFFF377E6437FF
(1768226015.354270) slcan0 7E8#2FFFFFFFFF09FFFF
(1768226015.354650) slcan0 7E8#20FFFFFFFFFFFF19
(1768226015.356730) slcan0 7E8#2100FFFFFFFFA900
(1768226015.365787) slcan0 7E8#22FF00FF01FFFFFF
(1768226015.366721) slcan0 7E8#23FFFF008800FF02
(1768226015.372334) slcan0 7E8#2401FFFF00FFFFFF
(1768226015.372686) slcan0 7E8#251724FF61FFFFFF
(1768226015.374720) slcan0 7E8#26FFFFFFFFFFFFFF
(1768226015.376726) slcan0 7E8#27FFFFFFFFFFFFFF
(1768226015.381921) slcan0 7E8#28FFFFFFFFFFFFFF
(1768226015.382709) slcan0 7E8#29FFFFFFFFFFFFFF
(1768226015.384660) slcan0 7E8#2AFFFFFFFFFFFFFF
(1768226015.386572) slcan0 7E8#2BFFFFFFFFFFFFFF
(1768226015.391900) slcan0 7E8#2CFFFFFFFFFFFFFF
(1768226015.392674) slcan0 7E8#2DFFFFFFFFFFFFFF
(1768226015.394599) slcan0 7E8#2EFF000000000000
(1768226015.495291) slcan0 7E0#041800FF00000000
(1768226015.496629) slcan0 7E8#0258000000000000
(1768226015.601593) slcan0 7E0#0221000000000000
(1768226015.607146) slcan0 7E8#10D2610000076100
(1768226015.607293) slcan0 7E0#3000000000000000
(1768226015.612517) slcan0 7E8#21FFFFFFFF36FFFF
(1768226015.614665) slcan0 7E8#22FFFFFFFF02FF86
(1768226015.616584) slcan0 7E8#2378FFFF7DFF07FF
(1768226015.624465) slcan0 7E8#24FFFF81011B012C
(1768226015.626535) slcan0 7E8#25FFFF3616ECBC01
(1768226015.632198) slcan0 7E8#26E3002943216100
(1768226015.632563) slcan0 7E8#27FF0C027DFFFFFF
(1768226015.634541) slcan0 7E8#28FFFFFFFFFF6D2A
(1768226015.636511) slcan0 7E8#29D52613001515FF
(1768226015.641486) slcan0 7E8#2AFFFFFFFFFFFFFF
(1768226015.642540) slcan0 7E8#2B25FFFFFFFFFFFF
(1768226015.644566) slcan0 7E8#2CFFFFFFFFFFFFFF
(1768226015.646569) slcan0 7E8#2DFFFFFFFFFFFFFF
(1768226015.654061) slcan0 7E8#2EFFFF37C56537FF
(1768226015.654538) slcan0 7E8#2FFFFFFFFF09FFFF
(1768226015.656544) slcan0 7E8#20FFFFFFFFFFFF19
(1768226015.665397) slcan0 7E8#2100FFFFFFFFA900
(1768226015.666541) slcan0 7E8#22FF00FF01FFFFFF
(1768226015.672291) slcan0 7E8#23FFFF008800FF02
(1768226015.672564) slcan0 7E8#2401FFFF00FFFFFF
(1768226015.674538) slcan0 7E8#251824FF61FFFFFF
(1768226015.676567) slcan0 7E8#26FFFFFFFFFFFFFF
(1768226015.681757) slcan0 7E8#27FFFFFFFFFFFFFF
(1768226015.682534) slcan0 7E8#28FFFFFFFFFFFFFF
(1768226015.684535) slcan0 7E8#29FFFFFFFFFFFFFF
(1768226015.686564) slcan0 7E8#2AFFFFFFFFFFFFFF
(1768226015.691465) slcan0 7E8#2BFFFFFFFFFFFFFF
(1768226015.692566) slcan0 7E8#2CFFFFFFFFFFFFFF
(1768226015.694568) slcan0 7E8#2DFFFFFFFFFFFFFF
(1768226015.696544) slcan0 7E8#2EFF000000000000
(1768226015.779984) slcan0 7E0#0221000000000000
(1768226015.787039) slcan0 7E8#10D2610000076100
(1768226015.787209) slcan0 7E0#3000000000000000
(1768226015.788530) slcan0 7E8#21FFFFFFFF36FFFF
(1768226015.792371) slcan0 7E8#22FFFFFFFF02FF86
(1768226015.794579) slcan0 7E8#2378FFFF7EFF0812
(1768226015.796661) slcan0 7E8#24FFFF800127012C
(1768226015.801684) slcan0 7E8#25FFFF351714BC01
(1768226015.802664) slcan0 7E8#26E3002943216100
(1768226015.804596) slcan0 7E8#27FF0C027DFFFFFF
(1768226015.806598) slcan0 7E8#28FFFFFFFFFF6D2A
(1768226015.811774) slcan0 7E8#29D52613001515FF
(1768226015.812678) slcan0 7E8#2AFFFFFFFFFFFFFF
(1768226015.814594) slcan0 7E8#2B2BFFFFFFFFFFFF
(1768226015.816673) slcan0 7E8#2CFFFFFFFFFFFFFF
(1768226015.824348) slcan0 7E8#2DFFFFFFFFFFFFFF
(1768226015.824633) slcan0 7E8#2EFFFF37F46537FF
(1768226015.826733) slcan0 7E8#2FFFFFFFFF09FFFF
(1768226015.832380) slcan0 7E8#20FFFFFFFFFFFF19
(1768226015.832564) slcan0 7E8#2100FFFFFFFFA900
(1768226015.834594) slcan0 7E8#22FF00FF01FFFFFF
(1768226015.836678) slcan0 7E8#23FFFF008800FF02
(1768226015.842089) slcan0 7E8#2401FFFF00FFFFFF
(1768226015.842537) slcan0 7E8#251624FF61FFFFFF
(1768226015.844592) slcan0 7E8#26FFFFFFFFFFFFFF
(1768226015.846633) slcan0 7E8#27FFFFFFFFFFFFFF
(1768226015.854468) slcan0 7E8#28FFFFFFFFFFFFFF
(1768226015.854566) slcan0 7E8#29FFFFFFFFFFFFFF
(1768226015.856698) slcan0 7E8#2AFFFFFFFFFFFFFF
(1768226015.865253) slcan0 7E8#2BFFFFFFFFFFFFFF
(1768226015.866669) slcan0 7E8#2CFFFFFFFFFFFFFF
(1768226015.872117) slcan0 7E8#2DFFFFFFFFFFFFFF
(1768226015.872661) slcan0 7E8#2EFF000000000000
(1768226015.990254) slcan0 7E0#0221000000000000
(1768226015.997034) slcan0 7E8#10D2610000076100
(1768226015.997187) slcan0 7E0#3000000000000000
(1768226016.001460) slcan0 7E8#21FFFFFFFF36FFFF
(1768226016.002619) slcan0 7E8#22FFFFFFFF02FF88
(1768226016.004634) slcan0 7E8#2378FFFF7FFF07B8
(1768226016.006657) slcan0 7E8#24FFFF800123012C
(1768226016.011892) slcan0 7E8#25FFFF341756BC01
(1768226016.012655) slcan0 7E8#26D5002943216100
(1768226016.014647) slcan0 7E8#27FF0C027CFFFFFF
(1768226016.016621) slcan0 7E8#28FFFFFFFFFF6D2A
(1768226016.024870) slcan0 7E8#29D52613001515FF
(1768226016.026538) slcan0 7E8#2AFFFFFFFFFFFFFF
(1768226016.032510) slcan0 7E8#2B3CFFFFFFFFFFFF
(1768226016.034539) slcan0 7E8#2CFFFFFFFFFFFFFF
(1768226016.036560) slcan0 7E8#2DFFFFFFFFFFFFFF
(1768226016.041436) slcan0 7E8#2EFFFF37DC6537FF
(1768226016.042540) slcan0 7E8#2FFFFFFFFF09FFFF
