(1768226088.982037) slcan0 261#041800FFFF000000
(1768226088.988967) slcan0 661#037F181200000000
(1768226089.081961) slcan0 261#0221000000000000
(1768226089.095210) slcan0 661#037F217800000000
(1768226089.109061) slcan0 661#10346100FFFFFFFF
(1768226089.109232) slcan0 261#3000000000000000
(1768226089.112028) slcan0 661#21FFFFFF00000000
(1768226089.113086) slcan0 661#2280B70082FFB114
(1768226089.114101) slcan0 661#23808000FF170001
(1768226089.115108) slcan0 661#24FDFFFFFFFF6CFF
(1768226089.122983) slcan0 661#25FFFFFFFFFFFF40
(1768226089.124219) slcan0 661#26000E0040000021
(1768226089.125017) slcan0 661#27FF5AFFFF000000
(1768226089.232213) slcan0 261#0221000000000000
(1768226089.245218) slcan0 661#037F217800000000
(1768226089.258627) slcan0 661#10346100FFFFFFFF
(1768226089.258696) slcan0 261#3000000000000000
(1768226089.260024) slcan0 661#21FFFFFF00000000
(1768226089.263248) slcan0 661#2280B70082FFB114
(1768226089.264035) slcan0 661#23808000FF170001
(1768226089.265145) slcan0 661#24FDFFFFFFFF6CFF
(1768226089.269939) slcan0 661#25FFFFFFFFFFFF40
(1768226089.271987) slcan0 661#26000E0040000021
(1768226089.273200) slcan0 661#27FF5AFFFF000000
(1768226089.374902) slcan0 261#0221000000000000
(1768226089.390190) slcan0 661#037F217800000000
(1768226089.409088) slcan0 661#10346100FFFFFFFF
(1768226089.409223) slcan0 261#3000000000000000
(1768226089.412123) slcan0 661#21FFFFFF00000000
(1768226089.413188) slcan0 661#2280B70082FFB114
(1768226089.414196) slcan0 661#23808000FF170801
(1768226089.415203) slcan0 661#24FDFFFFFFFF6CFF
(1768226089.422512) slcan0 661#25FFFFFFFFFFFF40
(1768226089.423175) slcan0 661#26000E0040000021
(1768226089.424297) slcan0 661#27FF5AFFFF000000
(1768226089.514940) slcan0 261#0221000000000000
(1768226089.530357) slcan0 661#037F217800000000
(1768226089.549930) slcan0 661#10346100FFFFFFFF
(1768226089.550189) slcan0 261#3000000000000000
(1768226089.552336) slcan0 661#21FFFFFF00000000
(1768226089.553328) slcan0 661#2280B70082FFB114
(1768226089.554186) slcan0 661#23808000FF172601
(1768226089.555170) slcan0 661#24FDFFFFFFFF6CFF
(1768226089.558599) slcan0 661#25FFFFFFFFFFFF40
(1768226089.559879) slcan0 661#26000E0040000021
(1768226089.560009) slcan0 661#27FF5AFFFF000000
(1768226089.668914) slcan0 261#0221000000000000
(1768226089.685174) slcan0 661#037F217800000000
(1768226089.698566) slcan0 661#10346100FFFFFFFF
(1768226089.698808) slcan0 261#3000000000000000
(1768226089.700149) slcan0 661#21FFFFFF00000000
(1768226089.702074) slcan0 661#2280B60082FFB114
(1768226089.703369) slcan0 661#23808000FF172801
(1768226089.704170) slcan0 661#24FDFFFFFFFF6CFF
(1768226089.705422) slcan0 661#25FFFFFFFFFFFF40
(1768226089.708922) slcan0 661#26000E0040000021
(1768226089.710385) slcan0 661#27FF5AFFFF000000
(1768226089.810821) slcan0 261#0221000000000000
(1768226089.825196) slcan0 661#037F217800000000
(1768226089.838436) slcan0 661#10346100FFFFFFFF
(1768226089.838762) slcan0 261#3000000000000000
(1768226089.840110) slcan0 661#21FFFFFF00000000
(1768226089.842357) slcan0 661#2280B70082FFB114
(1768226089.843151) slcan0 661#23808000FF172801
(1768226089.844220) slcan0 661#24FDFFFFFFFF6CFF
(1768226089.845260) slcan0 661#25FFFFFFFFFFFF40
(1768226089.850163) slcan0 661#26000E0040000021
(1768226089.852128) slcan0 661#27FF5AFFFF000000
(1768226089.933663) slcan0 261#0221000000000000
(1768226089.945269) slcan0 661#037F217800000000
(1768226089.958457) slcan0 661#10346100FFFFFFFF
(1768226089.958781) slcan0 261#3000000000000000
(1768226089.960752) slcan0 661#21FFFFFF00000000
(1768226089.962605) slcan0 661#2280B70082FFB114
(1768226089.963005) slcan0 661#23808000FF172201
(1768226089.964193) slcan0 661#24FDFFFFFFFF6CFF
(1768226089.965172) slcan0 661#25FFFFFFFFFFFF40
(1768226089.969817) slcan0 661#26000E0040000021
(1768226089.970075) slcan0 661#27FF5AFFFF000000
(1768226090.053589) slcan0 261#0221000000000000
(1768226090.065118) slcan0 661#037F217800000000
(1768226090.078536) slcan0 661#10346100FFFFFFFF
(1768226090.078699) slcan0 261#3000000000000000
(1768226090.080014) slcan0 661#21FFFFFF00000000
(1768226090.082203) slcan0 661#2280B60082FFB114
(1768226090.083063) slcan0 661#23808000FF173001
(1768226090.083978) slcan0 661#24FDFFFFFFFF6CFF
(1768226090.085105) slcan0 661#25FFFFFFFFFFFF40
(1768226090.088683) slcan0 661#26000E0040000021
(1768226090.089216) slcan0 661#27FF5AFFFF000000
(1768226090.178473) slcan0 261#0221000000000000
(1768226090.190083) slcan0 661#037F217800000000
(1768226090.210050) slcan0 661#10346100FFFFFFFF
(1768226090.210226) slcan0 261#3000000000000000
(1768226090.213047) slcan0 661#21FFFFFF00000000
(1768226090.214027) slcan0 661#2280B60082FFB114
(1768226090.215065) slcan0 661#23808000FF172C01
(1768226090.222101) slcan0 661#24FDFFFFFFFF6CFF
(1768226090.223048) slcan0 661#25FFFFFFFFFFFF40
(1768226090.224160) slcan0 661#26000E0040000021
(1768226090.225170) slcan0 661#27FF5AFFFF000000
(1768226090.333637) slcan0 261#0221000000000000
(1768226090.345228) slcan0 661#037F217800000000
(1768226090.358746) slcan0 661#10346100FFFFFFFF
(1768226090.358978) slcan0 261#3000000000000000
(1768226090.362583) slcan0 661#21FFFFFF00000000
(1768226090.363118) slcan0 661#2280B70082FFB114
(1768226090.364160) slcan0 661#23808000FF171A01
(1768226090.365156) slcan0 661#24FDFFFFFFFF6CFF
(1768226090.369427) slcan0 661#25FFFFFFFFFFFF40
(1768226090.370513) slcan0 661#26000E0040000021
(1768226090.371976) slcan0 661#27FF5AFFFF000000
(1768226090.495536) slcan0 261#0221000000000000
(1768226090.510375) slcan0 661#037F217800000000
(1768226090.530703) slcan0 661#10346100FFFFFFFF
(1768226090.530925) slcan0 261#3000000000000000
(1768226090.533495) slcan0 661#21FFFFFF00000000
(1768226090.534056) slcan0 661#2280B60082FFB114
(1768226090.535144) slcan0 661#23808000FF170401
(1768226090.538604) slcan0 661#24FDFFFFFFFF6CFF
(1768226090.539094) slcan0 661#25FFFFFFFFFFFF40
(1768226090.540083) slcan0 661#26000E0040000021
(1768226090.541965) slcan0 661#27FF5AFFFF000000
(1768226090.617534) slcan0 261#0221000000000000
(1768226090.630145) slcan0 661#037F217800000000
(1768226090.652219) slcan0 661#10346100FFFFFFFF
(1768226090.652446) slcan0 261#3000000000000000
(1768226090.654225) slcan0 661#21FFFFFF00000000
(1768226090.654962) slcan0 661#2280B70082FFB114
(1768226090.658537) slcan0 661#23808000FF170601
(1768226090.658941) slcan0 661#24FDFFFFFFFF6CFF
(1768226090.660179) slcan0 661#25FFFFFFFFFFFF40
(1768226090.662442) slcan0 661#26000E0040000021
(1768226090.663036) slcan0 661#27FF5AFFFF000000
(1768226090.752528) slcan0 261#0221000000000000
(1768226090.765009) slcan0 661#037F217800000000
(1768226090.778756) slcan0 661#10346100FFFFFFFF
(1768226090.778917) slcan0 261#3000000000000000
(1768226090.780247) slcan0 661#21FFFFFF00000000
(1768226090.781832) slcan0 661#2280B60082FFB114
(1768226090.782957) slcan0 661#23808000FF170A01
(1768226090.783957) slcan0 661#24FDFFFFFFFF6CFF
(1768226090.784942) slcan0 661#25FFFFFFFFFFFF40
(1768226090.788268) slcan0 661#26000E0040000021
(1768226090.788939) slcan0 661#27FF5AFFFF000000
(1768226090.879422) slcan0 261#0221000000000000
(1768226090.895133) slcan0 661#037F217800000000
(1768226090.908832) slcan0 661#10346100FFFFFFFF
(1768226090.908994) slcan0 261#3000000000000000
(1768226090.912663) slcan0 661#21FFFFFF00000000
(1768226090.913076) slcan0 661#2280B60082FFB114
(1768226090.914513) slcan0 661#23808000FF170201
(1768226090.915163) slcan0 661#24FDFFFFFFFF6CFF
(1768226090.922619) slcan0 661#25FFFFFFFFFFFF40
(1768226090.923029) slcan0 661#26000E0040000021
(1768226090.924174) slcan0 661#27FF5AFFFF000000
(1768226091.022624) slcan0 261#041800FF00000000
(1768226091.035168) slcan0 661#037F187800000000
(1768226091.038328) slcan0 661#055801502B200000
(1768226091.122491) slcan0 261#0221000000000000
(1768226091.134976) slcan0 661#037F217800000000
(1768226091.149551) slcan0 661#10346100FFFFFFFF
(1768226091.149796) slcan0 261#3000000000000000
(1768226091.152530) slcan0 661#21FFFFFF00000000
(1768226091.153163) slcan0 661#2280B70082FFB114
(1768226091.153897) slcan0 661#23808000FF170A01
(1768226091.154926) slcan0 661#24FDFFFFFFFF6CFF
(1768226091.158376) slcan0 661#25FFFFFFFFFFFF40
(1768226091.158912) slcan0 661#26000E0040000021
(1768226091.159947) slcan0 661#27FF5AFFFF000000
(1768226091.235509) slcan0 261#0221000000000000
(1768226091.250119) slcan0 661#037F217800000000
(1768226091.269135) slcan0 661#10346100FFFFFFFF
(1768226091.269244) slcan0 261#3000000000000000
(1768226091.272485) slcan0 661#21FFFFFF00000000
(1768226091.273048) slcan0 661#2280B60082FFB114
(1768226091.274130) slcan0 661#23808000FF16FC01
(1768226091.275111) slcan0 661#24FDFFFFFFFF6CFF
(1768226091.278559) slcan0 661#25FFFFFFFFFFFF40
(1768226091.279018) slcan0 661#26000E0040000021
(1768226091.280134) slcan0 661#27FF5AFFFF000000
(1768226091.375477) slcan0 261#0221000000000000
(1768226091.390178) slcan0 661#037F217800000000
(1768226091.409228) slcan0 661#10346100FFFFFFFF
(1768226091.409254) slcan0 261#3000000000000000
(1768226091.410066) slcan0 661#21FFFFFF00000000
(1768226091.412005) slcan0 661#2280B60082FFB114
(1768226091.414254) slcan0 661#23808000FF171201
(1768226091.415320) slcan0 661#24FDFFFFFFFF6CFF
(1768226091.422551) slcan0 661#25FFFFFFFFFFFF40
(1768226091.423151) slcan0 661#26000E0040550021
(1768226091.424032) slcan0 661#27FF5AFFFF000000
(1768226091.537397) slcan0 261#0221000000000000
(1768226091.550043) slcan0 661#037F217800000000
(1768226091.569132) slcan0 661#10346100FFFFFFFF
(1768226091.569224) slcan0 261#3000000000000000
(1768226091.572373) slcan0 661#21FFFFFF00000000
(1768226091.573168) slcan0 661#2280B60082FFB114
(1768226091.573955) slcan0 661#23808000FF171001
(1768226091.574946) slcan0 661#24FDFFFFFFFF6CFF
(1768226091.578505) slcan0 661#25FFFFFFFFFFFF40
(1768226091.579072) slcan0 661#26000E0040200021
(1768226091.579908) slcan0 661#27FF5AFFFF000000
(1768226091.665240) slcan0 261#0221000000000000
(1768226091.679983) slcan0 661#037F217800000000
(1768226091.698003) slcan0 661#10346100FFFFFFFF
(1768226091.698370) slcan0 261#3000000000000000
(1768226091.699905) slcan0 661#21FFFFFF00000000
(1768226091.702409) slcan0 661#2280B60082FFB114
(1768226091.702934) slcan0 661#23808000FF172001
(1768226091.703935) slcan0 661#24FDFFFFFFFF6CFF
(1768226091.704974) slcan0 661#25FFFFFFFFFFFF40
(1768226091.708639) slcan0 661#26000E0040040021
(1768226091.708929) slcan0 661#27FF5AFFFF000000
(1768226091.786372) slcan0 261#0221000000000000
(1768226091.800131) slcan0 661#037F217800000000
(1768226091.820939) slcan0 661#10346100FFFFFFFF
(1768226091.821055) slcan0 261#3000000000000000
(1768226091.823028) slcan0 661#21FFFFFF00000000
(1768226091.823961) slcan0 661#2280B70082FFB114
(1768226091.825096) slcan0 661#23808000FF172C01
(1768226091.828796) slcan0 661#24FDFFFFFFFF6CFF
(1768226091.829611) slcan0 661#25FFFFFFFFFFFF40
(1768226091.829935) slcan0 661#26000E0040000221
(1768226091.832288) slcan0 661#27FF5AFFFF000000
(1768226091.927292) slcan0 261#0221000000000000
(1768226091.940070) slcan0 661#037F217800000000
(1768226091.958824) slcan0 661#10346100FFFFFFFF
(1768226091.959077) slcan0 261#3000000000000000
(1768226091.962570) slcan0 661#21FFFFFF00000000
(1768226091.963018) slcan0 661#2280B70082FFB114
(1768226091.964028) slcan0 661#23808000FF174A01
(1768226091.965059) slcan0 661#24FDFFFFFFFF6CFF
(1768226091.969506) slcan0 661#25FFFFFFFFFFFF40
(1768226091.970020) slcan0 661#26000E0040000421
(1768226091.972268) slcan0 661#27FF5AFFFF000000
(1768226092.071291) slcan0 261#0221000000000000
(1768226092.085069) slcan0 661#037F217800000000
(1768226092.098877) slcan0 661#10346100FFFFFFFF
(1768226092.099078) slcan0 261#3000000000000000
(1768226092.102133) slcan0 661#21FFFFFF00000000
(1768226092.102913) slcan0 661#2280B60082FFB114
(1768226092.103912) slcan0 661#23808000FF173201
(1768226092.104998) slcan0 661#24FDFFFFFFFF6CFF
(1768226092.108686) slcan0 661#25FFFFFFFFFFFF40
(1768226092.108960) slcan0 661#26000E0040000021
(1768226092.109987) slcan0 661#27FF5AFFFF000000
(1768226092.209419) slcan0 261#0221000000000000
(1768226092.225120) slcan0 661#037F217800000000
(1768226092.239040) slcan0 661#10346100FFFFFFFF
(1768226092.239272) slcan0 261#3000000000000000
(1768226092.242507) slcan0 661#21FFFFFF00000000
(1768226092.243026) slcan0 661#2280B70082FFB114
(1768226092.243888) slcan0 661#23808000FF173C01
(1768226092.244937) slcan0 661#24FDFFFFFFFF6CFF
(1768226092.249604) slcan0 661#25FFFFFFFFFFFF40
(1768226092.250019) slcan0 661#26000E0040000021
(1768226092.252267) slcan0 661#27FF5AFFFF000000
(1768226092.341285) slcan0 261#0221000000000000
(1768226092.355064) slcan0 661#037F217800000000
(1768226092.369175) slcan0 661#10346100FFFFFFFF
(1768226092.369443) slcan0 261#3000000000000000
(1768226092.372509) slcan0 661#21FFFFFF00000000
(1768226092.373071) slcan0 661#2280B60082FFB114
(1768226092.374028) slcan0 661#23808000FF173A01
(1768226092.375050) slcan0 661#24FDFFFFFFFF6CFF
(1768226092.378714) slcan0 661#25FFFFFFFFFFFF40
(1768226092.378864) slcan0 661#26000E0040000021
(1768226092.380062) slcan0 661#27FF5AFFFF000000
(1768226092.474217) slcan0 261#0221000000000000
(1768226092.490044) slcan0 661#037F217800000000
(1768226092.509028) slcan0 661#10346100FFFFFFFF
(1768226092.509129) slcan0 261#3000000000000000
(1768226092.512344) slcan0 661#21FFFFFF00000000
(1768226092.513178) slcan0 661#2280B60082FFB114
(1768226092.514008) slcan0 661#23808000FF174401
(1768226092.514982) slcan0 661#24FDFFFFFFFF6CFF
(1768226092.524278) slcan0 661#25FFFFFFFFFFFF40
(1768226092.525119) slcan0 661#26000E0040000021
(1768226092.528863) slcan0 661#27FF5AFFFF000000
(1768226092.615356) slcan0 261#0221000000000000
(1768226092.630004) slcan0 661#037F217800000000
(1768226092.649835) slcan0 661#10346100FFFFFFFF
(1768226092.650067) slcan0 261#3000000000000000
(1768226092.652574) slcan0 661#21FFFFFF00000000
(1768226092.653317) slcan0 661#2280B70082FFB114
(1768226092.653943) slcan0 661#23808000FF174401
(1768226092.654982) slcan0 661#24FDFFFFFFFF6CFF
(1768226092.658691) slcan0 661#25FFFFFFFFFFFF40
(1768226092.658905) slcan0 661#26000E0040000021
(1768226092.659913) slcan0 661#27FF5AFFFF000000
(1768226092.749354) slcan0 261#0221000000000000
(1768226092.765111) slcan0 661#037F217800000000
(1768226092.778556) slcan0 661#10346100FFFFFFFF
(1768226092.778734) slcan0 261#3000000000000000
(1768226092.780038) slcan0 661#21FFFFFF00000000
(1768226092.782622) slcan0 661#2280B60082FFB114
(1768226092.782943) slcan0 661#23808000FF174401
(1768226092.784055) slcan0 661#24FDFFFFFFFF6CFF
(1768226092.784927) slcan0 661#25FFFFFFFFFFFF40
(1768226092.788379) slcan0 661#26000E0040000021
(1768226092.789033) slcan0 661#27FF5AFFFF000000
(1768226092.881312) slcan0 261#0221000000000000
(1768226092.895038) slcan0 661#037F217800000000
(1768226092.908707) slcan0 661#10346100FFFFFFFF
(1768226092.908960) slcan0 261#3000000000000000
(1768226092.910074) slcan0 661#21FFFFFF00000000
(1768226092.911909) slcan0 661#2280B60082FFB114
(1768226092.913135) slcan0 661#23808000FF171A01
(1768226092.914055) slcan0 661#24FDFFFFFFFF6CFF
(1768226092.915159) slcan0 661#25FFFFFFFFFFFF40
(1768226092.923565) slcan0 661#26000E0040000021
(1768226092.924057) slcan0 661#27FF5AFFFF000000
(1768226093.013404) slcan0 261#041800FF00000000
(1768226093.024911) slcan0 661#037F187800000000
(1768226093.028668) slcan0 661#055801502B200000
(1768226093.135455) slcan0 261#0221000000000000
(1768226093.150025) slcan0 661#037F217800000000
(1768226093.169493) slcan0 661#10346100FFFFFFFF
(1768226093.169675) slcan0 261#3000000000000000
(1768226093.172146) slcan0 661#21FFFFFF00000000
(1768226093.173096) slcan0 661#2280B70082FFB114
(1768226093.173961) slcan0 661#23808000FF172001
(1768226093.175082) slcan0 661#24FDFFFFFFFF6CFF
(1768226093.178965) slcan0 661#25FFFFFFFFFFFF40
(1768226093.180067) slcan0 661#26000E0040000021
(1768226093.182702) slcan0 661#27FF5AFFFF000000
(1768226093.274438) slcan0 261#0221000000000000
(1768226093.290088) slcan0 661#037F217800000000
(1768226093.308755) slcan0 661#10346100FFFFFFFF
(1768226093.309037) slcan0 261#3000000000000000
(1768226093.309978) slcan0 661#21FFFFFF00000000
(1768226093.311857) slcan0 661#2280B70082FFB114
(1768226093.313211) slcan0 661#23808000FF16FC01
(1768226093.314129) slcan0 661#24FDFFFFFFFF6CFF
(1768226093.315084) slcan0 661#25FFFFFFFFFFFF40
(1768226093.324013) slcan0 661#26000E0040020021
(1768226093.325078) slcan0 661#27FF5AFFFF000000
(1768226093.414424) slcan0 261#0221000000000000
(1768226093.430183) slcan0 661#037F217800000000
(1768226093.449636) slcan0 661#10346100FFFFFFFF
(1768226093.449909) slcan0 261#3000000000000000
(1768226093.452084) slcan0 661#21FFFFFF00000000
(1768226093.453798) slcan0 661#2280B70082FFB114
(1768226093.454018) slcan0 661#23808000FF170201
(1768226093.455121) slcan0 661#24FDFFFFFFFF6CFF
(1768226093.458636) slcan0 661#25FFFFFFFFFFFF40
(1768226093.459009) slcan0 661#26000E0040040021
(1768226093.459999) slcan0 661#27FF5AFFFF000000
(1768226093.548383) slcan0 261#0221000000000000
(1768226093.560073) slcan0 661#037F217800000000
(1768226093.578514) slcan0 661#10346100FFFFFFFF
(1768226093.578640) slcan0 261#3000000000000000
(1768226093.580015) slcan0 661#21FFFFFF00000000
(1768226093.582040) slcan0 661#2280B60082FFB114
(1768226093.582980) slcan0 661#23808000FF170801
(1768226093.584091) slcan0 661#24FDFFFFFFFF6CFF
(1768226093.585398) slcan0 661#25FFFFFFFFFFFF40
(1768226093.588321) slcan0 661#26000E0040000421
(1768226093.589046) slcan0 661#27FF5AFFFF000000
(1768226093.681241) slcan0 261#0221000000000000
(1768226093.694872) slcan0 661#037F217800000000
(1768226093.708788) slcan0 661#10346100FFFFFFFF
(1768226093.709075) slcan0 261#3000000000000000
(1768226093.710049) slcan0 661#21FFFFFF00000000
(1768226093.711994) slcan0 661#2280B60082FFB114
(1768226093.713272) slcan0 661#23808000FF170401
(1768226093.714061) slcan0 661#24FDFFFFFFFF6CFF
(1768226093.715425) slcan0 661#25FFFFFFFFFFFF40
(1768226093.722686) slcan0 661#26000E0040000021
(1768226093.724680) slcan0 661#27FF5AFFFF000000
(1768226093.851557) slcan0 261#0221000000000000
(1768226093.864977) slcan0 661#037F217800000000
(1768226093.878318) slcan0 661#10346100FFFFFFFF
(1768226093.878518) slcan0 261#3000000000000000
(1768226093.880451) slcan0 661#21FFFFFF00000000
(1768226093.882122) slcan0 661#2280B70082FFB114
(1768226093.883175) slcan0 661#23808000FF171401
(1768226093.884037) slcan0 661#24FDFFFFFFFF6CFF
(1768226093.885020) slcan0 661#25FFFFFFFFFFFF40
(1768226093.888579) slcan0 661#26000E0040000021
(1768226093.888905) slcan0 661#27FF5AFFFF000000
(1768226093.989430) slcan0 261#0221000000000000
(1768226094.005061) slcan0 661#037F217800000000
(1768226094.022369) slcan0 661#10346100FFFFFFFF
(1768226094.022658) slcan0 261#3000000000000000
(1768226094.023960) slcan0 661#21FFFFFF00000000
(1768226094.029063) slcan0 661#2280B60082FFB114
(1768226094.030040) slcan0 661#23808000FF171C01
(1768226094.032204) slcan0 661#24FDFFFFFFFF6CFF
(1768226094.033716) slcan0 661#25FFFFFFFFFFFF40
(1768226094.033991) slcan0 661#26000E0040000021
(1768226094.035065) slcan0 661#27FF5AFFFF000000
(1768226094.112254) slcan0 261#0221000000000000
(1768226094.125024) slcan0 661#037F217800000000
(1768226094.138510) slcan0 661#10346100FFFFFFFF
(1768226094.138674) slcan0 261#3000000000000000
(1768226094.140040) slcan0 661#21FFFFFF00000000
(1768226094.141933) slcan0 661#2280B70082FFB114
(1768226094.142960) slcan0 661#23808000FF172401
(1768226094.143962) slcan0 661#24FDFFFFFFFF6CFF
(1768226094.149898) slcan0 661#25FFFFFFFFFFFF40
(1768226094.151992) slcan0 661#26000E0040000021
(1768226094.153625) slcan0 661#27FF5AFFFF000000
(1768226094.229335) slcan0 261#0221000000000000
(1768226094.244955) slcan0 661#037F217800000000
(1768226094.258782) slcan0 661#10346100FFFFFFFF
(1768226094.259025) slcan0 261#3000000000000000
(1768226094.262632) slcan0 661#21FFFFFF00000000
(1768226094.262917) slcan0 661#2280B60082FFB114
(1768226094.263894) slcan0 661#23808000FF172201
(1768226094.264857) slcan0 661#24FDFFFFFFFF6CFF
(1768226094.270064) slcan0 661#25FFFFFFFFFFFF40
(1768226094.271943) slcan0 661#26000E0040000021
(1768226094.273197) slcan0 661#27FF5AFFFF000000
(1768226094.384381) slcan0 261#0221000000000000
(1768226094.400006) slcan0 661#037F217800000000
(1768226094.420620) slcan0 661#10346100FFFFFFFF
(1768226094.420735) slcan0 261#3000000000000000
(1768226094.423065) slcan0 661#21FFFFFF00000000
(1768226094.424026) slcan0 661#2280B70082FFB114
(1768226094.425047) slcan0 661#23808000FF172A01
(1768226094.430365) slcan0 661#24FDFFFFFFFF6CFF
(1768226094.431940) slcan0 661#25FFFFFFFFFFFF40
(1768226094.433781) slcan0 661#26000E0040000021
(1768226094.433985) slcan0 661#27FF5AFFFF000000
(1768226094.520541) slcan0 261#0221000000000000
(1768226094.535020) slcan0 661#037F217800000000
(1768226094.549821) slcan0 661#10346100FFFFFFFF
(1768226094.550251) slcan0 261#3000000000000000
(1768226094.553057) slcan0 661#21FFFFFF00000000
(1768226094.553931) slcan0 661#2280B70082FFB114
(1768226094.555265) slcan0 661#23808000FF172001
(1768226094.558750) slcan0 661#24FDFFFFFFFF6CFF
(1768226094.559940) slcan0 661#25FFFFFFFFFFFF40
(1768226094.562211) slcan0 661#26000E0040000021
(1768226094.562867) slcan0 661#27FF5AFFFF000000
(1768226094.652535) slcan0 261#0221000000000000
(1768226094.664864) slcan0 661#037F217800000000
(1768226094.678430) slcan0 661#10346100FFFFFFFF
(1768226094.678618) slcan0 261#3000000000000000
(1768226094.679850) slcan0 661#21FFFFFF00000000
(1768226094.681835) slcan0 661#2280B60082FFB114
(1768226094.682780) slcan0 661#23808000FF170E01
(1768226094.683832) slcan0 661#24FDFFFFFFFF6CFF
(1768226094.684804) slcan0 661#25FFFFFFFFFFFF40
(1768226094.688934) slcan0 661#26000E0040000021
(1768226094.689803) slcan0 661#27FF5AFFFF000000
(1768226094.780460) slcan0 261#0221000000000000
(1768226094.794951) slcan0 661#037F217800000000
(1768226094.809579) slcan0 661#10346100FFFFFFFF
(1768226094.809828) slcan0 261#3000000000000000
(1768226094.811869) slcan0 661#21FFFFFF00000000
(1768226094.812812) slcan0 661#2280B60082FFB114
(1768226094.813946) slcan0 661#23808000FF172001
(1768226094.814838) slcan0 661#24FDFFFFFFFF6CFF
(1768226094.820560) slcan0 661#25FFFFFFFFFFFF40
(1768226094.822324) slcan0 661#26000E0040000021
(1768226094.823039) slcan0 661#27FF5AFFFF000000
(1768226094.936579) slcan0 261#0221000000000000
(1768226094.950065) slcan0 661#037F217800000000
(1768226094.969326) slcan0 661#10346100FFFFFFFF
(1768226094.969428) slcan0 261#3000000000000000
(1768226094.971951) slcan0 661#21FFFFFF00000000
(1768226094.973023) slcan0 661#2280B60082FFB114
(1768226094.974174) slcan0 661#23808000FF172C01
(1768226094.975007) slcan0 661#24FDFFFFFFFF6CFF
(1768226094.978611) slcan0 661#25FFFFFFFFFFFF40
(1768226094.978868) slcan0 661#26000E0040000021
(1768226094.980057) slcan0 661#27FF5AFFFF000000
(1768226095.082643) slcan0 261#041800FF00000000
(1768226095.095088) slcan0 661#037F187800000000
(1768226095.098529) slcan0 661#055801502B200000
(1768226095.207608) slcan0 261#0221000000000000
(1768226095.220775) slcan0 661#037F217800000000
(1768226095.238531) slcan0 661#10346100FFFFFFFF
(1768226095.238553) slcan0 261#3000000000000000
(1768226095.240081) slcan0 661#21FFFFFF00000000
(1768226095.242051) slcan0 661#2280B70082FFB114
(1768226095.243004) slcan0 661#23808000FF173001
(1768226095.243922) slcan0 661#24FDFFFFFFFF6CFF
(1768226095.244898) slcan0 661#25FFFFFFFFFFFF40
(1768226095.249506) slcan0 661#26000E0040000021
(1768226095.249919) slcan0 661#27FF5AFFFF000000
(1768226095.345523) slcan0 261#0221000000000000
(1768226095.360195) slcan0 661#037F217800000000
(1768226095.378428) slcan0 661#10346100FFFFFFFF
(1768226095.378652) slcan0 261#3000000000000000
(1768226095.380034) slcan0 661#21FFFFFF00000000
(1768226095.381944) slcan0 661#2280B60082FFB114
(1768226095.383155) slcan0 661#23808000FF173801
(1768226095.384010) slcan0 661#24FDFFFFFFFF6CFF
(1768226095.385012) slcan0 661#25FFFFFFFFFFFF40
(1768226095.388234) slcan0 661#26000E0040000021
(1768226095.388935) slcan0 661#27FF5AFFFF000000
(1768226095.497442) slcan0 261#0221000000000000
(1768226095.509989) slcan0 661#037F217800000000
(1768226095.528714) slcan0 661#10346100FFFFFFFF
(1768226095.528960) slcan0 261#3000000000000000
(1768226095.534343) slcan0 661#21FFFFFF00000000
(1768226095.534979) slcan0 661#2280B70082FFB114
(1768226095.538239) slcan0 661#23808000FF172001
(1768226095.538981) slcan0 661#24FDFFFFFFFF6CFF
(1768226095.539948) slcan0 661#25FFFFFFFFFFFF40
(1768226095.542167) slcan0 661#26000E0040000021
(1768226095.542991) slcan0 661#27FF5AFFFF000000
(1768226095.634521) slcan0 261#0221000000000000
(1768226095.649955) slcan0 661#037F217800000000
(1768226095.668964) slcan0 661#10346100FFFFFFFF
(1768226095.669110) slcan0 261#3000000000000000
(1768226095.671958) slcan0 661#21FFFFFF00000000
(1768226095.672894) slcan0 661#2280B60082FFB114
(1768226095.674024) slcan0 661#23808000FF171801
(1768226095.674920) slcan0 661#24FDFFFFFFFF6CFF
(1768226095.678250) slcan0 661#25FFFFFFFFFFFF40
(1768226095.678995) slcan0 661#26000E0040000021
(1768226095.679968) slcan0 661#27FF5AFFFF000000
(1768226095.806571) slcan0 261#0221000000000000
(1768226095.820696) slcan0 661#037F217800000000
(1768226095.838119) slcan0 661#10346100FFFFFFFF
(1768226095.838441) slcan0 261#3000000000000000
(1768226095.840015) slcan0 661#21FFFFFF00000000
(1768226095.842160) slcan0 661#2280B70082FFB114
(1768226095.842914) slcan0 661#23808000FF171201
(1768226095.843768) slcan0 661#24FDFFFFFFFF6CFF
(1768226095.844816) slcan0 661#25FFFFFFFFFFFF40
(1768226095.849580) slcan0 661#26000E0040000021
(1768226095.849839) slcan0 661#27FF5AFFFF000000
(1768226095.939339) slcan0 261#0221000000000000
(1768226095.955087) slcan0 661#037F217800000000
(1768226095.968911) slcan0 661#10346100FFFFFFFF
(1768226095.969022) slcan0 261#3000000000000000
(1768226095.971839) slcan0 661#21FFFFFF00000000
(1768226095.973886) slcan0 661#2280B60082FFB114
(1768226095.975076) slcan0 661#23808000FF170E01
(1768226095.978324) slcan0 661#24FDFFFFFFFF6CFF
(1768226095.978805) slcan0 661#25FFFFFFFFFFFF40
(1768226095.979783) slcan0 661#26000E0040000021
(1768226095.981812) slcan0 661#27FF5AFFFF000000
(1768226096.069269) slcan0 261#0221000000000000
(1768226096.084902) slcan0 661#037F217800000000
(1768226096.098197) slcan0 661#10346100FFFFFFFF
(1768226096.098423) slcan0 261#3000000000000000
(1768226096.099790) slcan0 661#21FFFFFF00000000
(1768226096.101656) slcan0 661#2280B60082FFB114
(1768226096.102740) slcan0 661#23808000FF170401
(1768226096.103780) slcan0 661#24FDFFFFFFFF6CFF
(1768226096.105329) slcan0 661#25FFFFFFFFFFFF40
(1768226096.108713) slcan0 661#26000E0040000021
(1768226096.109874) slcan0 661#27FF5AFFFF000000
(1768226096.240349) slcan0 261#0221000000000000
(1768226096.258398) slcan0 661#037F217800000000
(1768226096.268562) slcan0 661#10346100FFFFFFFF
(1768226096.268809) slcan0 261#3000000000000000
(1768226096.269900) slcan0 661#21FFFFFF00000000
(1768226096.271782) slcan0 661#2280B60082FFB114
(1768226096.273276) slcan0 661#23808000FF16F401
(1768226096.273837) slcan0 661#24FDFFFFFFFF6CFF
(1768226096.274959) slcan0 661#25FFFFFFFFFFFF40
(1768226096.278368) slcan0 661#26000E0040000021
(1768226096.278880) slcan0 661#27FF5AFFFF000000
(1768226096.371327) slcan0 261#0221000000000000
(1768226096.384917) slcan0 661#037F217800000000
(1768226096.398462) slcan0 661#10346100FFFFFFFF
(1768226096.398617) slcan0 261#3000000000000000
(1768226096.399993) slcan0 661#21FFFFFF00000000
(1768226096.401895) slcan0 661#2280B60082FFB114
(1768226096.402874) slcan0 661#23808000FF16E601
(1768226096.403903) slcan0 661#24FDFFFFFFFF6CFF
(1768226096.405245) slcan0 661#25FFFFFFFFFFFF40
(1768226096.408816) slcan0 661#26000E0040000021
(1768226096.409948) slcan0 661#27FF5AFFFF000000
(1768226096.511196) slcan0 261#0221000000000000
(1768226096.525030) slcan0 661#037F217800000000
(1768226096.539636) slcan0 661#10346100FFFFFFFF
(1768226096.539943) slcan0 261#3000000000000000
(1768226096.542078) slcan0 661#21FFFFFF00000000
(1768226096.543185) slcan0 661#2280B70082FFB114
(1768226096.543975) slcan0 661#23808000FF170401
(1768226096.545009) slcan0 661#24FDFFFFFFFF6CFF
(1768226096.550015) slcan0 661#25FFFFFFFFFFFF40
(1768226096.551920) slcan0 661#26000E0040000021
(1768226096.552914) slcan0 661#27FF5AFFFF000000
(1768226096.634229) slcan0 261#0221000000000000
(1768226096.649934) slcan0 661#037F217800000000
(1768226096.668854) slcan0 661#10346100FFFFFFFF
(1768226096.669036) slcan0 261#3000000000000000
(1768226096.671778) slcan0 661#21FFFFFF00000000
(1768226096.672753) slcan0 661#2280B60082FFB114
(1768226096.673887) slcan0 661#23808000FF172201
(1768226096.674727) slcan0 661#24FDFFFFFFFF6CFF
(1768226096.679038) slcan0 661#25FFFFFFFFFFFF40
(1768226096.679905) slcan0 661#26000E0040000021
(1768226096.682079) slcan0 661#27FF5AFFFF000000
(1768226096.819258) slcan0 261#0221000000000000
(1768226096.834959) slcan0 661#037F217800000000
(1768226096.850053) slcan0 661#10346100FFFFFFFF
(1768226096.850086) slcan0 261#3000000000000000
(1768226096.852858) slcan0 661#21FFFFFF00000000
(1768226096.853870) slcan0 661#2280B70082FFB114
(1768226096.854922) slcan0 661#23808000FF172601
(1768226096.860345) slcan0 661#24FDFFFFFFFF6CFF
(1768226096.862667) slcan0 661#25FFFFFFFFFFFF40
(1768226096.863841) slcan0 661#26000E0040000021
(1768226096.864979) slcan0 661#27FF5AFFFF000000
(1768226096.985384) slcan0 261#0221000000000000
(1768226096.999930) slcan0 661#037F217800000000
(1768226097.022476) slcan0 661#10346100FFFFFFFF
(1768226097.022682) slcan0 261#3000000000000000
(1768226097.024018) slcan0 661#21FFFFFF00000000
(1768226097.024898) slcan0 661#2280B70082FFB114
(1768226097.029010) slcan0 661#23808000FF172201
(1768226097.030068) slcan0 661#24FDFFFFFFFF6CFF
(1768226097.031973) slcan0 661#25FFFFFFFFFFFF40
(1768226097.033535) slcan0 661#26000E0040000021
(1768226097.033976) slcan0 661#27FF5AFFFF000000
(1768226097.160114) slcan0 261#0221000000000000
(1768226097.174868) slcan0 661#037F217800000000
(1768226097.188611) slcan0 661#10346100FFFFFFFF
(1768226097.188824) slcan0 261#3000000000000000
(1768226097.189895) slcan0 661#21FFFFFF00000000
(1768226097.191825) slcan0 661#2280B60082FFB114
(1768226097.192834) slcan0 661#23808000FF171801
(1768226097.193854) slcan0 661#24FDFFFFFFFF6CFF
(1768226097.194857) slcan0 661#25FFFFFFFFFFFF40
(1768226097.198497) slcan0 661#26000E0040000021
(1768226097.198795) slcan0 661#27FF5AFFFF000000
(1768226097.336279) slcan0 261#041800FF00000000
(1768226097.349852) slcan0 661#037F187800000000
(1768226097.358472) slcan0 661#055801502B200000
(1768226097.438107) slcan0 261#0221000000000000
(1768226097.450089) slcan0 661#037F217800000000
(1768226097.468982) slcan0 661#10346100FFFFFFFF
(1768226097.469004) slcan0 261#3000000000000000
(1768226097.471816) slcan0 661#21FFFFFF00000000
(1768226097.472954) slcan0 661#2280B60082FFB114
(1768226097.473811) slcan0 661#23808000FF170401
(1768226097.474836) slcan0 661#24FDFFFFFFFF6CFF
(1768226097.478544) slcan0 661#25FFFFFFFFFFFF40
(1768226097.478781) slcan0 661#26000E0040000021
(1768226097.479804) slcan0 661#27FF5AFFFF000000
(1768226097.563207) slcan0 261#0221000000000000
(1768226097.574944) slcan0 661#037F217800000000
(1768226097.588489) slcan0 661#10346100FFFFFFFF
(1768226097.588751) slcan0 261#3000000000000000
(1768226097.589978) slcan0 661#21FFFFFF00000000
(1768226097.591959) slcan0 661#2280B60082FFB114
(1768226097.592915) slcan0 661#23808000FF170001
(1768226097.593939) slcan0 661#24FDFFFFFFFF6CFF
(1768226097.595011) slcan0 661#25FFFFFFFFFFFF40
(1768226097.598208) slcan0 661#26000E0040000021
(1768226097.598980) slcan0 661#27FF5AFFFF000000
(1768226097.721253) slcan0 261#0221000000000000
(1768226097.734858) slcan0 661#037F217800000000
(1768226097.749894) slcan0 661#10346100FFFFFFFF
(1768226097.750154) slcan0 261#3000000000000000
(1768226097.752848) slcan0 661#21FFFFFF00000000
(1768226097.753833) slcan0 661#2280B70082FFB114
(1768226097.754851) slcan0 661#23808000FF171201
(1768226097.758580) slcan0 661#24FDFFFFFFFF6CFF
(1768226097.758851) slcan0 661#25FFFFFFFFFFFF40
(1768226097.760038) slcan0 661#26000E0040000021
(1768226097.763495) slcan0 661#27FF5AFFFF000000
(1768226097.854268) slcan0 261#0221000000000000
(1768226097.869872) slcan0 661#037F217800000000
(1768226097.888627) slcan0 661#10346100FFFFFFFF
(1768226097.888745) slcan0 261#3000000000000000
(1768226097.889947) slcan0 661#21FFFFFF00000000
(1768226097.891925) slcan0 661#2280B60082FFB114
(1768226097.892972) slcan0 661#23808000FF171601
(1768226097.893892) slcan0 661#24FDFFFFFFFF6CFF
(1768226097.894962) slcan0 661#25FFFFFFFFFFFF40
(1768226097.898319) slcan0 661#26000E0040000021
(1768226097.898961) slcan0 661#27FF5AFFFF000000
(1768226097.993354) slcan0 261#0221000000000000
(1768226098.005048) slcan0 661#037F217800000000
(1768226098.020785) slcan0 661#10346100FFFFFFFF
(1768226098.020955) slcan0 261#3000000000000000
(1768226098.023207) slcan0 661#21FFFFFF00000000
(1768226098.023920) slcan0 661#2280B70082FFB114
(1768226098.025259) slcan0 661#23808000FF170001
(1768226098.028861) slcan0 661#24FDFFFFFFFF6CFF
(1768226098.029788) slcan0 661#25FFFFFFFFFFFF40
(1768226098.031782) slcan0 661#26000E0040000021
(1768226098.033041) slcan0 661#27FF5AFFFF000000
(1768226098.228173) slcan0 261#0221000000000000
(1768226098.239864) slcan0 661#037F217800000000
(1768226098.258421) slcan0 661#10346100FFFFFFFF
(1768226098.258735) slcan0 261#3000000000000000
(1768226098.260358) slcan0 661#21FFFFFF00000000
(1768226098.262630) slcan0 661#2280B70082FFB114
(1768226098.262861) slcan0 661#23808000FF172401
(1768226098.263921) slcan0 661#24FDFFFFFFFF6CFF
(1768226098.265079) slcan0 661#25FFFFFFFFFFFF40
(1768226098.269014) slcan0 661#26000E0040000021
(1768226098.269844) slcan0 661#27FF5AFFFF000000
(1768226098.404149) slcan0 261#0221000000000000
(1768226098.422116) slcan0 661#037F217800000000
(1768226098.438312) slcan0 661#10346100FFFFFFFF
(1768226098.438505) slcan0 261#3000000000000000
(1768226098.439813) slcan0 661#21FFFFFF00000000
(1768226098.441705) slcan0 661#2280B70082FFB114
(1768226098.442907) slcan0 661#23808000FF171A01
(1768226098.443897) slcan0 661#24FDFFFFFFFF6CFF
(1768226098.450266) slcan0 661#25FFFFFFFFFFFF40
(1768226098.451991) slcan0 661#26000E0040000021
(1768226098.452788) slcan0 661#27FF5AFFFF000000
(1768226098.525030) slcan0 261#0221000000000000
(1768226098.539845) slcan0 661#037F217800000000
(1768226098.558512) slcan0 661#10346100FFFFFFFF
(1768226098.558691) slcan0 261#3000000000000000
(1768226098.560402) slcan0 661#21FFFFFF00000000
(1768226098.562214) slcan0 661#2280B70082FFB114
(1768226098.562915) slcan0 661#23808000FF170A01
(1768226098.564133) slcan0 661#24FDFFFFFFFF6CFF
(1768226098.564999) slcan0 661#25FFFFFFFFFFFF40
(1768226098.569032) slcan0 661#26000E0040000021
(1768226098.569836) slcan0 661#27FF5AFFFF000000
(1768226098.661912) slcan0 261#0221000000000000
(1768226098.674655) slcan0 661#037F217800000000
(1768226098.688721) slcan0 661#10346100FFFFFFFF
(1768226098.688960) slcan0 261#3000000000000000
(1768226098.691734) slcan0 661#21FFFFFF00000000
(1768226098.692770) slcan0 661#2280B60082FFB114
(1768226098.693722) slcan0 661#23808000FF170C01
(1768226098.694757) slcan0 661#24FDFFFFFFFF6CFF
(1768226098.698468) slcan0 661#25FFFFFFFFFFFF40
(1768226098.698727) slcan0 661#26000E0040000021
(1768226098.699745) slcan0 661#27FF5AFFFF000000
(1768226098.796967) slcan0 261#0221000000000000
(1768226098.809807) slcan0 661#037F217800000000
(1768226098.830119) slcan0 661#10346100FFFFFFFF
(1768226098.830286) slcan0 261#3000000000000000
(1768226098.833178) slcan0 661#21FFFFFF00000000
(1768226098.833816) slcan0 661#2280B70082FFB114
(1768226098.834883) slcan0 661#23808000FF170001
(1768226098.838575) slcan0 661#24FDFFFFFFFF6CFF
(1768226098.838769) slcan0 661#25FFFFFFFFFFFF40
(1768226098.839792) slcan0 661#26000E0040000021
(1768226098.841947) slcan0 661#27FF5AFFFF000000
(1768226098.923964) slcan0 261#0221000000000000
(1768226098.939915) slcan0 661#037F217800000000
(1768226098.958527) slcan0 661#10346100FFFFFFFF
(1768226098.958709) slcan0 261#3000000000000000
(1768226098.960262) slcan0 661#21FFFFFF00000000
(1768226098.962599) slcan0 661#2280B70082FFB114
(1768226098.962906) slcan0 661#23808000FF16F001
(1768226098.963828) slcan0 661#24FDFFFFFFFF6CFF
(1768226098.964715) slcan0 661#25FFFFFFFFFFFF40
(1768226098.969519) slcan0 661#26000E0040000021
(1768226098.969693) slcan0 661#27FF5AFFFF000000
(1768226099.053125) slcan0 261#0221000000000000
(1768226099.064911) slcan0 661#037F217800000000
(1768226099.078530) slcan0 661#10346100FFFFFFFF
(1768226099.078674) slcan0 261#3000000000000000
(1768226099.079688) slcan0 661#21FFFFFF00000000
(1768226099.081874) slcan0 661#2280B60082FFB114
(1768226099.082684) slcan0 661#23808000FF16FE01
(1768226099.084490) slcan0 661#24FDFFFFFFFF6CFF
(1768226099.084632) slcan0 661#25FFFFFFFFFFFF40
(1768226099.089231) slcan0 661#26000E0040000021
(1768226099.089767) slcan0 661#27FF5AFFFF000000
(1768226099.163915) slcan0 261#0221000000000000
(1768226099.179757) slcan0 661#037F217800000000
(1768226099.198327) slcan0 661#10346100FFFFFFFF
(1768226099.198589) slcan0 261#3000000000000000
(1768226099.199773) slcan0 661#21FFFFFF00000000
(1768226099.201978) slcan0 661#2280B60082FFB114
(1768226099.202745) slcan0 661#23808000FF171601
(1768226099.203740) slcan0 661#24FDFFFFFFFF6CFF
(1768226099.204710) slcan0 661#25FFFFFFFFFFFF40
(1768226099.209453) slcan0 661#26000E0040000021
(1768226099.209721) slcan0 661#27FF5AFFFF000000
(1768226099.313060) slcan0 261#0221000000000000
(1768226099.324954) slcan0 661#037F217800000000
(1768226099.338562) slcan0 661#10346100FFFFFFFF
(1768226099.338758) slcan0 261#3000000000000000
(1768226099.339849) slcan0 661#21FFFFFF00000000
(1768226099.341772) slcan0 661#2280B70082FFB114
(1768226099.342754) slcan0 661#23808000FF16FE01
(1768226099.343765) slcan0 661#24FDFFFFFFFF6CFF
(1768226099.344766) slcan0 661#25FFFFFFFFFFFF40
(1768226099.352107) slcan0 661#26000E0040000021
(1768226099.352766) slcan0 661#27FF5AFFFF000000
(1768226099.450181) slcan0 261#041800FF00000000
(1768226099.465060) slcan0 661#037F187800000000
(1768226099.468844) slcan0 661#055801502B200000
(1768226099.573821) slcan0 261#0221000000000000
(1768226099.589717) slcan0 661#037F217800000000
(1768226099.608957) slcan0 661#10346100FFFFFFFF
(1768226099.609205) slcan0 261#3000000000000000
(1768226099.612027) slcan0 661#21FFFFFF00000000
(1768226099.612857) slcan0 661#2280B60082FFB114
(1768226099.613847) slcan0 661#23808000FF170C01
(1768226099.614852) slcan0 661#24FDFFFFFFFF6CFF
(1768226099.620399) slcan0 661#25FFFFFFFFFFFF40
(1768226099.622353) slcan0 661#26000E0040000021
(1768226099.622728) slcan0 661#27FF5AFFFF000000
(1768226099.704898) slcan0 261#0221000000000000
(1768226099.722445) slcan0 661#037F217800000000
(1768226099.738642) slcan0 661#10346100FFFFFFFF
(1768226099.738910) slcan0 261#3000000000000000
(1768226099.739771) slcan0 661#21FFFFFF00000000
(1768226099.742035) slcan0 661#2280B70082FFB114
(1768226099.742926) slcan0 661#23808000FF171E01
(1768226099.743850) slcan0 661#24FDFFFFFFFF6CFF
(1768226099.744936) slcan0 661#25FFFFFFFFFFFF40
(1768226099.749717) slcan0 661#26000E0040000021
(1768226099.754421) slcan0 661#27FF5AFFFF000000
(1768226099.834854) slcan0 261#0221000000000000
(1768226099.849898) slcan0 661#037F217800000000
(1768226099.868883) slcan0 661#10346100FFFFFFFF
(1768226099.869160) slcan0 261#3000000000000000
(1768226099.872967) slcan0 661#21FFFFFF00000000
(1768226099.873726) slcan0 661#2280B60082FFB114
(1768226099.874707) slcan0 661#23808000FF172801
(1768226099.878282) slcan0 661#24FDFFFFFFFF6CFF
(1768226099.878773) slcan0 661#25FFFFFFFFFFFF40
(1768226099.879717) slcan0 661#26000E0040000021
(1768226099.881711) slcan0 661#27FF5AFFFF000000
(1768226099.956129) slcan0 261#0221000000000000
(1768226099.969730) slcan0 661#037F217800000000
(1768226099.988433) slcan0 661#10346100FFFFFFFF
(1768226099.988451) slcan0 261#3000000000000000
(1768226099.989837) slcan0 661#21FFFFFF00000000
(1768226099.992027) slcan0 661#2280B60082FFB114
(1768226099.993036) slcan0 661#23808000FF172001
(1768226099.993832) slcan0 661#24FDFFFFFFFF6CFF
(1768226099.994831) slcan0 661#25FFFFFFFFFFFF40
(1768226099.998257) slcan0 661#26000E0040000021
(1768226099.998897) slcan0 661#27FF5AFFFF000000
(1768226100.089838) slcan0 261#0221000000000000
(1768226100.104851) slcan0 661#037F217800000000
(1768226100.120581) slcan0 661#10346100FFFFFFFF
(1768226100.120774) slcan0 261#3000000000000000
(1768226100.122689) slcan0 661#21FFFFFF00000000
(1768226100.123701) slcan0 661#2280B60082FFB114
(1768226100.124782) slcan0 661#23808000FF172401
(1768226100.129005) slcan0 661#24FDFFFFFFFF6CFF
(1768226100.129823) slcan0 661#25FFFFFFFFFFFF40
(1768226100.131650) slcan0 661#26000E0040000021
(1768226100.133611) slcan0 661#27FF5AFFFF000000
(1768226100.243870) slcan0 261#0221000000000000
(1768226100.260520) slcan0 661#037F217800000000
(1768226100.278387) slcan0 661#10346100FFFFFFFF
(1768226100.278602) slcan0 261#3000000000000000
(1768226100.279743) slcan0 661#21FFFFFF00000000
(1768226100.281757) slcan0 661#2280B60082FFB114
(1768226100.282686) slcan0 661#23808000FF172801
(1768226100.284943) slcan0 661#24FDFFFFFFFF6CFF
(1768226100.284957) slcan0 661#25FFFFFFFFFFFF40
(1768226100.288179) slcan0 661#26000E0040000021
(1768226100.288651) slcan0 661#27FF5AFFFF000000
(1768226100.388832) slcan0 261#0221000000000000
(1768226100.405070) slcan0 661#037F217800000000
(1768226100.420426) slcan0 661#10346100FFFFFFFF
(1768226100.420591) slcan0 261#3000000000000000
(1768226100.422925) slcan0 661#21FFFFFF00000000
(1768226100.423830) slcan0 661#2280B60082FFB114
(1768226100.424797) slcan0 661#23808000FF173201
(1768226100.428845) slcan0 661#24FDFFFFFFFF6CFF
(1768226100.429840) slcan0 661#25FFFFFFFFFFFF40
(1768226100.431860) slcan0 661#26000E0040000021
(1768226100.433050) slcan0 661#27FF5AFFFF000000
(1768226100.537578) slcan0 261#0221000000000000
(1768226100.550142) slcan0 661#037F217800000000
(1768226100.569172) slcan0 661#10346100FFFFFFFF
(1768226100.569186) slcan0 261#3000000000000000
(1768226100.571961) slcan0 661#21FFFFFF00000000
(1768226100.572833) slcan0 661#2280B60082FFB114
(1768226100.573788) slcan0 661#23808000FF16EE01
(1768226100.574713) slcan0 661#24FDFFFFFFFF6CFF
(1768226100.578493) slcan0 661#25FFFFFFFFFFFF40
(1768226100.579724) slcan0 661#26000E0040000021
(1768226100.581710) slcan0 661#27FF5AFFFF000000
(1768226100.664469) slcan0 261#0221000000000000
(1768226100.679653) slcan0 661#037F217800000000
(1768226100.698269) slcan0 661#10346100FFFFFFFF
(1768226100.698454) slcan0 261#3000000000000000
(1768226100.699644) slcan0 661#21FFFFFF00000000
(1768226100.701616) slcan0 661#2280B70082FFB114
(1768226100.702596) slcan0 661#23808000FF170401
(1768226100.703709) slcan0 661#24FDFFFFFFFF6CFF
(1768226100.704591) slcan0 661#25FFFFFFFFFFFF40
(1768226100.708511) slcan0 661#26000E0040000021
(1768226100.709670) slcan0 661#27FF5AFFFF000000
(1768226100.838597) slcan0 261#0221000000000000
(1768226100.854842) slcan0 661#037F217800000000
(1768226100.869029) slcan0 661#10346100FFFFFFFF
(1768226100.869048) slcan0 261#3000000000000000
(1768226100.871940) slcan0 661#21FFFFFF00000000
(1768226100.872691) slcan0 661#2280B60082FFB114
(1768226100.873837) slcan0 661#23808000FF16FC01
(1768226100.874704) slcan0 661#24FDFFFFFFFF6CFF
(1768226100.878426) slcan0 661#25FFFFFFFFFFFF40
(1768226100.878611) slcan0 661#26000E0040000021
(1768226100.879656) slcan0 661#27FF5AFFFF000000
(1768226100.960542) slcan0 261#0221000000000000
(1768226100.974833) slcan0 661#037F217800000000
(1768226100.988277) slcan0 661#10346100FFFFFFFF
(1768226100.988450) slcan0 261#3000000000000000
(1768226100.989753) slcan0 661#21FFFFFF00000000
(1768226100.991681) slcan0 661#2280B60082FFB114
(1768226100.992834) slcan0 661#23808000FF170201
(1768226100.993653) slcan0 661#24FDFFFFFFFF6CFF
(1768226100.994703) slcan0 661#25FFFFFFFFFFFF40
(1768226100.998425) slcan0 661#26000E0040000021
(1768226100.998775) slcan0 661#27FF5AFFFF000000
(1768226101.071609) slcan0 261#0221000000000000
(1768226101.084775) slcan0 661#037F217800000000
(1768226101.098558) slcan0 661#10346100FFFFFFFF
(1768226101.098825) slcan0 261#3000000000000000
(1768226101.100011) slcan0 661#21FFFFFF00000000
(1768226101.101628) slcan0 661#2280B60082FFB114
(1768226101.102654) slcan0 661#23808000FF16E601
(1768226101.103683) slcan0 661#24FDFFFFFFFF6CFF
(1768226101.104674) slcan0 661#25FFFFFFFFFFFF40
(1768226101.108807) slcan0 661#26000E0040000021
(1768226101.109683) slcan0 661#27FF5AFFFF000000
(1768226101.192545) slcan0 261#0221000000000000
(1768226101.204739) slcan0 661#037F217800000000
(1768226101.222201) slcan0 661#10346100FFFFFFFF
(1768226101.222382) slcan0 261#3000000000000000
(1768226101.223836) slcan0 661#21FFFFFF00000000
(1768226101.224781) slcan0 661#2280B70082FFB114
(1768226101.229064) slcan0 661#23808000FF16EC01
(1768226101.229975) slcan0 661#24FDFFFFFFFF6CFF
(1768226101.231689) slcan0 661#25FFFFFFFFFFFF40
(1768226101.233397) slcan0 661#26000E0040000021
(1768226101.233794) slcan0 661#27FF5AFFFF000000
(1768226101.336572) slcan0 261#0221000000000000
(1768226101.349852) slcan0 661#037F217800000000
(1768226101.368562) slcan0 661#10346100FFFFFFFF
(1768226101.368590) slcan0 261#3000000000000000
(1768226101.369731) slcan0 661#21FFFFFF00000000
(1768226101.371701) slcan0 661#2280B60082FFB114
(1768226101.372794) slcan0 661#23808000FF16FC01
(1768226101.373688) slcan0 661#24FDFFFFFFFF6CFF
(1768226101.374799) slcan0 661#25FFFFFFFFFFFF40
(1768226101.378434) slcan0 661#26000E0040000021
(1768226101.379444) slcan0 661#27FF5AFFFF000000
(1768226101.460569) slcan0 261#041800FF00000000
(1768226101.474800) slcan0 661#037F187800000000
(1768226101.478091) slcan0 661#055801502B200000
(1768226101.591273) slcan0 261#0221000000000000
(1768226101.604674) slcan0 661#037F217800000000
(1768226101.622486) slcan0 661#10346100FFFFFFFF
(1768226101.622787) slcan0 261#3000000000000000
(1768226101.623789) slcan0 661#21FFFFFF00000000
(1768226101.624748) slcan0 661#2280B70082FFB114
(1768226101.628875) slcan0 661#23808000FF172401
(1768226101.629726) slcan0 661#24FDFFFFFFFF6CFF
(1768226101.631809) slcan0 661#25FFFFFFFFFFFF40
(1768226101.633033) slcan0 661#26000E0040000021
(1768226101.633782) slcan0 661#27FF5AFFFF000000
(1768226101.707328) slcan0 261#0221000000000000
(1768226101.722249) slcan0 661#037F217800000000
(1768226101.738262) slcan0 661#10346100FFFFFFFF
(1768226101.738500) slcan0 261#3000000000000000
(1768226101.739677) slcan0 661#21FFFFFF00000000
(1768226101.742320) slcan0 661#2280B60082FFB114
(1768226101.742687) slcan0 661#23808000FF170401
(1768226101.743688) slcan0 661#24FDFFFFFFFF6CFF
(1768226101.744722) slcan0 661#25FFFFFFFFFFFF40
(1768226101.749453) slcan0 661#26000E0040000021
(1768226101.749675) slcan0 661#27FF5AFFFF000000
(1768226101.874416) slcan0 261#0221000000000000
(1768226101.889829) slcan0 661#037F217800000000
(1768226101.908586) slcan0 661#10346100FFFFFFFF
(1768226101.908827) slcan0 261#3000000000000000
(1768226101.909814) slcan0 661#21FFFFFF00000000
(1768226101.911826) slcan0 661#2280B60082FFB114
(1768226101.912813) slcan0 661#23808000FF170201
(1768226101.913826) slcan0 661#24FDFFFFFFFF6CFF
(1768226101.914732) slcan0 661#25FFFFFFFFFFFF40
(1768226101.920326) slcan0 661#26000E0040000021
(1768226101.922902) slcan0 661#27FF5AFFFF000000
(1768226102.050271) slcan0 261#0221000000000000
(1768226102.064724) slcan0 661#037F217800000000
(1768226102.078159) slcan0 661#10346100FFFFFFFF
(1768226102.078469) slcan0 261#3000000000000000
(1768226102.079711) slcan0 661#21FFFFFF00000000
(1768226102.081968) slcan0 661#2280B60082FFB114
(1768226102.082741) slcan0 661#23808000FF170A01
(1768226102.083755) slcan0 661#24FDFFFFFFFF6CFF
(1768226102.084737) slcan0 661#25FFFFFFFFFFFF40
(1768226102.088200) slcan0 661#26000E0040000021
(1768226102.088662) slcan0 661#27FF5AFFFF000000
(1768226102.169122) slcan0 261#0221000000000000
(1768226102.184549) slcan0 661#037F217800000000
(1768226102.197969) slcan0 661#10346100FFFFFFFF
(1768226102.198234) slcan0 261#3000000000000000
(1768226102.199579) slcan0 661#21FFFFFF00000000
(1768226102.201763) slcan0 661#2280B60082FFB114
(1768226102.202551) slcan0 661#23808000FF171001
(1768226102.203555) slcan0 661#24FDFFFFFFFF6CFF
(1768226102.204554) slcan0 661#25FFFFFFFFFFFF40
(1768226102.208261) slcan0 661#26000E0040000021
(1768226102.208573) slcan0 661#27FF5AFFFF000000
(1768226102.341210) slcan0 261#0221000000000000
(1768226102.354744) slcan0 661#037F217800000000
(1768226102.369134) slcan0 661#10346100FFFFFFFF
(1768226102.369398) slcan0 261#3000000000000000
(1768226102.372020) slcan0 661#21FFFFFF00000000
(1768226102.372966) slcan0 661#2280B60082FFB114
(1768226102.373678) slcan0 661#23808000FF172601
(1768226102.374722) slcan0 661#24FDFFFFFFFF6CFF
(1768226102.378101) slcan0 661#25FFFFFFFFFFFF40
(1768226102.378751) slcan0 661#26000E0040000021
(1768226102.379631) slcan0 661#27FF5AFFFF000000
(1768226102.461170) slcan0 261#0221000000000000
(1768226102.474885) slcan0 661#037F217800000000
(1768226102.488532) slcan0 661#10346100FFFFFFFF
(1768226102.488706) slcan0 261#3000000000000000
(1768226102.489729) slcan0 661#21FFFFFF00000000
(1768226102.491960) slcan0 661#2280B70082FFB114
(1768226102.492738) slcan0 661#23808000FF173001
(1768226102.493788) slcan0 661#24FDFFFFFFFF6CFF
(1768226102.494828) slcan0 661#25FFFFFFFFFFFF40
(1768226102.498192) slcan0 661#26000E0040000021
(1768226102.498683) slcan0 661#27FF5AFFFF000000
(1768226102.583232) slcan0 261#0221000000000000
(1768226102.594945) slcan0 661#037F217800000000
(1768226102.608522) slcan0 661#10346100FFFFFFFF
(1768226102.608944) slcan0 261#3000000000000000
(1768226102.612042) slcan0 661#21FFFFFF00000000
(1768226102.612633) slcan0 661#2280B60082FFB114
(1768226102.613637) slcan0 661#23808000FF175C01
(1768226102.614702) slcan0 661#24FDFFFFFFFF6CFF
(1768226102.620357) slcan0 661#25FFFFFFFFFFFF40
(1768226102.622135) slcan0 661#26000E0040000021
(1768226102.622710) slcan0 661#27FF5AFFFF000000
(1768226102.703147) slcan0 261#0221000000000000
(1768226102.714554) slcan0 661#037F217800000000
(1768226102.728926) slcan0 661#10346100FFFFFFFF
(1768226102.729064) slcan0 261#3000000000000000
(1768226102.731930) slcan0 661#21FFFFFF00000000
(1768226102.733024) slcan0 661#2280B70082FFB114
(1768226102.733742) slcan0 661#23808000FF173C01
(1768226102.734724) slcan0 661#24FDFFFFFFFF6CFF
(1768226102.738287) slcan0 661#25FFFFFFFFFFFF40
(1768226102.738744) slcan0 661#26000E0040000021
(1768226102.739738) slcan0 661#27FF5AFFFF000000
(1768226102.835335) slcan0 261#0221000000000000
(1768226102.849879) slcan0 661#037F217800000000
(1768226102.869593) slcan0 661#10346100FFFFFFFF
(1768226102.869972) slcan0 261#3000000000000000
(1768226102.872788) slcan0 661#21FFFFFF00000000
(1768226102.873767) slcan0 661#2280B70082FFB114
(1768226102.874716) slcan0 661#23808000FF174401
(1768226102.878224) slcan0 661#24FDFFFFFFFF6CFF
(1768226102.878587) slcan0 661#25FFFFFFFFFFFF40
(1768226102.879596) slcan0 661#26000E0040000021
(1768226102.882036) slcan0 661#27FF5AFFFF000000
(1768226102.965209) slcan0 261#0221000000000000
(1768226102.979591) slcan0 661#037F217800000000
(1768226102.997793) slcan0 661#10346100FFFFFFFF
(1768226102.997926) slcan0 261#3000000000000000
(1768226102.999645) slcan0 661#21FFFFFF00000000
(1768226103.001900) slcan0 661#2280B70082FFB114
(1768226103.002509) slcan0 661#23808000FF175201
(1768226103.003559) slcan0 661#24FDFFFFFFFF6CFF
(1768226103.004536) slcan0 661#25FFFFFFFFFFFF40
(1768226103.009169) slcan0 661#26000E0040000021
(1768226103.009512) slcan0 661#27FF5AFFFF000000
(1768226103.116129) slcan0 261#0221000000000000
(1768226103.129851) slcan0 661#037F217800000000
(1768226103.149740) slcan0 661#10346100FFFFFFFF
(1768226103.149938) slcan0 261#3000000000000000
(1768226103.152499) slcan0 661#21FFFFFF00000000
(1768226103.153631) slcan0 661#2280B70082FFB114
(1768226103.154496) slcan0 661#23808000FF173A01
(1768226103.157849) slcan0 661#24FDFFFFFFFF6CFF
(1768226103.158544) slcan0 661#25FFFFFFFFFFFF40
(1768226103.160079) slcan0 661#26000E0040000021
(1768226103.162322) slcan0 661#27FF5AFFFF000000
(1768226103.254122) slcan0 261#0221000000000000
(1768226103.270046) slcan0 661#037F217800000000
(1768226103.287971) slcan0 661#10346100FFFFFFFF
(1768226103.288208) slcan0 261#3000000000000000
(1768226103.289611) slcan0 661#21FFFFFF00000000
(1768226103.291503) slcan0 661#2280B60082FFB114
(1768226103.292582) slcan0 661#23808000FF173201
(1768226103.293502) slcan0 661#24FDFFFFFFFF6CFF
(1768226103.294546) slcan0 661#25FFFFFFFFFFFF40
(1768226103.297556) slcan0 661#26000E0040000021
(1768226103.298531) slcan0 661#27FF5AFFFF000000
(1768226103.395000) slcan0 261#0221000000000000
(1768226103.409650) slcan0 661#037F217800000000
(1768226103.429818) slcan0 661#10346100FFFFFFFF
(1768226103.430047) slcan0 261#3000000000000000
(1768226103.432972) slcan0 661#21FFFFFF00000000
(1768226103.433647) slcan0 661#2280B70082FFB114
(1768226103.434625) slcan0 661#23808000FF171C01
(1768226103.438424) slcan0 661#24FDFFFFFFFF6CFF
(1768226103.438721) slcan0 661#25FFFFFFFFFFFF40
(1768226103.439576) slcan0 661#26000E0040000021
(1768226103.441605) slcan0 661#27FF5AFFFF000000
(1768226103.529097) slcan0 261#041800FF00000000
(1768226103.544634) slcan0 661#037F187800000000
(1768226103.550180) slcan0 661#055801502B200000
(1768226103.642909) slcan0 261#0221000000000000
(1768226103.654764) slcan0 661#037F217800000000
(1768226103.668710) slcan0 661#10346100FFFFFFFF
(1768226103.668894) slcan0 261#3000000000000000
(1768226103.672484) slcan0 661#21FFFFFF00000000
(1768226103.673863) slcan0 661#2280B70082FFB114
(1768226103.674602) slcan0 661#23808000FF171C01
(1768226103.678183) slcan0 661#24FDFFFFFFFF6CFF
(1768226103.678795) slcan0 661#25FFFFFFFFFFFF40
(1768226103.679559) slcan0 661#26000E0040000021
(1768226103.681501) slcan0 661#27FF5AFFFF000000
(1768226103.782941) slcan0 261#0221000000000000
(1768226103.794690) slcan0 661#037F217800000000
(1768226103.808559) slcan0 661#10346100FFFFFFFF
(1768226103.808786) slcan0 261#3000000000000000
(1768226103.811582) slcan0 661#21FFFFFF00000000
(1768226103.812607) slcan0 661#2280B70082FFB114
(1768226103.813563) slcan0 661#23808000FF171C01
(1768226103.814571) slcan0 661#24FDFFFFFFFF6CFF
(1768226103.820336) slcan0 661#25FFFFFFFFFFFF40
(1768226103.821816) slcan0 661#26000E0040000021
(1768226103.822663) slcan0 661#27FF5AFFFF000000
(1768226103.915818) slcan0 261#0221000000000000
(1768226103.929716) slcan0 661#037F217800000000
(1768226103.949428) slcan0 661#10346100FFFFFFFF
(1768226103.949480) slcan0 261#3000000000000000
(1768226103.952860) slcan0 661#21FFFFFF00000000
(1768226103.953952) slcan0 661#2280B70082FFB114
(1768226103.954677) slcan0 661#23808000FF171001
(1768226103.958389) slcan0 661#24FDFFFFFFFF6CFF
(1768226103.958650) slcan0 661#25FFFFFFFFFFFF40
(1768226103.960113) slcan0 661#26000E0040000021
(1768226103.962149) slcan0 661#27FF5AFFFF000000
(1768226104.046756) slcan0 261#0221000000000000
(1768226104.060341) slcan0 661#037F217800000000
(1768226104.077941) slcan0 661#10346100FFFFFFFF
(1768226104.078100) slcan0 261#3000000000000000
(1768226104.079884) slcan0 661#21FFFFFF00000000
(1768226104.081670) slcan0 661#2280B60082FFB114
(1768226104.082681) slcan0 661#23808000FF171001
(1768226104.083743) slcan0 661#24FDFFFFFFFF6CFF
(1768226104.084783) slcan0 661#25FFFFFFFFFFFF40
(1768226104.088278) slcan0 661#26000E0040000021
(1768226104.088707) slcan0 661#27FF5AFFFF000000
(1768226104.183471) slcan0 261#0221000000000000
(1768226104.199671) slcan0 661#037F217800000000
(1768226104.220350) slcan0 661#10346100FFFFFFFF
(1768226104.220401) slcan0 261#3000000000000000
(1768226104.223040) slcan0 661#21FFFFFF00000000
(1768226104.223719) slcan0 661#2280B70082FFB114
(1768226104.224701) slcan0 661#23808000FF171E01
(1768226104.228879) slcan0 661#24FDFFFFFFFF6CFF
(1768226104.229793) slcan0 661#25FFFFFFFFFFFF40
(1768226104.232161) slcan0 661#26000E0040000021
(1768226104.233283) slcan0 661#27FF5AFFFF000000
(1768226104.320675) slcan0 261#0221000000000000
(1768226104.334791) slcan0 661#037F217800000000
(1768226104.349533) slcan0 661#10346100FFFFFFFF
(1768226104.349802) slcan0 261#3000000000000000
(1768226104.352161) slcan0 661#21FFFFFF00000000
(1768226104.352687) slcan0 661#2280B70082FFB114
(1768226104.353966) slcan0 661#23808000FF172201
(1768226104.354723) slcan0 661#24FDFFFFFFFF6CFF
(1768226104.358165) slcan0 661#25FFFFFFFFFFFF40
(1768226104.358699) slcan0 661#26000E0040000021
(1768226104.360274) slcan0 661#27FF5AFFFF000000
(1768226104.460559) slcan0 261#0221000000000000
(1768226104.474755) slcan0 661#037F217800000000
(1768226104.487980) slcan0 661#10346100FFFFFFFF
(1768226104.488352) slcan0 261#3000000000000000
(1768226104.489714) slcan0 661#21FFFFFF00000000
(1768226104.491666) slcan0 661#2280B60082FFB114
(1768226104.492566) slcan0 661#23808000FF172201
(1768226104.493593) slcan0 661#24FDFFFFFFFF6CFF
(1768226104.494691) slcan0 661#25FFFFFFFFFFFF40
(1768226104.497982) slcan0 661#26000E0040000021
(1768226104.498675) slcan0 661#27FF5AFFFF000000
(1768226104.582537) slcan0 261#0221000000000000
(1768226104.594731) slcan0 661#037F217800000000
(1768226104.608414) slcan0 661#10346100FFFFFFFF
(1768226104.608590) slcan0 261#3000000000000000
(1768226104.609854) slcan0 661#21FFFFFF00000000
(1768226104.611833) slcan0 661#2280B60082FFB114
(1768226104.612642) slcan0 661#23808000FF172A01
(1768226104.613603) slcan0 661#24FDFFFFFFFF6CFF
(1768226104.614599) slcan0 661#25FFFFFFFFFFFF40
(1768226104.620066) slcan0 661#26000E0040000021
(1768226104.621736) slcan0 661#27FF5AFFFF000000
(1768226104.708375) slcan0 261#0221000000000000
(1768226104.720437) slcan0 661#037F217800000000
(1768226104.738226) slcan0 661#10346100FFFFFFFF
(1768226104.738488) slcan0 261#3000000000000000
(1768226104.739629) slcan0 661#21FFFFFF00000000
(1768226104.741642) slcan0 661#2280B70082FFB114
(1768226104.742562) slcan0 661#23808000FF173201
(1768226104.743630) slcan0 661#24FDFFFFFFFF6CFF
(1768226104.744616) slcan0 661#25FFFFFFFFFFFF40
(1768226104.749114) slcan0 661#26000E0040000021
(1768226104.749455) slcan0 661#27FF5AFFFF000000
(1768226104.838356) slcan0 261#0221000000000000
(1768226104.849514) slcan0 661#037F217800000000
(1768226104.868557) slcan0 661#10346100FFFFFFFF
(1768226104.868799) slcan0 261#3000000000000000
(1768226104.871683) slcan0 661#21FFFFFF00000000
(1768226104.872503) slcan0 661#2280B60082FFB114
(1768226104.873431) slcan0 661#23808000FF172E01
(1768226104.874568) slcan0 661#24FDFFFFFFFF6CFF
(1768226104.879657) slcan0 661#25FFFFFFFFFFFF40
(1768226104.881680) slcan0 661#26000E0040000021
(1768226104.882625) slcan0 661#27FF5AFFFF000000
(1768226104.963201) slcan0 261#0221000000000000
(1768226104.974672) slcan0 661#037F217800000000
(1768226104.987877) slcan0 661#10346100FFFFFFFF
(1768226104.988158) slcan0 261#3000000000000000
(1768226104.989575) slcan0 661#21FFFFFF00000000
(1768226104.991585) slcan0 661#2280B60082FFB114
(1768226104.992642) slcan0 661#23808000FF171801
(1768226104.993747) slcan0 661#24FDFFFFFFFF6CFF
(1768226104.994642) slcan0 661#25FFFFFFFFFFFF40
(1768226104.998742) slcan0 661#26000E0040000021
(1768226104.999764) slcan0 661#27FF5AFFFF000000
(1768226105.109343) slcan0 261#0221000000000000
(1768226105.124736) slcan0 661#037F217800000000
(1768226105.138034) slcan0 661#10346100FFFFFFFF
(1768226105.138262) slcan0 261#3000000000000000
(1768226105.139940) slcan0 661#21FFFFFF00000000
(1768226105.141701) slcan0 661#2280B70082FFB114
(1768226105.142636) slcan0 661#23808000FF171001
(1768226105.143689) slcan0 661#24FDFFFFFFFF6CFF
(1768226105.144674) slcan0 661#25FFFFFFFFFFFF40
(1768226105.149487) slcan0 661#26000E0040000021
(1768226105.149611) slcan0 661#27FF5AFFFF000000
(1768226105.264450) slcan0 261#0221000000000000
(1768226105.279976) slcan0 661#037F217800000000
(1768226105.298705) slcan0 661#10346100FFFFFFFF
(1768226105.298974) slcan0 261#3000000000000000
(1768226105.301741) slcan0 661#21FFFFFF00000000
(1768226105.302620) slcan0 661#2280B70082FFB114
(1768226105.303796) slcan0 661#23808000FF170A01
(1768226105.304579) slcan0 661#24FDFFFFFFFF6CFF
(1768226105.308651) slcan0 661#25FFFFFFFFFFFF40
(1768226105.309678) slcan0 661#26000E0040000021
(1768226105.311620) slcan0 661#27FF5AFFFF000000
(1768226105.403989) slcan0 261#0221000000000000
(1768226105.422391) slcan0 661#037F217800000000
(1768226105.438221) slcan0 661#10346100FFFFFFFF
(1768226105.438403) slcan0 261#3000000000000000
(1768226105.440036) slcan0 661#21FFFFFF00000000
(1768226105.441682) slcan0 661#2280B70082FFB114
(1768226105.442691) slcan0 661#23808000FF171C01
(1768226105.443663) slcan0 661#24FDFFFFFFFF6CFF
(1768226105.444670) slcan0 661#25FFFFFFFFFFFF40
(1768226105.449295) slcan0 661#26000E0040000021
(1768226105.449428) slcan0 661#27FF5AFFFF000000
(1768226105.532016) slcan0 261#041800FF00000000
(1768226105.544628) slcan0 661#037F187800000000
(1768226105.549590) slcan0 661#055801502B200000
(1768226105.642857) slcan0 261#0221000000000000
(1768226105.654599) slcan0 661#037F217800000000
(1768226105.668551) slcan0 661#10346100FFFFFFFF
(1768226105.668800) slcan0 261#3000000000000000
(1768226105.671679) slcan0 661#21FFFFFF00000000
(1768226105.672493) slcan0 661#2280B60082FFB114
(1768226105.673543) slcan0 661#23808000FF171E01
(1768226105.674454) slcan0 661#24FDFFFFFFFF6CFF
(1768226105.678070) slcan0 661#25FFFFFFFFFFFF40
(1768226105.679472) slcan0 661#26000E0040000021
(1768226105.681603) slcan0 661#27FF5AFFFF000000
(1768226105.785868) slcan0 261#0221000000000000
(1768226105.799715) slcan0 661#037F217800000000
(1768226105.819965) slcan0 661#10346100FFFFFFFF
(1768226105.820151) slcan0 261#3000000000000000
(1768226105.822466) slcan0 661#21FFFFFF00000000
(1768226105.823559) slcan0 661#2280B60082FFB114
(1768226105.824485) slcan0 661#23808000FF16FC01
(1768226105.828650) slcan0 661#24FDFFFFFFFF6CFF
(1768226105.829906) slcan0 661#25FFFFFFFFFFFF40
(1768226105.831650) slcan0 661#26000E0040000021
(1768226105.832865) slcan0 661#27FF5AFFFF000000
(1768226105.926737) slcan0 261#0221000000000000
(1768226105.939598) slcan0 661#037F217800000000
(1768226105.958397) slcan0 661#10346100FFFFFFFF
(1768226105.958603) slcan0 261#3000000000000000
(1768226105.962785) slcan0 661#21FFFFFF00000000
(1768226105.963718) slcan0 661#2280B60082FFB114
(1768226105.964633) slcan0 661#23808000FF170C01
(1768226105.968606) slcan0 661#24FDFFFFFFFF6CFF
(1768226105.969716) slcan0 661#25FFFFFFFFFFFF40
(1768226105.971700) slcan0 661#26000E0040000021
(1768226105.972679) slcan0 661#27FF5AFFFF000000
(1768226106.052769) slcan0 261#0221000000000000
(1768226106.064597) slcan0 661#037F217800000000
(1768226106.078369) slcan0 661#10346100FFFFFFFF
(1768226106.078398) slcan0 261#3000000000000000
(1768226106.079736) slcan0 661#21FFFFFF00000000
(1768226106.083344) slcan0 661#2280B60082FFB114
(1768226106.083418) slcan0 661#23808000FF172801
(1768226106.084555) slcan0 661#24FDFFFFFFFF6CFF
(1768226106.088224) slcan0 661#25FFFFFFFFFFFF40
(1768226106.088569) slcan0 661#26000E0040000021
(1768226106.089495) slcan0 661#27FF5AFFFF000000
(1768226106.177501) slcan0 261#0221000000000000
(1768226106.189430) slcan0 661#037F217800000000
(1768226106.208475) slcan0 661#10346100FFFFFFFF
(1768226106.208683) slcan0 261#3000000000000000
(1768226106.211544) slcan0 661#21FFFFFF00000000
(1768226106.212508) slcan0 661#2280B60082FFB114
(1768226106.213563) slcan0 661#23808000FF171E01
(1768226106.214544) slcan0 661#24FDFFFFFFFF6CFF
(1768226106.220095) slcan0 661#25FFFFFFFFFFFF40
(1768226106.221837) slcan0 661#26000E0040000021
(1768226106.222522) slcan0 661#27FF5AFFFF000000
(1768226106.317564) slcan0 261#0221000000000000
(1768226106.329735) slcan0 661#037F217800000000
(1768226106.349193) slcan0 661#10346100FFFFFFFF
(1768226106.349468) slcan0 261#3000000000000000
(1768226106.352199) slcan0 661#21FFFFFF00000000
(1768226106.352356) slcan0 661#2280B70082FFB114
(1768226106.353980) slcan0 661#23808000FF171801
(1768226106.354812) slcan0 661#24FDFFFFFFFF6CFF
(1768226106.357942) slcan0 661#25FFFFFFFFFFFF40
(1768226106.358490) slcan0 661#26000E0040000021
(1768226106.359960) slcan0 661#27FF5AFFFF000000
(1768226106.446473) slcan0 261#0221000000000000
(1768226106.460200) slcan0 661#037F217800000000
(1768226106.478038) slcan0 661#10346100FFFFFFFF
(1768226106.478277) slcan0 261#3000000000000000
(1768226106.479546) slcan0 661#21FFFFFF00000000
(1768226106.481792) slcan0 661#2280B60082FFB114
(1768226106.482557) slcan0 661#23808000FF171801
(1768226106.484079) slcan0 661#24FDFFFFFFFF6CFF
(1768226106.484508) slcan0 661#25FFFFFFFFFFFF40
(1768226106.488249) slcan0 661#26000E0040000021
(1768226106.488593) slcan0 661#27FF5AFFFF000000
(1768226106.579387) slcan0 261#0221000000000000
(1768226106.594569) slcan0 661#037F217800000000
(1768226106.608360) slcan0 661#10346100FFFFFFFF
(1768226106.608567) slcan0 261#3000000000000000
(1768226106.609612) slcan0 661#21FFFFFF00000000
(1768226106.611576) slcan0 661#2280B60082FFB114
(1768226106.612602) slcan0 661#23808000FF171801
(1768226106.613573) slcan0 661#24FDFFFFFFFF6CFF
(1768226106.614488) slcan0 661#25FFFFFFFFFFFF40
(1768226106.620348) slcan0 661#26000E0040000021
(1768226106.621776) slcan0 661#27FF5AFFFF000000
(1768226106.724525) slcan0 261#0221000000000000
(1768226106.739687) slcan0 661#037F217800000000
(1768226106.758144) slcan0 661#10346100FFFFFFFF
(1768226106.758318) slcan0 261#3000000000000000
(1768226106.760401) slcan0 661#21FFFFFF00000000
(1768226106.762383) slcan0 661#2280B70082FFB114
(1768226106.762402) slcan0 661#23808000FF170C01
(1768226106.764008) slcan0 661#24FDFFFFFFFF6CFF
(1768226106.764530) slcan0 661#25FFFFFFFFFFFF40
(1768226106.768543) slcan0 661#26000E0040000021
(1768226106.769575) slcan0 661#27FF5AFFFF000000
(1768226106.875372) slcan0 261#0221000000000000
(1768226106.889542) slcan0 661#037F217800000000
(1768226106.908692) slcan0 661#10346100FFFFFFFF
(1768226106.908946) slcan0 261#3000000000000000
(1768226106.911455) slcan0 661#21FFFFFF00000000
(1768226106.912378) slcan0 661#2280B60082FFB114
(1768226106.913620) slcan0 661#23808000FF171E01
(1768226106.914520) slcan0 661#24FDFFFFFFFF6CFF
(1768226106.921692) slcan0 661#25FFFFFFFFFFFF40
(1768226106.922422) slcan0 661#26000E0040000021
(1768226106.923536) slcan0 661#27FF5AFFFF000000
(1768226107.013220) slcan0 261#0221000000000000
(1768226107.024628) slcan0 661#037F217800000000
(1768226107.038442) slcan0 661#10346100FFFFFFFF
(1768226107.038728) slcan0 261#3000000000000000
(1768226107.041779) slcan0 661#21FFFFFF00000000
(1768226107.042508) slcan0 661#2280B70082FFB114
(1768226107.043377) slcan0 661#23808000FF171801
(1768226107.044541) slcan0 661#24FDFFFFFFFF6CFF
(1768226107.050191) slcan0 661#25FFFFFFFFFFFF40
(1768226107.051849) slcan0 661#26000E0040000021
(1768226107.052924) slcan0 661#27FF5AFFFF000000
(1768226107.136172) slcan0 261#0221000000000000
(1768226107.149646) slcan0 661#037F217800000000
(1768226107.169551) slcan0 661#10346100FFFFFFFF
(1768226107.169707) slcan0 261#3000000000000000
(1768226107.172667) slcan0 661#21FFFFFF00000000
(1768226107.173615) slcan0 661#2280B70082FFB114
(1768226107.174615) slcan0 661#23808000FF171201
(1768226107.178215) slcan0 661#24FDFFFFFFFF6CFF
(1768226107.179547) slcan0 661#25FFFFFFFFFFFF40
(1768226107.181625) slcan0 661#26000E0040000021
(1768226107.182367) slcan0 661#27FF5AFFFF000000
(1768226107.258168) slcan0 261#0221000000000000
(1768226107.269509) slcan0 661#037F217800000000
(1768226107.289823) slcan0 661#10346100FFFFFFFF
(1768226107.290008) slcan0 261#3000000000000000
(1768226107.292668) slcan0 661#21FFFFFF00000000
(1768226107.293739) slcan0 661#2280B60082FFB114
(1768226107.294506) slcan0 661#23808000FF171801
(1768226107.297893) slcan0 661#24FDFFFFFFFF6CFF
(1768226107.298508) slcan0 661#25FFFFFFFFFFFF40
(1768226107.299537) slcan0 661#26000E0040000021
(1768226107.301867) slcan0 661#27FF5AFFFF000000
(1768226107.386395) slcan0 261#0221000000000000
(1768226107.399614) slcan0 661#037F217800000000
(1768226107.421766) slcan0 661#10346100FFFFFFFF
(1768226107.421919) slcan0 261#3000000000000000
(1768226107.423552) slcan0 661#21FFFFFF00000000
(1768226107.424507) slcan0 661#2280B60082FFB114
(1768226107.428985) slcan0 661#23808000FF172601
(1768226107.429606) slcan0 661#24FDFFFFFFFF6CFF
(1768226107.432024) slcan0 661#25FFFFFFFFFFFF40
(1768226107.433068) slcan0 661#26000E0040000021
(1768226107.433552) slcan0 661#27FF5AFFFF000000
(1768226107.547208) slcan0 261#041800FF00000000
(1768226107.560052) slcan0 661#037F187800000000
(1768226107.568756) slcan0 661#055801502B200000
(1768226107.644062) slcan0 261#0221000000000000
(1768226107.660165) slcan0 661#037F217800000000
(1768226107.678052) slcan0 661#10346100FFFFFFFF
(1768226107.678341) slcan0 261#3000000000000000
(1768226107.679361) slcan0 661#21FFFFFF00000000
(1768226107.681569) slcan0 661#2280B70082FFB114
(1768226107.682380) slcan0 661#23808000FF172E01
(1768226107.683357) slcan0 661#24FDFFFFFFFF6CFF
(1768226107.684366) slcan0 661#25FFFFFFFFFFFF40
(1768226107.688059) slcan0 661#26000E0040000021
(1768226107.689349) slcan0 661#27FF5AFFFF000000
(1768226107.775034) slcan0 261#0221000000000000
(1768226107.789440) slcan0 661#037F217800000000
(1768226107.808437) slcan0 661#10346100FFFFFFFF
(1768226107.808689) slcan0 261#3000000000000000
(1768226107.811549) slcan0 661#21FFFFFF00000000
(1768226107.812450) slcan0 661#2280B70082FFB114
(1768226107.813681) slcan0 661#23808000FF174201
(1768226107.814374) slcan0 661#24FDFFFFFFFF6CFF
(1768226107.820431) slcan0 661#25FFFFFFFFFFFF40
(1768226107.821864) slcan0 661#26000E0040000021
(1768226107.822604) slcan0 661#27FF5AFFFF000000
(1768226107.932817) slcan0 261#0221000000000000
(1768226107.944349) slcan0 661#037F217800000000
(1768226107.958074) slcan0 661#10346100FFFFFFFF
(1768226107.958333) slcan0 261#3000000000000000
(1768226107.962058) slcan0 661#21FFFFFF00000000
(1768226107.962334) slcan0 661#2280B60082FFB114
(1768226107.963363) slcan0 661#23808000FF173601
(1768226107.964376) slcan0 661#24FDFFFFFFFF6CFF
(1768226107.968371) slcan0 661#25FFFFFFFFFFFF40
(1768226107.969468) slcan0 661#26000E0040000021
(1768226107.972077) slcan0 661#27FF5AFFFF000000
(1768226108.059916) slcan0 261#0221000000000000
(1768226108.074533) slcan0 661#037F217800000000
(1768226108.088095) slcan0 661#10346100FFFFFFFF
(1768226108.088402) slcan0 261#3000000000000000
(1768226108.089554) slcan0 661#21FFFFFF00000000
(1768226108.092375) slcan0 661#2280B70082FFB114
(1768226108.093679) slcan0 661#23808000FF171601
(1768226108.094518) slcan0 661#24FDFFFFFFFF6CFF
(1768226108.097830) slcan0 661#25FFFFFFFFFFFF40
(1768226108.098598) slcan0 661#26000E0040000021
(1768226108.099569) slcan0 661#27FF5AFFFF000000
(1768226108.202790) slcan0 261#0221000000000000
(1768226108.214602) slcan0 661#037F217800000000
(1768226108.228916) slcan0 661#10346100FFFFFFFF
(1768226108.229187) slcan0 261#3000000000000000
(1768226108.231988) slcan0 661#21FFFFFF00000000
(1768226108.232749) slcan0 661#2280B60082FFB114
(1768226108.233741) slcan0 661#23808000FF170601
(1768226108.234570) slcan0 661#24FDFFFFFFFF6CFF
(1768226108.238334) slcan0 661#25FFFFFFFFFFFF40
(1768226108.238506) slcan0 661#26000E0040000021
(1768226108.239430) slcan0 661#27FF5AFFFF000000
(1768226108.348802) slcan0 261#0221000000000000
(1768226108.364546) slcan0 661#037F217800000000
(1768226108.378207) slcan0 661#10346100FFFFFFFF
(1768226108.378450) slcan0 261#3000000000000000
(1768226108.381587) slcan0 661#21FFFFFF00000000
(1768226108.382473) slcan0 661#2280B60082FFB114
(1768226108.383577) slcan0 661#23808000FF16FA01
(1768226108.384538) slcan0 661#24FDFFFFFFFF6CFF
(1768226108.388172) slcan0 661#25FFFFFFFFFFFF40
(1768226108.388512) slcan0 661#26000E0040000021
(1768226108.389582) slcan0 661#27FF5AFFFF000000
(1768226108.507699) slcan0 261#0221000000000000
(1768226108.521670) slcan0 661#037F217800000000
(1768226108.538167) slcan0 661#10346100FFFFFFFF
(1768226108.538341) slcan0 261#3000000000000000
(1768226108.539451) slcan0 661#21FFFFFF00000000
(1768226108.541519) slcan0 661#2280B70082FFB114
(1768226108.542459) slcan0 661#23808000FF16EC01
(1768226108.543446) slcan0 661#24FDFFFFFFFF6CFF
(1768226108.544456) slcan0 661#25FFFFFFFFFFFF40
(1768226108.549521) slcan0 661#26000E0040000021
(1768226108.551638) slcan0 661#27FF5AFFFF000000
(1768226108.626733) slcan0 261#0221000000000000
(1768226108.639498) slcan0 661#037F217800000000
(1768226108.658213) slcan0 661#10346100FFFFFFFF
(1768226108.658437) slcan0 261#3000000000000000
(1768226108.660033) slcan0 661#21FFFFFF00000000
(1768226108.662130) slcan0 661#2280B70082FFB114
(1768226108.662328) slcan0 661#23808000FF16DC01
(1768226108.663338) slcan0 661#24FDFFFFFFFF6CFF
(1768226108.664326) slcan0 661#25FFFFFFFFFFFF40
(1768226108.668733) slcan0 661#26000E0040000021
(1768226108.669354) slcan0 661#27FF5AFFFF000000
(1768226108.762721) slcan0 261#0221000000000000
(1768226108.774551) slcan0 661#037F217800000000
(1768226108.788328) slcan0 661#10346100FFFFFFFF
(1768226108.788552) slcan0 261#3000000000000000
(1768226108.789546) slcan0 661#21FFFFFF00000000
(1768226108.791508) slcan0 661#2280B60082FFB114
(1768226108.792493) slcan0 661#23808000FF16EA01
(1768226108.794668) slcan0 661#24FDFFFFFFFF6CFF
(1768226108.798008) slcan0 661#25FFFFFFFFFFFF40
(1768226108.798530) slcan0 661#26000E0040000021
(1768226108.799531) slcan0 661#27FF5AFFFF000000
(1768226108.890598) slcan0 261#0221000000000000
(1768226108.904426) slcan0 661#037F217800000000
(1768226108.921667) slcan0 661#10346100FFFFFFFF
(1768226108.921897) slcan0 261#3000000000000000
(1768226108.923467) slcan0 661#21FFFFFF00000000
(1768226108.924371) slcan0 661#2280B60082FFB114
(1768226108.928568) slcan0 661#23808000FF16DC01
(1768226108.929560) slcan0 661#24FDFFFFFFFF6CFF
(1768226108.931610) slcan0 661#25FFFFFFFFFFFF40
(1768226108.932855) slcan0 661#26000E0040000021
(1768226108.933372) slcan0 661#27FF5AFFFF000000
(1768226109.010719) slcan0 261#0221000000000000
(1768226109.024473) slcan0 661#037F217800000000
(1768226109.037903) slcan0 661#10346100FFFFFFFF
(1768226109.038220) slcan0 261#3000000000000000
(1768226109.039475) slcan0 661#21FFFFFF00000000
(1768226109.041487) slcan0 661#2280B70082FFB114
(1768226109.042530) slcan0 661#23808000FF16EC01
(1768226109.043487) slcan0 661#24FDFFFFFFFF6CFF
(1768226109.044507) slcan0 661#25FFFFFFFFFFFF40
(1768226109.049363) slcan0 661#26000E0040000021
(1768226109.051958) slcan0 661#27FF5AFFFF000000
(1768226109.125532) slcan0 261#0221000000000000
(1768226109.139320) slcan0 661#037F217800000000
(1768226109.158466) slcan0 661#10346100FFFFFFFF
(1768226109.158715) slcan0 261#3000000000000000
(1768226109.162118) slcan0 661#21FFFFFF00000000
(1768226109.162283) slcan0 661#2280B60082FFB114
(1768226109.163345) slcan0 661#23808000FF16EE01
(1768226109.164338) slcan0 661#24FDFFFFFFFF6CFF
(1768226109.168450) slcan0 661#25FFFFFFFFFFFF40
(1768226109.169398) slcan0 661#26000E0040000021
(1768226109.171883) slcan0 661#27FF5AFFFF000000
(1768226109.262513) slcan0 261#0221000000000000
(1768226109.274450) slcan0 661#037F217800000000
(1768226109.288050) slcan0 661#10346100FFFFFFFF
(1768226109.288321) slcan0 261#3000000000000000
(1768226109.289496) slcan0 661#21FFFFFF00000000
(1768226109.291696) slcan0 661#2280B60082FFB114
(1768226109.292641) slcan0 661#23808000FF16F401
(1768226109.293474) slcan0 661#24FDFFFFFFFF6CFF
(1768226109.294501) slcan0 661#25FFFFFFFFFFFF40
(1768226109.298743) slcan0 661#26000E0040000021
(1768226109.299446) slcan0 661#27FF5AFFFF000000
(1768226109.382622) slcan0 261#0221000000000000
(1768226109.394487) slcan0 661#037F217800000000
(1768226109.408424) slcan0 661#10346100FFFFFFFF
(1768226109.408786) slcan0 261#3000000000000000
(1768226109.411816) slcan0 661#21FFFFFF00000000
(1768226109.412495) slcan0 661#2280B60082FFB114
(1768226109.413530) slcan0 661#23808000FF16FC01
(1768226109.414472) slcan0 661#24FDFFFFFFFF6CFF
(1768226109.420321) slcan0 661#25FFFFFFFFFFFF40
(1768226109.421697) slcan0 661#26000E0040000021
(1768226109.422475) slcan0 661#27FF5AFFFF000000
(1768226109.508816) slcan0 261#041800FF00000000
(1768226109.524513) slcan0 661#037F187800000000
(1768226109.528558) slcan0 661#055801502B200000
(1768226109.620545) slcan0 261#0221000000000000
(1768226109.634505) slcan0 661#037F217800000000
(1768226109.649464) slcan0 661#10346100FFFFFFFF
(1768226109.649642) slcan0 261#3000000000000000
(1768226109.652565) slcan0 661#21FFFFFF00000000
(1768226109.653454) slcan0 661#2280B70082FFB114
(1768226109.654407) slcan0 661#23808000FF171A01
(1768226109.658201) slcan0 661#24FDFFFFFFFF6CFF
(1768226109.659963) slcan0 661#25FFFFFFFFFFFF40
(1768226109.662127) slcan0 661#26000E0040000021
(1768226109.662411) slcan0 661#27FF5AFFFF000000
(1768226109.753590) slcan0 261#0221000000000000
(1768226109.769541) slcan0 661#037F217800000000
(1768226109.787954) slcan0 661#10346100FFFFFFFF
(1768226109.788194) slcan0 261#3000000000000000
(1768226109.789459) slcan0 661#21FFFFFF00000000
(1768226109.791465) slcan0 661#2280B60082FFB114
(1768226109.792451) slcan0 661#23808000FF170E01
(1768226109.793496) slcan0 661#24FDFFFFFFFF6CFF
(1768226109.794440) slcan0 661#25FFFFFFFFFFFF40
(1768226109.798055) slcan0 661#26000E0040000021
(1768226109.798408) slcan0 661#27FF5AFFFF000000
(1768226109.878621) slcan0 261#0221000000000000
(1768226109.894520) slcan0 661#037F217800000000
(1768226109.909133) slcan0 661#10346100FFFFFFFF
(1768226109.909147) slcan0 261#3000000000000000
(1768226109.911363) slcan0 661#21FFFFFF00000000
(1768226109.912277) slcan0 661#2280B70082FFB114
(1768226109.913430) slcan0 661#23808000FF172001
(1768226109.914277) slcan0 661#24FDFFFFFFFF6CFF
(1768226109.921835) slcan0 661#25FFFFFFFFFFFF40
(1768226109.922297) slcan0 661#26000E0040000021
(1768226109.923333) slcan0 661#27FF5AFFFF000000
(1768226109.998708) slcan0 261#0221000000000000
(1768226110.014534) slcan0 661#037F217800000000
(1768226110.028775) slcan0 661#10346100FFFFFFFF
(1768226110.028922) slcan0 261#3000000000000000
(1768226110.031411) slcan0 661#21FFFFFF00000000
(1768226110.032876) slcan0 661#2280B60082FFB114
(1768226110.033547) slcan0 661#23808000FF171001
(1768226110.034469) slcan0 661#24FDFFFFFFFF6CFF
(1768226110.037969) slcan0 661#25FFFFFFFFFFFF40
(1768226110.038351) slcan0 661#26000E0040000021
(1768226110.039481) slcan0 661#27FF5AFFFF000000
(1768226110.123600) slcan0 261#0221000000000000
(1768226110.139495) slcan0 661#037F217800000000
(1768226110.157985) slcan0 661#10346100FFFFFFFF
(1768226110.158110) slcan0 261#3000000000000000
(1768226110.160065) slcan0 661#21FFFFFF00000000
(1768226110.162221) slcan0 661#2280B70082FFB114
(1768226110.163367) slcan0 661#23808000FF170C01
(1768226110.164312) slcan0 661#24FDFFFFFFFF6CFF
(1768226110.168575) slcan0 661#25FFFFFFFFFFFF40
(1768226110.169362) slcan0 661#26000E0040000021
(1768226110.171544) slcan0 661#27FF5AFFFF000000
(1768226110.287723) slcan0 261#0221000000000000
(1768226110.299595) slcan0 661#037F217800000000
(1768226110.321831) slcan0 661#10346100FFFFFFFF
(1768226110.321952) slcan0 261#3000000000000000
(1768226110.323472) slcan0 661#21FFFFFF00000000
(1768226110.324449) slcan0 661#2280B60082FFB114
(1768226110.328092) slcan0 661#23808000FF16FE01
(1768226110.328894) slcan0 661#24FDFFFFFFFF6CFF
(1768226110.329813) slcan0 661#25FFFFFFFFFFFF40
(1768226110.331461) slcan0 661#26000E0040008021
(1768226110.332761) slcan0 661#27FF5AFFFF000000
(1768226110.433448) slcan0 261#0221000000000000
(1768226110.449432) slcan0 661#037F217800000000
(1768226110.468672) slcan0 661#10346100FFFFFFFF
(1768226110.468929) slcan0 261#3000000000000000
(1768226110.471765) slcan0 661#21FFFFFF00000000
(1768226110.472444) slcan0 661#2280B60082FFB114
(1768226110.473474) slcan0 661#23808000FF170C01
(1768226110.474406) slcan0 661#24FDFFFFFFFF6CFF
(1768226110.477652) slcan0 661#25FFFFFFFFFFFF40
(1768226110.478688) slcan0 661#26000E0040000021
(1768226110.479448) slcan0 661#27FF5AFFFF000000
(1768226110.570685) slcan0 261#0221000000000000
(1768226110.584553) slcan0 661#037F217800000000
(1768226110.597586) slcan0 661#10346100FFFFFFFF
(1768226110.597830) slcan0 261#3000000000000000
(1768226110.599447) slcan0 661#21FFFFFF00000000
(1768226110.602883) slcan0 661#2280B60082FFB114
(1768226110.603601) slcan0 661#23808000FF16FE01
(1768226110.604273) slcan0 661#24FDFFFFFFFF6CFF
(1768226110.608122) slcan0 661#25FFFFFFFFFFFF40
(1768226110.608445) slcan0 661#26000E0040000021
(1768226110.609421) slcan0 661#27FF5AFFFF000000
(1768226110.707504) slcan0 261#0221000000000000
(1768226110.721637) slcan0 661#037F217800000000
(1768226110.737656) slcan0 661#10346100FFFFFFFF
(1768226110.737900) slcan0 261#3000000000000000
(1768226110.739545) slcan0 661#21FFFFFF00000000
(1768226110.741509) slcan0 661#2280B60082FFB114
(1768226110.742456) slcan0 661#23808000FF170401
(1768226110.743549) slcan0 661#24FDFFFFFFFF6CFF
(1768226110.744534) slcan0 661#25FFFFFFFFFFFF40
(1768226110.749227) slcan0 661#26000E0040000021
(1768226110.751808) slcan0 661#27FF5AFFFF000000
(1768226110.826554) slcan0 261#0221000000000000
(1768226110.839412) slcan0 661#037F217800000000
(1768226110.857617) slcan0 661#10346100FFFFFFFF
(1768226110.857838) slcan0 261#3000000000000000
(1768226110.859933) slcan0 661#21FFFFFF00000000
(1768226110.862048) slcan0 661#2280B70082FFB114
(1768226110.862232) slcan0 661#23808000FF170A01
(1768226110.863357) slcan0 661#24FDFFFFFFFF6CFF
(1768226110.864344) slcan0 661#25FFFFFFFFFFFF40
(1768226110.868307) slcan0 661#26000E0040000021
(1768226110.869238) slcan0 661#27FF5AFFFF000000
(1768226110.982517) slcan0 261#0221000000000000
(1768226110.994562) slcan0 661#037F217800000000
(1768226111.008893) slcan0 661#10346100FFFFFFFF
(1768226111.009084) slcan0 261#3000000000000000
(1768226111.011592) slcan0 661#21FFFFFF00000000
(1768226111.012495) slcan0 661#2280B60082FFB114
(1768226111.013423) slcan0 661#23808000FF171E01
(1768226111.014452) slcan0 661#24FDFFFFFFFF6CFF
(1768226111.020334) slcan0 661#25FFFFFFFFFFFF40
(1768226111.021794) slcan0 661#26000E0040000021
(1768226111.022489) slcan0 661#27FF5AFFFF000000
(1768226111.100710) slcan0 261#0221000000000000
(1768226111.114559) slcan0 661#037F217800000000
(1768226111.128484) slcan0 661#10346100FFFFFFFF
(1768226111.128679) slcan0 261#3000000000000000
(1768226111.131424) slcan0 661#21FFFFFF00000000
(1768226111.132699) slcan0 661#2280B70082FFB114
(1768226111.133397) slcan0 661#23808000FF174E01
(1768226111.134349) slcan0 661#24FDFFFFFFFF6CFF
(1768226111.137772) slcan0 661#25FFFFFFFFFFFF40
(1768226111.138279) slcan0 661#26000E0040000021
(1768226111.139279) slcan0 661#27FF5AFFFF000000
(1768226111.222446) slcan0 261#0221000000000000
(1768226111.234387) slcan0 661#037F217800000000
(1768226111.249627) slcan0 661#10346100FFFFFFFF
(1768226111.249891) slcan0 261#3000000000000000
(1768226111.252385) slcan0 661#21FFFFFF00000000
(1768226111.253343) slcan0 661#2280B70082FFB114
(1768226111.254356) slcan0 661#23808000FF173601
(1768226111.257526) slcan0 661#24FDFFFFFFFF6CFF
(1768226111.258257) slcan0 661#25FFFFFFFFFFFF40
(1768226111.260104) slcan0 661#26000E0040000021
(1768226111.262140) slcan0 661#27FF5AFFFF000000
(1768226111.354503) slcan0 261#0221000000000000
(1768226111.369441) slcan0 661#037F217800000000
(1768226111.388382) slcan0 661#10346100FFFFFFFF
(1768226111.388634) slcan0 261#3000000000000000
(1768226111.391663) slcan0 661#21FFFFFF00000000
(1768226111.392447) slcan0 661#2280B60082FFB114
(1768226111.393421) slcan0 661#23808000FF174801
(1768226111.394505) slcan0 661#24FDFFFFFFFF6CFF
(1768226111.397492) slcan0 661#25FFFFFFFFFFFF40
(1768226111.398361) slcan0 661#26000E0040000021
(1768226111.399495) slcan0 661#27FF5AFFFF000000
(1768226111.481597) slcan0 261#041800FF00000000
(1768226111.494502) slcan0 661#037F187800000000
(1768226111.497431) slcan0 661#055801502B200000
(1768226111.591519) slcan0 261#0221000000000000
(1768226111.604496) slcan0 661#037F217800000000
(1768226111.621645) slcan0 661#10346100FFFFFFFF
(1768226111.621723) slcan0 261#3000000000000000
(1768226111.623407) slcan0 661#21FFFFFF00000000
(1768226111.624426) slcan0 661#2280B60082FFB114
(1768226111.628971) slcan0 661#23808000FF174A01
(1768226111.630160) slcan0 661#24FDFFFFFFFF6CFF
(1768226111.631815) slcan0 661#25FFFFFFFFFFFF40
(1768226111.632672) slcan0 661#26000E0040010021
(1768226111.633284) slcan0 661#27FF5AFFFF000000
(1768226111.717526) slcan0 261#0221000000000000
(1768226111.730175) slcan0 661#037F217800000000
(1768226111.750124) slcan0 661#10346100FFFFFFFF
(1768226111.750327) slcan0 261#3000000000000000
(1768226111.752387) slcan0 661#21FFFFFF00000000
(1768226111.753359) slcan0 661#2280B70082FFB114
(1768226111.754500) slcan0 661#23808000FF172E01
(1768226111.758331) slcan0 661#24FDFFFFFFFF6CFF
(1768226111.758368) slcan0 661#25FFFFFFFFFFFF40
(1768226111.762142) slcan0 661#26000E0040100021
(1768226111.762275) slcan0 661#27FF5AFFFF000000
(1768226111.851422) slcan0 261#0221000000000000
(1768226111.864352) slcan0 661#037F217800000000
(1768226111.877572) slcan0 661#10346100FFFFFFFF
(1768226111.877795) slcan0 261#3000000000000000
(1768226111.879405) slcan0 661#21FFFFFF00000000
(1768226111.881349) slcan0 661#2280B70082FFB114
(1768226111.882330) slcan0 661#23808000FF172401
(1768226111.883345) slcan0 661#24FDFFFFFFFF6CFF
(1768226111.884365) slcan0 661#25FFFFFFFFFFFF40
(1768226111.888100) slcan0 661#26000E0040000121
(1768226111.888277) slcan0 661#27FF5AFFFF000000
(1768226112.000607) slcan0 261#0221000000000000
(1768226112.014382) slcan0 661#037F217800000000
(1768226112.028648) slcan0 661#10346100FFFFFFFF
(1768226112.028874) slcan0 261#3000000000000000
(1768226112.031618) slcan0 661#21FFFFFF00000000
(1768226112.032496) slcan0 661#2280B60082FFB114
(1768226112.033226) slcan0 661#23808000FF170001
(1768226112.034418) slcan0 661#24FDFFFFFFFF6CFF
(1768226112.037491) slcan0 661#25FFFFFFFFFFFF40
(1768226112.038362) slcan0 661#26000E0040000021
(1768226112.039369) slcan0 661#27FF5AFFFF000000
(1768226112.116465) slcan0 261#0221000000000000
(1768226112.130209) slcan0 661#037F217800000000
(1768226112.149431) slcan0 661#10346100FFFFFFFF
(1768226112.149647) slcan0 261#3000000000000000
(1768226112.152320) slcan0 661#21FFFFFF00000000
(1768226112.153254) slcan0 661#2280B70082FFB114
(1768226112.154191) slcan0 661#23808000FF16F801
(1768226112.157693) slcan0 661#24FDFFFFFFFF6CFF
(1768226112.158197) slcan0 661#25FFFFFFFFFFFF40
(1768226112.161921) slcan0 661#26000E0040000021
(1768226112.162219) slcan0 661#27FF5AFFFF000000
(1768226112.264509) slcan0 261#0221000000000000
(1768226112.279456) slcan0 661#037F217800000000
(1768226112.297478) slcan0 661#10346100FFFFFFFF
(1768226112.297820) slcan0 261#3000000000000000
(1768226112.299476) slcan0 661#21FFFFFF00000000
(1768226112.301402) slcan0 661#2280B60082FFB114
(1768226112.302337) slcan0 661#23808000FF16F601
(1768226112.303349) slcan0 661#24FDFFFFFFFF6CFF
(1768226112.305105) slcan0 661#25FFFFFFFFFFFF40
(1768226112.308064) slcan0 661#26000E0040000021
(1768226112.311638) slcan0 661#27FF5AFFFF000000
(1768226112.385563) slcan0 261#0221000000000000
(1768226112.399257) slcan0 661#037F217800000000
(1768226112.419716) slcan0 661#10346100FFFFFFFF
(1768226112.419857) slcan0 261#3000000000000000
(1768226112.422325) slcan0 661#21FFFFFF00000000
(1768226112.423320) slcan0 661#2280B70082FFB114
(1768226112.424251) slcan0 661#23808000FF16E001
(1768226112.428133) slcan0 661#24FDFFFFFFFF6CFF
(1768226112.431736) slcan0 661#25FFFFFFFFFFFF40
(1768226112.432660) slcan0 661#26000E0040000021
(1768226112.433338) slcan0 661#27FF5AFFFF000000
(1768226112.514617) slcan0 261#0221000000000000
(1768226112.529954) slcan0 661#037F217800000000
(1768226112.549017) slcan0 661#10346100FFFFFFFF
(1768226112.549208) slcan0 261#3000000000000000
(1768226112.552174) slcan0 661#21FFFFFF00000000
(1768226112.553234) slcan0 661#2280B60082FFB114
(1768226112.554246) slcan0 661#23808000FF16EE01
(1768226112.557819) slcan0 661#24FDFFFFFFFF6CFF
(1768226112.558443) slcan0 661#25FFFFFFFFFFFF40
(1768226112.559367) slcan0 661#26000E0040000021
(1768226112.562363) slcan0 661#27FF5AFFFF000000
(1768226112.651357) slcan0 261#0221000000000000
(1768226112.664192) slcan0 661#037F217800000000
(1768226112.677693) slcan0 661#10346100FFFFFFFF
(1768226112.678044) slcan0 261#3000000000000000
(1768226112.679192) slcan0 661#21FFFFFF00000000
(1768226112.681458) slcan0 661#2280B60082FFB114
(1768226112.682214) slcan0 661#23808000FF170801
(1768226112.683189) slcan0 661#24FDFFFFFFFF6CFF
(1768226112.684187) slcan0 661#25FFFFFFFFFFFF40
(1768226112.688010) slcan0 661#26000E0040000021
(1768226112.689220) slcan0 661#27FF5AFFFF000000
(1768226112.791601) slcan0 261#0221000000000000
(1768226112.804382) slcan0 661#037F217800000000
(1768226112.819877) slcan0 661#10346100FFFFFFFF
(1768226112.820189) slcan0 261#3000000000000000
(1768226112.822454) slcan0 661#21FFFFFF00000000
(1768226112.823331) slcan0 661#2280B60082FFB114
(1768226112.824366) slcan0 661#23808000FF170801
(1768226112.828100) slcan0 661#24FDFFFFFFFF6CFF
(1768226112.829773) slcan0 661#25FFFFFFFFFFFF40
(1768226112.833144) slcan0 661#26000E0040000021
(1768226112.834348) slcan0 661#27FF5AFFFF000000
(1768226112.912604) slcan0 261#0221000000000000
(1768226112.924403) slcan0 661#037F217800000000
(1768226112.937789) slcan0 661#10346100FFFFFFFF
(1768226112.938026) slcan0 261#3000000000000000
(1768226112.939418) slcan0 661#21FFFFFF00000000
(1768226112.941668) slcan0 661#2280B70082FFB114
(1768226112.942375) slcan0 661#23808000FF172801
(1768226112.943384) slcan0 661#24FDFFFFFFFF6CFF
(1768226112.944382) slcan0 661#25FFFFFFFFFFFF40
(1768226112.949098) slcan0 661#26000E0040000021
(1768226112.952266) slcan0 661#27FF5AFFFF000000
(1768226113.034520) slcan0 261#0221000000000000
(1768226113.049450) slcan0 661#037F217800000000
(1768226113.068088) slcan0 661#10346100FFFFFFFF
(1768226113.068239) slcan0 261#3000000000000000
(1768226113.069449) slcan0 661#21FFFFFF00000000
(1768226113.072064) slcan0 661#2280B70082FFB114
(1768226113.073558) slcan0 661#23808000FF171401
(1768226113.074257) slcan0 661#24FDFFFFFFFF6CFF
(1768226113.077832) slcan0 661#25FFFFFFFFFFFF40
(1768226113.078286) slcan0 661#26000E0040000021
(1768226113.079336) slcan0 661#27FF5AFFFF000000
(1768226113.185412) slcan0 261#0221000000000000
(1768226113.199472) slcan0 661#037F217800000000
(1768226113.219893) slcan0 661#10346100FFFFFFFF
(1768226113.220152) slcan0 261#3000000000000000
(1768226113.222445) slcan0 661#21FFFFFF00000000
(1768226113.223377) slcan0 661#2280B60082FFB114
(1768226113.224416) slcan0 661#23808000FF171401
(1768226113.228421) slcan0 661#24FDFFFFFFFF6CFF
(1768226113.229907) slcan0 661#25FFFFFFFFFFFF40
(1768226113.231785) slcan0 661#26000E0040000021
(1768226113.232790) slcan0 661#27FF5AFFFF000000
(1768226113.309591) slcan0 261#0221000000000000
(1768226113.324355) slcan0 661#037F217800000000
(1768226113.337684) slcan0 661#10346100FFFFFFFF
(1768226113.337908) slcan0 261#3000000000000000
(1768226113.339347) slcan0 661#21FFFFFF00000000
(1768226113.341557) slcan0 661#2280B70082FFB114
(1768226113.342206) slcan0 661#23808000FF171C01
(1768226113.343248) slcan0 661#24FDFFFFFFFF6CFF
(1768226113.344349) slcan0 661#25FFFFFFFFFFFF40
(1768226113.349339) slcan0 661#26000E0040000021
(1768226113.351958) slcan0 661#27FF5AFFFF000000
(1768226113.450645) slcan0 261#041800FF00000000
(1768226113.464289) slcan0 661#037F187800000000
(1768226113.468295) slcan0 661#055801502B200000
(1768226113.545448) slcan0 261#0221000000000000
(1768226113.560018) slcan0 661#037F217800000000
(1768226113.577966) slcan0 661#10346100FFFFFFFF
(1768226113.578148) slcan0 261#3000000000000000
(1768226113.579290) slcan0 661#21FFFFFF00000000
(1768226113.582001) slcan0 661#2280B60082FFB114
(1768226113.582207) slcan0 661#23808000FF171601
(1768226113.583287) slcan0 661#24FDFFFFFFFF6CFF
(1768226113.584333) slcan0 661#25FFFFFFFFFFFF40
(1768226113.588046) slcan0 661#26000E0040000421
(1768226113.588246) slcan0 661#27FF5AFFFF000000
(1768226113.666547) slcan0 261#0221000000000000
(1768226113.679316) slcan0 661#037F217800000000
(1768226113.697766) slcan0 661#10346100FFFFFFFF
(1768226113.697966) slcan0 261#3000000000000000
(1768226113.699319) slcan0 661#21FFFFFF00000000
(1768226113.701513) slcan0 661#2280B70082FFB114
(1768226113.702278) slcan0 661#23808000FF170E01
(1768226113.703285) slcan0 661#24FDFFFFFFFF6CFF
(1768226113.704320) slcan0 661#25FFFFFFFFFFFF40
(1768226113.708558) slcan0 661#26000E0040000021
(1768226113.709252) slcan0 661#27FF5AFFFF000000
(1768226113.785676) slcan0 261#0221000000000000
(1768226113.799341) slcan0 661#037F217800000000
(1768226113.822228) slcan0 661#10346100FFFFFFFF
(1768226113.822488) slcan0 261#3000000000000000
(1768226113.824469) slcan0 661#21FFFFFF00000000
(1768226113.828352) slcan0 661#2280B60082FFB114
(1768226113.829378) slcan0 661#23808000FF171001
(1768226113.831942) slcan0 661#24FDFFFFFFFF6CFF
(1768226113.832642) slcan0 661#25FFFFFFFFFFFF40
(1768226113.833389) slcan0 661#26000E0040000021
(1768226113.834381) slcan0 661#27FF5AFFFF000000
(1768226113.909486) slcan0 261#0221000000000000
(1768226113.924388) slcan0 661#037F217800000000
(1768226113.938067) slcan0 661#10346100FFFFFFFF
(1768226113.938211) slcan0 261#3000000000000000
(1768226113.939474) slcan0 661#21FFFFFF00000000
(1768226113.941406) slcan0 661#2280B70082FFB114
(1768226113.942294) slcan0 661#23808000FF16DC01
(1768226113.943393) slcan0 661#24FDFFFFFFFF6CFF
(1768226113.944297) slcan0 661#25FFFFFFFFFFFF40
(1768226113.949576) slcan0 661#26000E0040000021
(1768226113.951707) slcan0 661#27FF5AFFFF000000
(1768226114.045591) slcan0 261#0221000000000000
(1768226114.059251) slcan0 661#037F217800000000
(1768226114.077650) slcan0 661#10346100FFFFFFFF
(1768226114.077850) slcan0 261#3000000000000000
(1768226114.079324) slcan0 661#21FFFFFF00000000
(1768226114.081507) slcan0 661#2280B60082FFB114
(1768226114.082274) slcan0 661#23808000FF16E201
(1768226114.083275) slcan0 661#24FDFFFFFFFF6CFF
(1768226114.084253) slcan0 661#25FFFFFFFFFFFF40
(1768226114.088073) slcan0 661#26000E0040000021
(1768226114.089232) slcan0 661#27FF5AFFFF000000
(1768226114.171487) slcan0 261#0221000000000000
(1768226114.184261) slcan0 661#037F217800000000
(1768226114.197581) slcan0 661#10346100FFFFFFFF
(1768226114.197841) slcan0 261#3000000000000000
(1768226114.199150) slcan0 661#21FFFFFF00000000
(1768226114.201248) slcan0 661#2280B60082FFB114
(1768226114.202257) slcan0 661#23808000FF16EC01
(1768226114.203272) slcan0 661#24FDFFFFFFFF6CFF
(1768226114.204282) slcan0 661#25FFFFFFFFFFFF40
(1768226114.208080) slcan0 661#26000E0040000021
(1768226114.209165) slcan0 661#27FF5AFFFF000000
(1768226114.313784) slcan0 261#0221000000000000
(1768226114.329814) slcan0 661#037F217800000000
(1768226114.349090) slcan0 661#10346100FFFFFFFF
(1768226114.349254) slcan0 261#3000000000000000
(1768226114.351613) slcan0 661#21FFFFFF00000000
(1768226114.352260) slcan0 661#2280B70082FFB114
(1768226114.353247) slcan0 661#23808000FF16F601
(1768226114.354500) slcan0 661#24FDFFFFFFFF6CFF
(1768226114.357732) slcan0 661#25FFFFFFFFFFFF40
(1768226114.358146) slcan0 661#26000E0040000021
(1768226114.359238) slcan0 661#27FF5AFFFF000000
(1768226114.457669) slcan0 261#0221000000000000
(1768226114.469404) slcan0 661#037F217800000000
(1768226114.488181) slcan0 661#10346100FFFFFFFF
(1768226114.488384) slcan0 261#3000000000000000
(1768226114.489280) slcan0 661#21FFFFFF00000000
(1768226114.491382) slcan0 661#2280B70082FFB114
(1768226114.492296) slcan0 661#23808000FF16FA01
(1768226114.493378) slcan0 661#24FDFFFFFFFF6CFF
(1768226114.494415) slcan0 661#25FFFFFFFFFFFF40
(1768226114.497726) slcan0 661#26000E0040000021
(1768226114.498523) slcan0 661#27FF5AFFFF000000
(1768226114.585681) slcan0 261#0221000000000000
(1768226114.599323) slcan0 661#037F217800000000
(1768226114.619927) slcan0 661#10346100FFFFFFFF
(1768226114.620187) slcan0 261#3000000000000000
(1768226114.623036) slcan0 661#21FFFFFF00000000
(1768226114.623189) slcan0 661#2280B70082FFB114
(1768226114.624221) slcan0 661#23808000FF172A01
(1768226114.628176) slcan0 661#24FDFFFFFFFF6CFF
(1768226114.629874) slcan0 661#25FFFFFFFFFFFF40
(1768226114.631942) slcan0 661#26000E0040000021
(1768226114.632916) slcan0 661#27FF5AFFFF000000
(1768226114.708573) slcan0 261#0221000000000000
(1768226114.724296) slcan0 661#037F217800000000
(1768226114.737968) slcan0 661#10346100FFFFFFFF
(1768226114.738207) slcan0 261#3000000000000000
(1768226114.739327) slcan0 661#21FFFFFF00000000
(1768226114.741408) slcan0 661#2280B70082FFB114
(1768226114.742542) slcan0 661#23808000FF172401
(1768226114.743315) slcan0 661#24FDFFFFFFFF6CFF
(1768226114.744342) slcan0 661#25FFFFFFFFFFFF40
(1768226114.749083) slcan0 661#26000E0040000021
(1768226114.752024) slcan0 661#27FF5AFFFF000000
(1768226114.863731) slcan0 261#0221000000000000
(1768226114.879271) slcan0 661#037F217800000000
(1768226114.897717) slcan0 661#10346100FFFFFFFF
(1768226114.897761) slcan0 261#3000000000000000
(1768226114.899250) slcan0 661#21FFFFFF00000000
(1768226114.901648) slcan0 661#2280B60082FFB114
(1768226114.902146) slcan0 661#23808000FF172A01
(1768226114.903356) slcan0 661#24FDFFFFFFFF6CFF
(1768226114.904372) slcan0 661#25FFFFFFFFFFFF40
(1768226114.908550) slcan0 661#26000E0040000021
(1768226114.909326) slcan0 661#27FF5AFFFF000000
(1768226115.012857) slcan0 261#0221000000000000
(1768226115.024393) slcan0 661#037F217800000000
(1768226115.037904) slcan0 661#10346100FFFFFFFF
(1768226115.038017) slcan0 261#3000000000000000
(1768226115.039378) slcan0 661#21FFFFFF00000000
(1768226115.041505) slcan0 661#2280B70082FFB114
(1768226115.042335) slcan0 661#23808000FF172801
(1768226115.043378) slcan0 661#24FDFFFFFFFF6CFF
(1768226115.044394) slcan0 661#25FFFFFFFFFFFF40
(1768226115.049081) slcan0 661#26000E0040000021
(1768226115.049292) slcan0 661#27FF5AFFFF000000
(1768226115.143700) slcan0 261#0221000000000000
(1768226115.159259) slcan0 661#037F217800000000
(1768226115.177282) slcan0 661#10346100FFFFFFFF
(1768226115.177566) slcan0 261#3000000000000000
(1768226115.179094) slcan0 661#21FFFFFF00000000
(1768226115.181552) slcan0 661#2280B60082FFB114
(1768226115.182121) slcan0 661#23808000FF170201
(1768226115.183385) slcan0 661#24FDFFFFFFFF6CFF
(1768226115.184132) slcan0 661#25FFFFFFFFFFFF40
(1768226115.187564) slcan0 661#26000E0040000021
(1768226115.188108) slcan0 661#27FF5AFFFF000000
(1768226115.283657) slcan0 261#0221000000000000
(1768226115.299137) slcan0 661#037F217800000000
(1768226115.319669) slcan0 661#10346100FFFFFFFF
(1768226115.319926) slcan0 261#3000000000000000
(1768226115.322112) slcan0 661#21FFFFFF00000000
(1768226115.324059) slcan0 661#2280B60082FFB114
(1768226115.328011) slcan0 661#23808000FF170401
(1768226115.329083) slcan0 661#24FDFFFFFFFF6CFF
(1768226115.331205) slcan0 661#25FFFFFFFFFFFF40
(1768226115.332418) slcan0 661#26000E0040000021
(1768226115.333103) slcan0 661#27FF5AFFFF000000
(1768226115.415607) slcan0 261#041800FF00000000
(1768226115.429342) slcan0 661#037F187800000000
(1768226115.437716) slcan0 661#055801502B200000
(1768226115.539537) slcan0 261#0221000000000000
(1768226115.554463) slcan0 661#037F217800000000
(1768226115.568256) slcan0 661#10346100FFFFFFFF
(1768226115.568516) slcan0 261#3000000000000000
(1768226115.571491) slcan0 661#21FFFFFF00000000
(1768226115.572085) slcan0 661#2280B70082FFB114
(1768226115.573233) slcan0 661#23808000FF170401
(1768226115.574241) slcan0 661#24FDFFFFFFFF6CFF
(1768226115.577545) slcan0 661#25FFFFFFFFFFFF40
(1768226115.578379) slcan0 661#26000E0040000021
(1768226115.579122) slcan0 661#27FF5AFFFF000000
(1768226115.687519) slcan0 261#0221000000000000
(1768226115.699113) slcan0 661#037F217800000000
(1768226115.719905) slcan0 661#10346100FFFFFFFF
(1768226115.720153) slcan0 261#3000000000000000
(1768226115.722207) slcan0 661#21FFFFFF00000000
(1768226115.723106) slcan0 661#2280B60082FFB114
(1768226115.724115) slcan0 661#23808000FF170A01
(1768226115.729897) slcan0 661#24FDFFFFFFFF6CFF
(1768226115.731292) slcan0 661#25FFFFFFFFFFFF40
(1768226115.732494) slcan0 661#26000E0040000021
(1768226115.733179) slcan0 661#27FF5AFFFF000000
(1768226115.830529) slcan0 261#0221000000000000
(1768226115.844379) slcan0 661#037F217800000000
(1768226115.857641) slcan0 661#10346100FFFFFFFF
(1768226115.857802) slcan0 261#3000000000000000
(1768226115.859273) slcan0 661#21FFFFFF00000000
(1768226115.861996) slcan0 661#2280B70082FFB114
(1768226115.862493) slcan0 661#23808000FF172A01
(1768226115.863211) slcan0 661#24FDFFFFFFFF6CFF
(1768226115.864260) slcan0 661#25FFFFFFFFFFFF40
(1768226115.868473) slcan0 661#26000E0040000021
(1768226115.869347) slcan0 661#27FF5AFFFF000000
(1768226115.964590) slcan0 261#0221000000000000
(1768226115.979246) slcan0 661#037F217800000000
(1768226115.997556) slcan0 661#10346100FFFFFFFF
(1768226115.997748) slcan0 261#3000000000000000
(1768226115.999352) slcan0 661#21FFFFFF00000000
(1768226116.001403) slcan0 661#2280B60082FFB114
(1768226116.002283) slcan0 661#23808000FF173801
