(1768226128.014419) slcan0 271#0221080000000000
(1768226128.027910) slcan0 671#1066610820B900FF
(1768226128.028045) slcan0 271#3000000000000000
(1768226128.037411) slcan0 671#210B22FFFFFFFF80
(1768226128.048992) slcan0 671#22FFFFFFFFFFFFFF
(1768226128.058183) slcan0 671#23FFFF0016F4FFFF
(1768226128.067864) slcan0 671#24FFFFFF01FFFFFF
(1768226128.077421) slcan0 671#25FFFF54FF08FFFF
(1768226128.087324) slcan0 671#2600100007400244
(1768226128.097512) slcan0 671#2700060007000030
(1768226128.108036) slcan0 671#28FFE10D30370BFF
(1768226128.121534) slcan0 671#29FFFFFFFFFFFFFF
(1768226128.127669) slcan0 671#2AFFFFFFFFFFFFFF
(1768226128.137603) slcan0 671#2BFFFFFFFFFFFFFF
(1768226128.148916) slcan0 671#2CFFFFFFFFFFFFFF
(1768226128.158018) slcan0 671#2DFFFFFFFFFFFFFF
(1768226128.167821) slcan0 671#2EFFFFFFFFFF0000
(1768226128.260509) slcan0 271#0221080000000000
(1768226128.267774) slcan0 671#1066610820B800FF
(1768226128.267903) slcan0 271#3000000000000000
(1768226128.277704) slcan0 671#210B22FFFFFFFF80
(1768226128.287886) slcan0 671#22FFFFFFFFFFFFFF
(1768226128.298005) slcan0 671#23FFFF0016EAFFFF
(1768226128.308171) slcan0 671#24FFFFFF01FFFFFF
(1768226128.321469) slcan0 671#25FFFF54FF08FFFF
(1768226128.328113) slcan0 671#2600100007400244
(1768226128.337426) slcan0 671#2700060007000030
(1768226128.348996) slcan0 671#28FFE10D30370BFF
(1768226128.358149) slcan0 671#29FFFFFFFFFFFFFF
(1768226128.367975) slcan0 671#2AFFFFFFFFFFFFFF
(1768226128.377464) slcan0 671#2BFFFFFFFFFFFFFF
(1768226128.388595) slcan0 671#2CFFFFFFFFFFFFFF
(1768226128.397561) slcan0 671#2DFFFFFFFFFFFFFF
(1768226128.408171) slcan0 671#2EFFFFFFFFFF0000
(1768226128.449666) slcan0 271#0221080000000000
(1768226128.457909) slcan0 671#1066610820B800FF
(1768226128.458196) slcan0 271#3000000000000000
(1768226128.468179) slcan0 671#210B22FFFFFFFF80
(1768226128.477644) slcan0 671#22FFFFFFFFFFFFFF
(1768226128.488757) slcan0 671#23FFFF0016F4FFFF
(1768226128.497540) slcan0 671#24FFFFFF01FFFFFF
(1768226128.508864) slcan0 671#25FFFF54FF08FFFF
(1768226128.521394) slcan0 671#2600100007400244
(1768226128.528118) slcan0 671#2700060007000030
(1768226128.537703) slcan0 671#28FFE10D30370BFF
(1768226128.549409) slcan0 671#29FFFFFFFFFFFFFF
(1768226128.558038) slcan0 671#2AFFFFFFFFFFFFFF
(1768226128.568547) slcan0 671#2BFFFFFFFFFFFFFF
(1768226128.577388) slcan0 671#2CFFFFFFFFFFFFFF
(1768226128.588435) slcan0 671#2DFFFFFFFFFFFFFF
(1768226128.597813) slcan0 671#2EFFFFFFFFFF0000
(1768226128.616715) slcan0 271#0418000000000000
(1768226128.628596) slcan0 671#037F181200000000
(1768226128.722743) slcan0 271#0418004000000000
(1768226128.727899) slcan0 671#037F181200000000
(1768226128.828905) slcan0 271#0418008000000000
(1768226128.837652) slcan0 671#037F181200000000
(1768226128.912936) slcan0 271#041800C000000000
(1768226128.921538) slcan0 671#037F181200000000
(1768226129.011989) slcan0 271#041800FF00000000
(1768226129.019520) slcan0 671#100858029134E095
(1768226129.019729) slcan0 271#3000000000000000
(1768226129.027961) slcan0 671#210A600000000000
(1768226129.125894) slcan0 271#041800FFFF000000
(1768226129.137726) slcan0 671#037F181200000000
(1768226129.246943) slcan0 271#0221080000000000
(1768226129.258158) slcan0 671#1066610820B900FF
(1768226129.258320) slcan0 271#3000000000000000
(1768226129.267794) slcan0 671#210B22FFFFFFFF80
(1768226129.277513) slcan0 671#22FFFFFFFFFFFFFF
(1768226129.287355) slcan0 671#23FFFF00172AFFFF
(1768226129.297580) slcan0 671#24FFFFFF01FFFFFF
(1768226129.308100) slcan0 671#25FFFF54FF08FFFF
(1768226129.321443) slcan0 671#2600100007400244
(1768226129.327807) slcan0 671#2700060007000030
(1768226129.337368) slcan0 671#28FFE10D30370BFF
(1768226129.349594) slcan0 671#29FFFFFFFFFFFFFF
(1768226129.358172) slcan0 671#2AFFFFFFFFFFFFFF
(1768226129.367887) slcan0 671#2BFFFFFFFFFFFFFF
(1768226129.377654) slcan0 671#2CFFFFFFFFFFFFFF
(1768226129.387450) slcan0 671#2DFFFFFFFFFFFFFF
(1768226129.397432) slcan0 671#2EFFFFFFFFFF0000
(1768226129.414958) slcan0 271#0221080000000000
(1768226129.427740) slcan0 671#1066610820B900FF
(1768226129.428073) slcan0 271#3000000000000000
(1768226129.437896) slcan0 671#210B22FFFFFFFF80
(1768226129.448834) slcan0 671#22FFFFFFFFFFFFFF
(1768226129.457896) slcan0 671#23FFFF001728FFFF
(1768226129.467947) slcan0 671#24FFFFFF01FFFFFF
(1768226129.477241) slcan0 671#25FFFF54FF08FFFF
(1768226129.487305) slcan0 671#2600100007400244
(1768226129.497694) slcan0 671#2700060007000030
(1768226129.507776) slcan0 671#28FFE10D30370BFF
(1768226129.521653) slcan0 671#29FFFFFFFFFFFFFF
(1768226129.527585) slcan0 671#2AFFFFFFFFFFFFFF
(1768226129.537401) slcan0 671#2BFFFFFFFFFFFFFF
(1768226129.548816) slcan0 671#2CFFFFFFFFFFFFFF
(1768226129.558010) slcan0 671#2DFFFFFFFFFFFFFF
(1768226129.567542) slcan0 671#2EFFFFFFFFFF0000
(1768226129.617971) slcan0 271#0221080000000000
(1768226129.627847) slcan0 671#1066610820B900FF
(1768226129.627986) slcan0 271#3000000000000000
(1768226129.637376) slcan0 671#210B22FFFFFFFF80
(1768226129.648833) slcan0 671#22FFFFFFFFFFFFFF
(1768226129.658029) slcan0 671#23FFFF001722FFFF
(1768226129.667767) slcan0 671#24FFFFFF01FFFFFF
(1768226129.677842) slcan0 671#25FFFF54FF08FFFF
(1768226129.687341) slcan0 671#2600100007400244
(1768226129.697534) slcan0 671#2700060007000030
(1768226129.708215) slcan0 671#28FFE10D30370BFF
(1768226129.721184) slcan0 671#29FFFFFFFFFFFFFF
(1768226129.727701) slcan0 671#2AFFFFFFFFFFFFFF
(1768226129.737925) slcan0 671#2BFFFFFFFFFFFFFF
(1768226129.749070) slcan0 671#2CFFFFFFFFFFFFFF
(1768226129.757880) slcan0 671#2DFFFFFFFFFFFFFF
(1768226129.767620) slcan0 671#2EFFFFFFFFFF0000
(1768226129.786984) slcan0 271#0221080000000000
(1768226129.797708) slcan0 671#1066610820B900FF
(1768226129.797978) slcan0 271#3000000000000000
(1768226129.807825) slcan0 671#210B22FFFFFFFF80
(1768226129.821448) slcan0 671#22FFFFFFFFFFFFFF
(1768226129.827775) slcan0 671#23FFFF00170AFFFF
(1768226129.837463) slcan0 671#24FFFFFF01FFFFFF
(1768226129.848925) slcan0 671#25FFFF54FF08FFFF
(1768226129.858243) slcan0 671#2600100007400244
(1768226129.867760) slcan0 671#2700060007000030
(1768226129.877408) slcan0 671#28FFE10D30370BFF
(1768226129.887429) slcan0 671#29FFFFFFFFFFFFFF
(1768226129.897645) slcan0 671#2AFFFFFFFFFFFFFF
(1768226129.907833) slcan0 671#2BFFFFFFFFFFFFFF
(1768226129.921390) slcan0 671#2CFFFFFFFFFFFFFF
(1768226129.927641) slcan0 671#2DFFFFFFFFFFFFFF
(1768226129.937265) slcan0 671#2EFFFFFFFFFF0000
(1768226129.973738) slcan0 271#0221080000000000
(1768226129.987401) slcan0 671#1066610820B900FF
(1768226129.987617) slcan0 271#3000000000000000
(1768226129.997583) slcan0 671#210B22FFFFFFFF80
(1768226130.008094) slcan0 671#22FFFFFFFFFFFFFF
(1768226130.019252) slcan0 671#23FFFF0016ECFFFF
(1768226130.027781) slcan0 671#24FFFFFF01FFFFFF
(1768226130.037814) slcan0 671#25FFFF54FF08FFFF
(1768226130.049108) slcan0 671#2600100007400244
(1768226130.058021) slcan0 671#2700060007000030
(1768226130.067807) slcan0 671#28FFE10D30370BFF
(1768226130.077426) slcan0 671#29FFFFFFFFFFFFFF
(1768226130.087548) slcan0 671#2AFFFFFFFFFFFFFF
(1768226130.097724) slcan0 671#2BFFFFFFFFFFFFFF
(1768226130.107881) slcan0 671#2CFFFFFFFFFFFFFF
(1768226130.121589) slcan0 671#2DFFFFFFFFFFFFFF
(1768226130.127670) slcan0 671#2EFFFFFFFFFF0000
(1768226130.185823) slcan0 271#0221080000000000
(1768226130.197593) slcan0 671#1066610820B900FF
(1768226130.197918) slcan0 271#3000000000000000
(1768226130.207831) slcan0 671#210B22FFFFFFFF80
(1768226130.221210) slcan0 671#22FFFFFFFFFFFFFF
(1768226130.228048) slcan0 671#23FFFF001700FFFF
(1768226130.237452) slcan0 671#24FFFFFF01FFFFFF
(1768226130.248697) slcan0 671#25FFFF54FF08FFFF
(1768226130.257929) slcan0 671#2600100007400244
(1768226130.267760) slcan0 671#2700060007000030
(1768226130.278024) slcan0 671#28FFE10D30370BFF
(1768226130.287328) slcan0 671#29FFFFFFFFFFFFFF
(1768226130.298416) slcan0 671#2AFFFFFFFFFFFFFF
(1768226130.308035) slcan0 671#2BFFFFFFFFFFFFFF
(1768226130.321202) slcan0 671#2CFFFFFFFFFFFFFF
(1768226130.327634) slcan0 671#2DFFFFFFFFFFFFFF
(1768226130.337784) slcan0 671#2EFFFFFFFFFF0000
(1768226130.366825) slcan0 271#0221080000000000
(1768226130.377289) slcan0 671#1066610820B800FF
(1768226130.377638) slcan0 271#3000000000000000
(1768226130.387526) slcan0 671#210B22FFFFFFFF80
(1768226130.397997) slcan0 671#22FFFFFFFFFFFFFF
(1768226130.407672) slcan0 671#23FFFF00171AFFFF
(1768226130.421628) slcan0 671#24FFFFFF01FFFFFF
(1768226130.427737) slcan0 671#25FFFF54FF08FFFF
(1768226130.437481) slcan0 671#2600100007400244
(1768226130.448753) slcan0 671#2700060007000030
(1768226130.458152) slcan0 671#28FFE10D30370BFF
(1768226130.468142) slcan0 671#29FFFFFFFFFFFFFF
(1768226130.477694) slcan0 671#2AFFFFFFFFFFFFFF
(1768226130.487387) slcan0 671#2BFFFFFFFFFFFFFF
(1768226130.498604) slcan0 671#2CFFFFFFFFFFFFFF
(1768226130.507858) slcan0 671#2DFFFFFFFFFFFFFF
(1768226130.521400) slcan0 671#2EFFFFFFFFFF0000
(1768226130.546764) slcan0 271#0221080000000000
(1768226130.558544) slcan0 671#1066610820B900FF
(1768226130.558863) slcan0 271#3000000000000000
(1768226130.567614) slcan0 671#210B22FFFFFFFF80
(1768226130.578024) slcan0 671#22FFFFFFFFFFFFFF
(1768226130.587392) slcan0 671#23FFFF00171AFFFF
(1768226130.598534) slcan0 671#24FFFFFF01FFFFFF
(1768226130.608005) slcan0 671#25FFFF54FF08FFFF
(1768226130.621656) slcan0 671#2600100007400244
(1768226130.627831) slcan0 671#2700060007000030
(1768226130.637863) slcan0 671#28FFE10D30370BFF
(1768226130.649056) slcan0 671#29FFFFFFFFFFFFFF
(1768226130.658296) slcan0 671#2AFFFFFFFFFFFFFF
(1768226130.667570) slcan0 671#2BFFFFFFFFFFFFFF
(1768226130.678068) slcan0 671#2CFFFFFFFFFFFFFF
(1768226130.686856) slcan0 671#2DFFFFFFFFFFFFFF
(1768226130.698545) slcan0 671#2EFFFFFFFFFF0000
(1768226130.722005) slcan0 271#0221080000000000
(1768226130.727656) slcan0 671#1066610820B900FF
(1768226130.727991) slcan0 271#3000000000000000
(1768226130.738234) slcan0 671#210B22FFFFFFFF80
(1768226130.748864) slcan0 671#22FFFFFFFFFFFFFF
(1768226130.758481) slcan0 671#23FFFF00170AFFFF
(1768226130.767776) slcan0 671#24FFFFFF01FFFFFF
(1768226130.777535) slcan0 671#25FFFF54FF08FFFF
(1768226130.787169) slcan0 671#2600100007400244
(1768226130.799135) slcan0 671#2700060007000030
(1768226130.807668) slcan0 671#28FFE10D30370BFF
(1768226130.821411) slcan0 671#29FFFFFFFFFFFFFF
(1768226130.827629) slcan0 671#2AFFFFFFFFFFFFFF
(1768226130.837653) slcan0 671#2BFFFFFFFFFFFFFF
(1768226130.849098) slcan0 671#2CFFFFFFFFFFFFFF
(1768226130.858609) slcan0 671#2DFFFFFFFFFFFFFF
(1768226130.867709) slcan0 671#2EFFFFFFFFFF0000
(1768226130.909099) slcan0 271#0221080000000000
(1768226130.921882) slcan0 671#1066610820B800FF
(1768226130.922170) slcan0 271#3000000000000000
(1768226130.927719) slcan0 671#210B22FFFFFFFF80
(1768226130.937861) slcan0 671#22FFFFFFFFFFFFFF
(1768226130.949093) slcan0 671#23FFFF001710FFFF
(1768226130.958419) slcan0 671#24FFFFFF01FFFFFF
(1768226130.967474) slcan0 671#25FFFF54FF08FFFF
(1768226130.978094) slcan0 671#2600100007400244
(1768226130.987010) slcan0 671#2700060007000030
(1768226130.998657) slcan0 671#28FFE10D30370BFF
(1768226131.008056) slcan0 671#29FFFFFFFFFFFFFF
(1768226131.021446) slcan0 671#2AFFFFFFFFFFFFFF
(1768226131.027703) slcan0 671#2BFFFFFFFFFFFFFF
(1768226131.038291) slcan0 671#2CFFFFFFFFFFFFFF
(1768226131.048844) slcan0 671#2DFFFFFFFFFFFFFF
(1768226131.058422) slcan0 671#2EFFFFFFFFFF0000
(1768226131.079005) slcan0 271#0221080000000000
(1768226131.087138) slcan0 671#1066610820B800FF
(1768226131.087278) slcan0 271#3000000000000000
(1768226131.098922) slcan0 671#210B22FFFFFFFF80
(1768226131.107930) slcan0 671#22FFFFFFFFFFFFFF
(1768226131.121705) slcan0 671#23FFFF001710FFFF
(1768226131.127299) slcan0 671#24FFFFFF01FFFFFF
(1768226131.137034) slcan0 671#25FFFF54FF08FFFF
(1768226131.148647) slcan0 671#2600100007400244
(1768226131.158572) slcan0 671#2700060007000030
(1768226131.167192) slcan0 671#28FFE10D30370BFF
(1768226131.177480) slcan0 671#29FFFFFFFFFFFFFF
(1768226131.186934) slcan0 671#2AFFFFFFFFFFFFFF
(1768226131.197208) slcan0 671#2BFFFFFFFFFFFFFF
(1768226131.207587) slcan0 671#2CFFFFFFFFFFFFFF
(1768226131.221653) slcan0 671#2DFFFFFFFFFFFFFF
(1768226131.227639) slcan0 671#2EFFFFFFFFFF0000
(1768226131.253010) slcan0 271#0221080000000000
(1768226131.257554) slcan0 671#1066610820B800FF
(1768226131.257783) slcan0 271#3000000000000000
(1768226131.267368) slcan0 671#210B22FFFFFFFF80
(1768226131.277339) slcan0 671#22FFFFFFFFFFFFFF
(1768226131.287025) slcan0 671#23FFFF001728FFFF
(1768226131.297205) slcan0 671#24FFFFFF01FFFFFF
(1768226131.308225) slcan0 671#25FFFF54FF08FFFF
(1768226131.321613) slcan0 671#2600100007400244
(1768226131.327342) slcan0 671#2700060007000030
(1768226131.337360) slcan0 671#28FFE10D30370BFF
(1768226131.348746) slcan0 671#29FFFFFFFFFFFFFF
(1768226131.358358) slcan0 671#2AFFFFFFFFFFFFFF
(1768226131.367439) slcan0 671#2BFFFFFFFFFFFFFF
(1768226131.377123) slcan0 671#2CFFFFFFFFFFFFFF
(1768226131.387370) slcan0 671#2DFFFFFFFFFFFFFF
(1768226131.397103) slcan0 671#2EFFFFFFFFFF0000
(1768226131.432210) slcan0 271#0221080000000000
(1768226131.437135) slcan0 671#1066610820B800FF
(1768226131.437439) slcan0 271#3000000000000000
(1768226131.448700) slcan0 671#210B22FFFFFFFF80
(1768226131.457405) slcan0 671#22FFFFFFFFFFFFFF
(1768226131.467648) slcan0 671#23FFFF00171AFFFF
(1768226131.477335) slcan0 671#24FFFFFF01FFFFFF
(1768226131.487009) slcan0 671#25FFFF54FF08FFFF
(1768226131.497069) slcan0 671#2600100007400244
(1768226131.507460) slcan0 671#2700060007000030
(1768226131.521782) slcan0 671#28FFE10D30370BFF
(1768226131.527522) slcan0 671#29FFFFFFFFFFFFFF
(1768226131.537377) slcan0 671#2AFFFFFFFFFFFFFF
(1768226131.549060) slcan0 671#2BFFFFFFFFFFFFFF
(1768226131.557398) slcan0 671#2CFFFFFFFFFFFFFF
(1768226131.567290) slcan0 671#2DFFFFFFFFFFFFFF
(1768226131.577097) slcan0 671#2EFFFFFFFFFF0000
(1768226131.600161) slcan0 271#0221080000000000
(1768226131.607265) slcan0 671#1066610820B800FF
(1768226131.607475) slcan0 271#3000000000000000
(1768226131.619186) slcan0 671#210B22FFFFFFFF80
(1768226131.627389) slcan0 671#22FFFFFFFFFFFFFF
(1768226131.637124) slcan0 671#23FFFF001716FFFF
(1768226131.648610) slcan0 671#24FFFFFF01FFFFFF
(1768226131.657891) slcan0 671#25FFFF54FF08FFFF
(1768226131.667310) slcan0 671#2600100007400244
(1768226131.676972) slcan0 671#2700060007000030
(1768226131.686971) slcan0 671#28FFE10D30370BFF
(1768226131.696913) slcan0 671#29FFFFFFFFFFFFFF
(1768226131.707441) slcan0 671#2AFFFFFFFFFFFFFF
(1768226131.721813) slcan0 671#2BFFFFFFFFFFFFFF
(1768226131.727243) slcan0 671#2CFFFFFFFFFFFFFF
(1768226131.737125) slcan0 671#2DFFFFFFFFFFFFFF
(1768226131.748739) slcan0 671#2EFFFFFFFFFF0000
(1768226131.786187) slcan0 271#041800FF00000000
(1768226131.797182) slcan0 671#100858029134E095
(1768226131.797325) slcan0 271#3000000000000000
(1768226131.807390) slcan0 671#210A600000000000
(1768226131.908140) slcan0 271#0221080000000000
(1768226131.919527) slcan0 671#1066610820B900FF
(1768226131.919702) slcan0 271#3000000000000000
(1768226131.927330) slcan0 671#210B22FFFFFFFF80
(1768226131.937102) slcan0 671#22FFFFFFFFFFFFFF
(1768226131.948821) slcan0 671#23FFFF0016E0FFFF
(1768226131.957980) slcan0 671#24FFFFFF01FFFFFF
(1768226131.967423) slcan0 671#25FFFF54FF08FFFF
(1768226131.977079) slcan0 671#2600100007400244
(1768226131.987336) slcan0 671#2700060007000030
(1768226131.997040) slcan0 671#28FFE10D30370BFF
(1768226132.007335) slcan0 671#29FFFFFFFFFFFFFF
(1768226132.021727) slcan0 671#2AFFFFFFFFFFFFFF
(1768226132.027406) slcan0 671#2BFFFFFFFFFFFFFF
(1768226132.037322) slcan0 671#2CFFFFFFFFFFFFFF
(1768226132.048505) slcan0 671#2DFFFFFFFFFFFFFF
(1768226132.057490) slcan0 671#2EFFFFFFFFFF0000
(1768226132.109321) slcan0 271#0221080000000000
(1768226132.119562) slcan0 671#1066610820B800FF
(1768226132.119591) slcan0 271#3000000000000000
(1768226132.127412) slcan0 671#210B22FFFFFFFF80
(1768226132.137393) slcan0 671#22FFFFFFFFFFFFFF
(1768226132.149027) slcan0 671#23FFFF001702FFFF
(1768226132.157512) slcan0 671#24FFFFFF01FFFFFF
(1768226132.167366) slcan0 671#25FFFF54FF08FFFF
(1768226132.177149) slcan0 671#2600100007400244
(1768226132.187030) slcan0 671#2700060007000030
(1768226132.197070) slcan0 671#28FFE10D30370BFF
(1768226132.207480) slcan0 671#29FFFFFFFFFFFFFF
(1768226132.221237) slcan0 671#2AFFFFFFFFFFFFFF
(1768226132.227561) slcan0 671#2BFFFFFFFFFFFFFF
(1768226132.237425) slcan0 671#2CFFFFFFFFFFFFFF
(1768226132.248445) slcan0 671#2DFFFFFFFFFFFFFF
(1768226132.257857) slcan0 671#2EFFFFFFFFFF0000
(1768226132.295128) slcan0 271#0221080000000000
(1768226132.307430) slcan0 671#1066610820B900FF
(1768226132.307640) slcan0 271#3000000000000000
(1768226132.321373) slcan0 671#210B22FFFFFFFF80
(1768226132.327369) slcan0 671#22FFFFFFFFFFFFFF
(1768226132.337226) slcan0 671#23FFFF00172AFFFF
(1768226132.348593) slcan0 671#24FFFFFF01FFFFFF
(1768226132.357416) slcan0 671#25FFFF54FF08FFFF
(1768226132.367287) slcan0 671#2600100007400244
(1768226132.377271) slcan0 671#2700060007000030
(1768226132.387125) slcan0 671#28FFE10D30370BFF
(1768226132.397084) slcan0 671#29FFFFFFFFFFFFFF
(1768226132.407970) slcan0 671#2AFFFFFFFFFFFFFF
(1768226132.419363) slcan0 671#2BFFFFFFFFFFFFFF
(1768226132.427393) slcan0 671#2CFFFFFFFFFFFFFF
(1768226132.437403) slcan0 671#2DFFFFFFFFFFFFFF
(1768226132.448823) slcan0 671#2EFFFFFFFFFF0000
(1768226132.467110) slcan0 271#0221080000000000
(1768226132.477222) slcan0 671#1066610820B800FF
(1768226132.477499) slcan0 271#3000000000000000
(1768226132.487019) slcan0 671#210B22FFFFFFFF80
(1768226132.497402) slcan0 671#22FFFFFFFFFFFFFF
(1768226132.507477) slcan0 671#23FFFF001714FFFF
(1768226132.521368) slcan0 671#24FFFFFF01FFFFFF
(1768226132.527428) slcan0 671#25FFFF54FF08FFFF
(1768226132.537085) slcan0 671#2600100007400244
(1768226132.548695) slcan0 671#2700060007000030
(1768226132.557675) slcan0 671#28FFE10D30370BFF
(1768226132.567308) slcan0 671#29FFFFFFFFFFFFFF
(1768226132.577055) slcan0 671#2AFFFFFFFFFFFFFF
(1768226132.587375) slcan0 671#2BFFFFFFFFFFFFFF
(1768226132.597037) slcan0 671#2CFFFFFFFFFFFFFF
(1768226132.608707) slcan0 671#2DFFFFFFFFFFFFFF
(1768226132.621119) slcan0 671#2EFFFFFFFFFF0000
(1768226132.638155) slcan0 271#0221080000000000
(1768226132.648657) slcan0 671#1066610820B900FF
(1768226132.648909) slcan0 271#3000000000000000
(1768226132.657285) slcan0 671#210B22FFFFFFFF80
(1768226132.667817) slcan0 671#22FFFFFFFFFFFFFF
(1768226132.677259) slcan0 671#23FFFF001728FFFF
(1768226132.687027) slcan0 671#24FFFFFF01FFFFFF
(1768226132.697027) slcan0 671#25FFFF54FF08FFFF
(1768226132.708495) slcan0 671#2600100007400244
(1768226132.721172) slcan0 671#2700060007000030
(1768226132.727976) slcan0 671#28FFE10D30370BFF
(1768226132.737336) slcan0 671#29FFFFFFFFFFFFFF
(1768226132.749401) slcan0 671#2AFFFFFFFFFFFFFF
(1768226132.757367) slcan0 671#2BFFFFFFFFFFFFFF
(1768226132.767726) slcan0 671#2CFFFFFFFFFFFFFF
(1768226132.777134) slcan0 671#2DFFFFFFFFFFFFFF
(1768226132.787857) slcan0 671#2EFFFFFFFFFF0000
(1768226132.824166) slcan0 271#0221080000000000
(1768226132.837152) slcan0 671#1066610820B900FF
(1768226132.837226) slcan0 271#3000000000000000
(1768226132.849260) slcan0 671#210B22FFFFFFFF80
(1768226132.857633) slcan0 671#22FFFFFFFFFFFFFF
(1768226132.867981) slcan0 671#23FFFF00174EFFFF
(1768226132.877222) slcan0 671#24FFFFFF01FFFFFF
(1768226132.887219) slcan0 671#25FFFF54FF08FFFF
(1768226132.897037) slcan0 671#2600100007400244
(1768226132.909073) slcan0 671#2700060007000030
(1768226132.921257) slcan0 671#28FFE10D30370BFF
(1768226132.927765) slcan0 671#29FFFFFFFFFFFFFF
(1768226132.937067) slcan0 671#2AFFFFFFFFFFFFFF
(1768226132.948515) slcan0 671#2BFFFFFFFFFFFFFF
(1768226132.957571) slcan0 671#2CFFFFFFFFFFFFFF
(1768226132.968064) slcan0 671#2DFFFFFFFFFFFFFF
(1768226132.977331) slcan0 671#2EFFFFFFFFFF0000
(1768226132.997080) slcan0 271#0221080000000000
(1768226133.008248) slcan0 671#1066610820B800FF
(1768226133.008494) slcan0 271#3000000000000000
(1768226133.018938) slcan0 671#210B22FFFFFFFF80
(1768226133.028120) slcan0 671#22FFFFFFFFFFFFFF
(1768226133.037516) slcan0 671#23FFFF001742FFFF
(1768226133.048797) slcan0 671#24FFFFFF01FFFFFF
(1768226133.057264) slcan0 671#25FFFF54FF08FFFF
(1768226133.067994) slcan0 671#2600100007400244
(1768226133.077089) slcan0 671#2700060007000030
(1768226133.087676) slcan0 671#28FFE10D30370BFF
(1768226133.097436) slcan0 671#29FFFFFFFFFFFFFF
(1768226133.108726) slcan0 671#2AFFFFFFFFFFFFFF
(1768226133.119411) slcan0 671#2BFFFFFFFFFFFFFF
(1768226133.127617) slcan0 671#2CFFFFFFFFFFFFFF
(1768226133.137081) slcan0 671#2DFFFFFFFFFFFFFF
(1768226133.149354) slcan0 671#2EFFFFFFFFFF0000
(1768226133.162973) slcan0 271#0221080000000000
(1768226133.167650) slcan0 671#1066610820B800FF
(1768226133.167909) slcan0 271#3000000000000000
(1768226133.177116) slcan0 671#210B22FFFFFFFF80
(1768226133.186963) slcan0 671#22FFFFFFFFFFFFFF
(1768226133.197131) slcan0 671#23FFFF001728FFFF
(1768226133.208784) slcan0 671#24FFFFFF01FFFFFF
(1768226133.219033) slcan0 671#25FFFF54FF08FFFF
(1768226133.228178) slcan0 671#2600100007400244
(1768226133.237058) slcan0 671#2700060007000030
(1768226133.248398) slcan0 671#28FFE10D30370BFF
(1768226133.257564) slcan0 671#29FFFFFFFFFFFFFF
(1768226133.268121) slcan0 671#2AFFFFFFFFFFFFFF
(1768226133.277471) slcan0 671#2BFFFFFFFFFFFFFF
(1768226133.287376) slcan0 671#2CFFFFFFFFFFFFFF
(1768226133.297166) slcan0 671#2DFFFFFFFFFFFFFF
(1768226133.307666) slcan0 671#2EFFFFFFFFFF0000
(1768226133.325053) slcan0 271#0221080000000000
(1768226133.337360) slcan0 671#1066610820B900FF
(1768226133.337516) slcan0 271#3000000000000000
(1768226133.348804) slcan0 671#210B22FFFFFFFF80
(1768226133.357461) slcan0 671#22FFFFFFFFFFFFFF
(1768226133.367403) slcan0 671#23FFFF001716FFFF
(1768226133.377097) slcan0 671#24FFFFFF01FFFFFF
(1768226133.387241) slcan0 671#25FFFF54FF08FFFF
(1768226133.397439) slcan0 671#2600100007400244
(1768226133.407118) slcan0 671#2700060007000030
(1768226133.419119) slcan0 671#28FFE10D30370BFF
(1768226133.427378) slcan0 671#29FFFFFFFFFFFFFF
(1768226133.437125) slcan0 671#2AFFFFFFFFFFFFFF
(1768226133.449291) slcan0 671#2BFFFFFFFFFFFFFF
(1768226133.457561) slcan0 671#2CFFFFFFFFFFFFFF
(1768226133.467584) slcan0 671#2DFFFFFFFFFFFFFF
(1768226133.477121) slcan0 671#2EFFFFFFFFFF0000
(1768226133.509939) slcan0 271#0221080000000000
(1768226133.519361) slcan0 671#1066610820B800FF
(1768226133.519574) slcan0 271#3000000000000000
(1768226133.527083) slcan0 671#210B22FFFFFFFF80
(1768226133.536916) slcan0 671#22FFFFFFFFFFFFFF
(1768226133.548217) slcan0 671#23FFFF001700FFFF
(1768226133.557309) slcan0 671#24FFFFFF01FFFFFF
(1768226133.567263) slcan0 671#25FFFF54FF08FFFF
(1768226133.577356) slcan0 671#2600100007400244
(1768226133.587053) slcan0 671#2700060007000030
(1768226133.597276) slcan0 671#28FFE10D30370BFF
(1768226133.607365) slcan0 671#29FFFFFFFFFFFFFF
(1768226133.618736) slcan0 671#2AFFFFFFFFFFFFFF
(1768226133.627358) slcan0 671#2BFFFFFFFFFFFFFF
(1768226133.637526) slcan0 671#2CFFFFFFFFFFFFFF
(1768226133.648983) slcan0 671#2DFFFFFFFFFFFFFF
(1768226133.657394) slcan0 671#2EFFFFFFFFFF0000
(1768226133.697853) slcan0 271#0221080000000000
(1768226133.707374) slcan0 671#1066610820B800FF
(1768226133.707599) slcan0 271#3000000000000000
(1768226133.719016) slcan0 671#210B22FFFFFFFF80
(1768226133.727331) slcan0 671#22FFFFFFFFFFFFFF
(1768226133.737052) slcan0 671#23FFFF00170EFFFF
(1768226133.748583) slcan0 671#24FFFFFF01FFFFFF
(1768226133.757734) slcan0 671#25FFFF54FF08FFFF
(1768226133.767549) slcan0 671#2600100007400244
(1768226133.777110) slcan0 671#2700060007000030
(1768226133.787005) slcan0 671#28FFE10D30370BFF
(1768226133.797544) slcan0 671#29FFFFFFFFFFFFFF
(1768226133.807322) slcan0 671#2AFFFFFFFFFFFFFF
(1768226133.819032) slcan0 671#2BFFFFFFFFFFFFFF
(1768226133.827857) slcan0 671#2CFFFFFFFFFFFFFF
(1768226133.837149) slcan0 671#2DFFFFFFFFFFFFFF
(1768226133.848611) slcan0 671#2EFFFFFFFFFF0000
(1768226133.862099) slcan0 271#0221080000000000
(1768226133.867407) slcan0 671#1066610820B800FF
(1768226133.867569) slcan0 271#3000000000000000
(1768226133.877404) slcan0 671#210B22FFFFFFFF80
(1768226133.887072) slcan0 671#22FFFFFFFFFFFFFF
(1768226133.897296) slcan0 671#23FFFF001714FFFF
(1768226133.907422) slcan0 671#24FFFFFF01FFFFFF
(1768226133.919075) slcan0 671#25FFFF54FF08FFFF
(1768226133.927272) slcan0 671#2600100007400244
(1768226133.937372) slcan0 671#2700060007000030
(1768226133.948747) slcan0 671#28FFE10D30370BFF
(1768226133.957629) slcan0 671#29FFFFFFFFFFFFFF
(1768226133.967357) slcan0 671#2AFFFFFFFFFFFFFF
(1768226133.977107) slcan0 671#2BFFFFFFFFFFFFFF
(1768226133.987259) slcan0 671#2CFFFFFFFFFFFFFF
(1768226133.997663) slcan0 671#2DFFFFFFFFFFFFFF
(1768226134.007437) slcan0 671#2EFFFFFFFFFF0000
(1768226134.025043) slcan0 271#0221080000000000
(1768226134.037219) slcan0 671#1066610820B900FF
(1768226134.037430) slcan0 271#3000000000000000
(1768226134.048432) slcan0 671#210B22FFFFFFFF80
(1768226134.057645) slcan0 671#22FFFFFFFFFFFFFF
(1768226134.067738) slcan0 671#23FFFF001710FFFF
(1768226134.077083) slcan0 671#24FFFFFF01FFFFFF
(1768226134.087018) slcan0 671#25FFFF54FF08FFFF
(1768226134.097365) slcan0 671#2600100007400244
(1768226134.107388) slcan0 671#2700060007000030
(1768226134.119248) slcan0 671#28FFE10D30370BFF
(1768226134.127254) slcan0 671#29FFFFFFFFFFFFFF
(1768226134.137066) slcan0 671#2AFFFFFFFFFFFFFF
(1768226134.148765) slcan0 671#2BFFFFFFFFFFFFFF
(1768226134.157276) slcan0 671#2CFFFFFFFFFFFFFF
(1768226134.167127) slcan0 671#2DFFFFFFFFFFFFFF
(1768226134.177292) slcan0 671#2EFFFFFFFFFF0000
(1768226134.211915) slcan0 271#0221080000000000
(1768226134.218647) slcan0 671#1066610820B900FF
(1768226134.218885) slcan0 271#3000000000000000
(1768226134.227410) slcan0 671#210B22FFFFFFFF80
(1768226134.237214) slcan0 671#22FFFFFFFFFFFFFF
(1768226134.248571) slcan0 671#23FFFF001718FFFF
(1768226134.257614) slcan0 671#24FFFFFF01FFFFFF
(1768226134.267347) slcan0 671#25FFFF54FF08FFFF
(1768226134.277129) slcan0 671#2600100007400244
(1768226134.287054) slcan0 671#2700060007000030
(1768226134.297669) slcan0 671#28FFE10D30370BFF
(1768226134.307642) slcan0 671#29FFFFFFFFFFFFFF
(1768226134.319029) slcan0 671#2AFFFFFFFFFFFFFF
(1768226134.327228) slcan0 671#2BFFFFFFFFFFFFFF
(1768226134.337280) slcan0 671#2CFFFFFFFFFFFFFF
(1768226134.348540) slcan0 671#2DFFFFFFFFFFFFFF
(1768226134.357591) slcan0 671#2EFFFFFFFFFF0000
(1768226134.378072) slcan0 271#041800FF00000000
(1768226134.387151) slcan0 671#100858029134E095
(1768226134.387343) slcan0 271#3000000000000000
(1768226134.397347) slcan0 671#210A600000000000
(1768226134.498101) slcan0 271#0221080000000000
(1768226134.507470) slcan0 671#1066610820B900FF
(1768226134.507517) slcan0 271#3000000000000000
(1768226134.521682) slcan0 671#210B22FFFFFFFF80
(1768226134.527389) slcan0 671#22FFFFFFFFFFFFFF
(1768226134.537335) slcan0 671#23FFFF00172CFFFF
(1768226134.548545) slcan0 671#24FFFFFF01FFFFFF
(1768226134.557443) slcan0 671#25FFFF54FF08FFFF
(1768226134.567211) slcan0 671#2600100007400244
(1768226134.576995) slcan0 671#2700060007000030
(1768226134.586957) slcan0 671#28FFE10D30370BFF
(1768226134.597520) slcan0 671#29FFFFFFFFFFFFFF
(1768226134.607561) slcan0 671#2AFFFFFFFFFFFFFF
(1768226134.618604) slcan0 671#2BFFFFFFFFFFFFFF
(1768226134.627258) slcan0 671#2CFFFFFFFFFFFFFF
(1768226134.637168) slcan0 671#2DFFFFFFFFFFFFFF
(1768226134.648274) slcan0 671#2EFFFFFFFFFF0000
(1768226134.667006) slcan0 271#0221080000000000
(1768226134.676827) slcan0 671#1066610820B800FF
(1768226134.677089) slcan0 271#3000000000000000
(1768226134.686955) slcan0 671#210B22FFFFFFFF80
(1768226134.697389) slcan0 671#22FFFFFFFFFFFFFF
(1768226134.707143) slcan0 671#23FFFF001730FFFF
(1768226134.722136) slcan0 671#24FFFFFF01FFFFFF
(1768226134.727140) slcan0 671#25FFFF54FF08FFFF
(1768226134.736869) slcan0 671#2600100007400244
(1768226134.748416) slcan0 671#2700060007000030
(1768226134.757589) slcan0 671#28FFE10D30370BFF
(1768226134.767367) slcan0 671#29FFFFFFFFFFFFFF
(1768226134.777574) slcan0 671#2AFFFFFFFFFFFFFF
(1768226134.786998) slcan0 671#2BFFFFFFFFFFFFFF
(1768226134.797542) slcan0 671#2CFFFFFFFFFFFFFF
(1768226134.807168) slcan0 671#2DFFFFFFFFFFFFFF
(1768226134.821772) slcan0 671#2EFFFFFFFFFF0000
(1768226134.834070) slcan0 271#0221080000000000
(1768226134.848746) slcan0 671#1066610820B900FF
(1768226134.848882) slcan0 271#3000000000000000
(1768226134.857502) slcan0 671#210B22FFFFFFFF80
(1768226134.867346) slcan0 671#22FFFFFFFFFFFFFF
(1768226134.877350) slcan0 671#23FFFF001734FFFF
(1768226134.886881) slcan0 671#24FFFFFF01FFFFFF
(1768226134.898123) slcan0 671#25FFFF54FF08FFFF
(1768226134.907769) slcan0 671#2600100007400244
(1768226134.922337) slcan0 671#2700060007000030
(1768226134.927197) slcan0 671#28FFE10D30370BFF
(1768226134.937205) slcan0 671#29FFFFFFFFFFFFFF
(1768226134.948575) slcan0 671#2AFFFFFFFFFFFFFF
(1768226134.958682) slcan0 671#2BFFFFFFFFFFFFFF
(1768226134.967561) slcan0 671#2CFFFFFFFFFFFFFF
(1768226134.977138) slcan0 671#2DFFFFFFFFFFFFFF
(1768226134.987241) slcan0 671#2EFFFFFFFFFF0000
(1768226135.038072) slcan0 271#0221080000000000
(1768226135.048328) slcan0 671#1066610820B900FF
(1768226135.048613) slcan0 271#3000000000000000
(1768226135.057494) slcan0 671#210B22FFFFFFFF80
(1768226135.067537) slcan0 671#22FFFFFFFFFFFFFF
(1768226135.077891) slcan0 671#23FFFF001706FFFF
(1768226135.086767) slcan0 671#24FFFFFF01FFFFFF
(1768226135.097619) slcan0 671#25FFFF54FF08FFFF
(1768226135.107291) slcan0 671#2600100007400244
(1768226135.122077) slcan0 671#2700060007000030
(1768226135.127165) slcan0 671#28FFE10D30370BFF
(1768226135.137934) slcan0 671#29FFFFFFFFFFFFFF
(1768226135.148796) slcan0 671#2AFFFFFFFFFFFFFF
(1768226135.157575) slcan0 671#2BFFFFFFFFFFFFFF
(1768226135.167236) slcan0 671#2CFFFFFFFFFFFFFF
(1768226135.177100) slcan0 671#2DFFFFFFFFFFFFFF
(1768226135.186800) slcan0 671#2EFFFFFFFFFF0000
(1768226135.211096) slcan0 271#0221080000000000
(1768226135.221900) slcan0 671#1066610820B900FF
(1768226135.222059) slcan0 271#3000000000000000
(1768226135.227437) slcan0 671#210B22FFFFFFFF80
(1768226135.237037) slcan0 671#22FFFFFFFFFFFFFF
(1768226135.248622) slcan0 671#23FFFF00170EFFFF
(1768226135.258489) slcan0 671#24FFFFFF01FFFFFF
(1768226135.267556) slcan0 671#25FFFF54FF08FFFF
(1768226135.277385) slcan0 671#2600100007400244
(1768226135.287051) slcan0 671#2700060007000030
(1768226135.297492) slcan0 671#28FFE10D30370BFF
(1768226135.307588) slcan0 671#29FFFFFFFFFFFFFF
(1768226135.322873) slcan0 671#2AFFFFFFFFFFFFFF
(1768226135.327448) slcan0 671#2BFFFFFFFFFFFFFF
(1768226135.337418) slcan0 671#2CFFFFFFFFFFFFFF
(1768226135.348497) slcan0 671#2DFFFFFFFFFFFFFF
(1768226135.357336) slcan0 671#2EFFFFFFFFFF0000
(1768226135.393394) slcan0 271#0221080000000000
(1768226135.397761) slcan0 671#1066610820B900FF
(1768226135.398104) slcan0 271#3000000000000000
(1768226135.407270) slcan0 671#210B22FFFFFFFF80
(1768226135.421616) slcan0 671#22FFFFFFFFFFFFFF
(1768226135.427337) slcan0 671#23FFFF001706FFFF
(1768226135.438027) slcan0 671#24FFFFFF01FFFFFF
(1768226135.448747) slcan0 671#25FFFF54FF08FFFF
(1768226135.457608) slcan0 671#2600100007400244
(1768226135.467289) slcan0 671#2700060007000030
(1768226135.477051) slcan0 671#28FFE10D30370BFF
(1768226135.486804) slcan0 671#29FFFFFFFFFFFFFF
(1768226135.498373) slcan0 671#2AFFFFFFFFFFFFFF
(1768226135.507571) slcan0 671#2BFFFFFFFFFFFFFF
(1768226135.522240) slcan0 671#2CFFFFFFFFFFFFFF
(1768226135.527452) slcan0 671#2DFFFFFFFFFFFFFF
(1768226135.537001) slcan0 671#2EFFFFFFFFFF0000
(1768226135.599109) slcan0 271#0221080000000000
(1768226135.607329) slcan0 671#1066610820B800FF
(1768226135.607509) slcan0 271#3000000000000000
(1768226135.622439) slcan0 671#210B22FFFFFFFF80
(1768226135.627552) slcan0 671#22FFFFFFFFFFFFFF
(1768226135.637114) slcan0 671#23FFFF001716FFFF
(1768226135.648368) slcan0 671#24FFFFFF01FFFFFF
(1768226135.657154) slcan0 671#25FFFF54FF08FFFF
(1768226135.667518) slcan0 671#2600100007400244
(1768226135.677161) slcan0 671#2700060007000030
(1768226135.686950) slcan0 671#28FFE10D30370BFF
(1768226135.697275) slcan0 671#29FFFFFFFFFFFFFF
(1768226135.707291) slcan0 671#2AFFFFFFFFFFFFFF
(1768226135.718993) slcan0 671#2BFFFFFFFFFFFFFF
(1768226135.727128) slcan0 671#2CFFFFFFFFFFFFFF
(1768226135.737229) slcan0 671#2DFFFFFFFFFFFFFF
(1768226135.748674) slcan0 671#2EFFFFFFFFFF0000
(1768226135.798178) slcan0 271#0221080000000000
(1768226135.807400) slcan0 671#1066610820B900FF
(1768226135.807658) slcan0 271#3000000000000000
(1768226135.821549) slcan0 671#210B22FFFFFFFF80
(1768226135.827289) slcan0 671#22FFFFFFFFFFFFFF
(1768226135.836916) slcan0 671#23FFFF001708FFFF
(1768226135.848196) slcan0 671#24FFFFFF01FFFFFF
(1768226135.857759) slcan0 671#25FFFF54FF08FFFF
(1768226135.867353) slcan0 671#2600100007400244
(1768226135.877027) slcan0 671#2700060007000030
(1768226135.886900) slcan0 671#28FFE10D30370BFF
(1768226135.897224) slcan0 671#29FFFFFFFFFFFFFF
(1768226135.907528) slcan0 671#2AFFFFFFFFFFFFFF
(1768226135.922585) slcan0 671#2BFFFFFFFFFFFFFF
(1768226135.927455) slcan0 671#2CFFFFFFFFFFFFFF
(1768226135.937085) slcan0 671#2DFFFFFFFFFFFFFF
(1768226135.948383) slcan0 671#2EFFFFFFFFFF0000
(1768226135.985362) slcan0 271#0221080000000000
(1768226135.996967) slcan0 671#1066610820B900FF
(1768226135.997229) slcan0 271#3000000000000000
(1768226136.007134) slcan0 671#210B22FFFFFFFF80
(1768226136.018733) slcan0 671#22FFFFFFFFFFFFFF
(1768226136.027274) slcan0 671#23FFFF001720FFFF
(1768226136.037401) slcan0 671#24FFFFFF01FFFFFF
(1768226136.048712) slcan0 671#25FFFF54FF08FFFF
(1768226136.057331) slcan0 671#2600100007400244
(1768226136.067403) slcan0 671#2700060007000030
(1768226136.077036) slcan0 671#28FFE10D30370BFF
(1768226136.086824) slcan0 671#29FFFFFFFFFFFFFF
(1768226136.097786) slcan0 671#2AFFFFFFFFFFFFFF
(1768226136.107647) slcan0 671#2BFFFFFFFFFFFFFF
(1768226136.119011) slcan0 671#2CFFFFFFFFFFFFFF
(1768226136.127332) slcan0 671#2DFFFFFFFFFFFFFF
(1768226136.136914) slcan0 671#2EFFFFFFFFFF0000
(1768226136.175285) slcan0 271#0221080000000000
(1768226136.186810) slcan0 671#1066610820B900FF
(1768226136.187034) slcan0 271#3000000000000000
(1768226136.196909) slcan0 671#210B22FFFFFFFF80
(1768226136.207182) slcan0 671#22FFFFFFFFFFFFFF
(1768226136.218871) slcan0 671#23FFFF0016F6FFFF
(1768226136.227528) slcan0 671#24FFFFFF01FFFFFF
(1768226136.237189) slcan0 671#25FFFF54FF08FFFF
(1768226136.248322) slcan0 671#2600100007400244
(1768226136.257392) slcan0 671#2700060007000030
(1768226136.267203) slcan0 671#28FFE10D30370BFF
(1768226136.277328) slcan0 671#29FFFFFFFFFFFFFF
(1768226136.287386) slcan0 671#2AFFFFFFFFFFFFFF
(1768226136.297168) slcan0 671#2BFFFFFFFFFFFFFF
(1768226136.307264) slcan0 671#2CFFFFFFFFFFFFFF
(1768226136.319143) slcan0 671#2DFFFFFFFFFFFFFF
(1768226136.327157) slcan0 671#2EFFFFFFFFFF0000
(1768226136.353419) slcan0 271#0221080000000000
(1768226136.367343) slcan0 671#1066610820B800FF
(1768226136.367600) slcan0 271#3000000000000000
(1768226136.376922) slcan0 671#210B22FFFFFFFF80
(1768226136.386926) slcan0 671#22FFFFFFFFFFFFFF
(1768226136.397274) slcan0 671#23FFFF00171CFFFF
(1768226136.407454) slcan0 671#24FFFFFF01FFFFFF
(1768226136.418563) slcan0 671#25FFFF54FF08FFFF
(1768226136.427197) slcan0 671#2600100007400244
(1768226136.436912) slcan0 671#2700060007000030
(1768226136.448413) slcan0 671#28FFE10D30370BFF
(1768226136.457520) slcan0 671#29FFFFFFFFFFFFFF
(1768226136.467483) slcan0 671#2AFFFFFFFFFFFFFF
(1768226136.476999) slcan0 671#2BFFFFFFFFFFFFFF
(1768226136.486854) slcan0 671#2CFFFFFFFFFFFFFF
(1768226136.496989) slcan0 671#2DFFFFFFFFFFFFFF
(1768226136.507507) slcan0 671#2EFFFFFFFFFF0000
(1768226136.522057) slcan0 271#0221080000000000
(1768226136.527571) slcan0 671#1066610820B900FF
(1768226136.527857) slcan0 271#3000000000000000
(1768226136.536940) slcan0 671#210B22FFFFFFFF80
(1768226136.548270) slcan0 671#22FFFFFFFFFFFFFF
(1768226136.557448) slcan0 671#23FFFF00172EFFFF
(1768226136.567201) slcan0 671#24FFFFFF01FFFFFF
(1768226136.577115) slcan0 671#25FFFF54FF08FFFF
(1768226136.587344) slcan0 671#2600100007400244
(1768226136.597050) slcan0 671#2700060007000030
(1768226136.607199) slcan0 671#28FFE10D30370BFF
(1768226136.618659) slcan0 671#29FFFFFFFFFFFFFF
(1768226136.627503) slcan0 671#2AFFFFFFFFFFFFFF
(1768226136.637431) slcan0 671#2BFFFFFFFFFFFFFF
(1768226136.648574) slcan0 671#2CFFFFFFFFFFFFFF
(1768226136.657217) slcan0 671#2DFFFFFFFFFFFFFF
(1768226136.667148) slcan0 671#2EFFFFFFFFFF0000
(1768226136.701841) slcan0 271#0221080000000000
(1768226136.707434) slcan0 671#1066610820B800FF
(1768226136.707635) slcan0 271#3000000000000000
(1768226136.719212) slcan0 671#210B22FFFFFFFF80
(1768226136.727186) slcan0 671#22FFFFFFFFFFFFFF
(1768226136.736845) slcan0 671#23FFFF001732FFFF
(1768226136.748462) slcan0 671#24FFFFFF01FFFFFF
(1768226136.757507) slcan0 671#25FFFF54FF08FFFF
(1768226136.767368) slcan0 671#2600100007400244
(1768226136.777028) slcan0 671#2700060007000030
(1768226136.786880) slcan0 671#28FFE10D30370BFF
(1768226136.797221) slcan0 671#29FFFFFFFFFFFFFF
(1768226136.807402) slcan0 671#2AFFFFFFFFFFFFFF
(1768226136.818789) slcan0 671#2BFFFFFFFFFFFFFF
(1768226136.828227) slcan0 671#2CFFFFFFFFFFFFFF
(1768226136.836940) slcan0 671#2DFFFFFFFFFFFFFF
(1768226136.848225) slcan0 671#2EFFFFFFFFFF0000
(1768226136.881873) slcan0 271#0221080000000000
(1768226136.887406) slcan0 671#1066610820B900FF
(1768226136.887670) slcan0 271#3000000000000000
(1768226136.897038) slcan0 671#210B22FFFFFFFF80
(1768226136.907427) slcan0 671#22FFFFFFFFFFFFFF
(1768226136.918783) slcan0 671#23FFFF001736FFFF
(1768226136.928124) slcan0 671#24FFFFFF01FFFFFF
(1768226136.937204) slcan0 671#25FFFF54FF08FFFF
(1768226136.949192) slcan0 671#2600100007400244
(1768226136.957345) slcan0 671#2700060007000030
(1768226136.967454) slcan0 671#28FFE10D30370BFF
(1768226136.976979) slcan0 671#29FFFFFFFFFFFFFF
(1768226136.987497) slcan0 671#2AFFFFFFFFFFFFFF
(1768226136.997200) slcan0 671#2BFFFFFFFFFFFFFF
(1768226137.008141) slcan0 671#2CFFFFFFFFFFFFFF
(1768226137.018653) slcan0 671#2DFFFFFFFFFFFFFF
(1768226137.028276) slcan0 671#2EFFFFFFFFFF0000
(1768226137.071984) slcan0 271#041800FF00000000
(1768226137.077076) slcan0 671#100858029134E095
(1768226137.077556) slcan0 271#3000000000000000
(1768226137.087079) slcan0 671#210A600000000000
(1768226137.175831) slcan0 271#0221080000000000
(1768226137.187844) slcan0 671#1066610820B900FF
(1768226137.187992) slcan0 271#3000000000000000
(1768226137.196822) slcan0 671#210B22FFFFFFFF80
(1768226137.207325) slcan0 671#22FFFFFFFFFFFFFF
(1768226137.218463) slcan0 671#23FFFF001716FFFF
(1768226137.228179) slcan0 671#24FFFFFF01FFFFFF
(1768226137.237212) slcan0 671#25FFFF54FF08FFFF
(1768226137.249240) slcan0 671#2600100007400244
(1768226137.257258) slcan0 671#2700060007000030
(1768226137.267527) slcan0 671#28FFE10D30370BFF
(1768226137.277069) slcan0 671#29FFFFFFFFFFFFFF
(1768226137.287092) slcan0 671#2AFFFFFFFFFFFFFF
(1768226137.297278) slcan0 671#2BFFFFFFFFFFFFFF
(1768226137.308215) slcan0 671#2CFFFFFFFFFFFFFF
(1768226137.319275) slcan0 671#2DFFFFFFFFFFFFFF
(1768226137.328141) slcan0 671#2EFFFFFFFFFF0000
(1768226137.365927) slcan0 271#0221080000000000
(1768226137.376865) slcan0 671#1066610820B900FF
(1768226137.377076) slcan0 271#3000000000000000
(1768226137.387184) slcan0 671#210B22FFFFFFFF80
(1768226137.396919) slcan0 671#22FFFFFFFFFFFFFF
(1768226137.407122) slcan0 671#23FFFF001714FFFF
(1768226137.418743) slcan0 671#24FFFFFF01FFFFFF
(1768226137.428896) slcan0 671#25FFFF54FF08FFFF
(1768226137.436859) slcan0 671#2600100007400244
(1768226137.448655) slcan0 671#2700060007000030
(1768226137.457262) slcan0 671#28FFE10D30370BFF
(1768226137.467542) slcan0 671#29FFFFFFFFFFFFFF
(1768226137.477270) slcan0 671#2AFFFFFFFFFFFFFF
(1768226137.487809) slcan0 671#2BFFFFFFFFFFFFFF
(1768226137.497024) slcan0 671#2CFFFFFFFFFFFFFF
(1768226137.507616) slcan0 671#2DFFFFFFFFFFFFFF
(1768226137.518851) slcan0 671#2EFFFFFFFFFF0000
(1768226137.543900) slcan0 271#0221080000000000
(1768226137.557425) slcan0 671#1066610820B800FF
(1768226137.557614) slcan0 271#3000000000000000
(1768226137.567263) slcan0 671#210B22FFFFFFFF80
(1768226137.576800) slcan0 671#22FFFFFFFFFFFFFF
(1768226137.586817) slcan0 671#23FFFF0016FAFFFF
(1768226137.597264) slcan0 671#24FFFFFF01FFFFFF
(1768226137.607932) slcan0 671#25FFFF54FF08FFFF
(1768226137.618599) slcan0 671#2600100007400244
(1768226137.628136) slcan0 671#2700060007000030
(1768226137.637076) slcan0 671#28FFE10D30370BFF
(1768226137.648248) slcan0 671#29FFFFFFFFFFFFFF
(1768226137.657579) slcan0 671#2AFFFFFFFFFFFFFF
(1768226137.668295) slcan0 671#2BFFFFFFFFFFFFFF
(1768226137.676909) slcan0 671#2CFFFFFFFFFFFFFF
(1768226137.686739) slcan0 671#2DFFFFFFFFFFFFFF
(1768226137.697207) slcan0 671#2EFFFFFFFFFF0000
(1768226137.724776) slcan0 271#0221080000000000
(1768226137.737007) slcan0 671#1066610820B900FF
(1768226137.737223) slcan0 271#3000000000000000
(1768226137.748698) slcan0 671#210B22FFFFFFFF80
(1768226137.757399) slcan0 671#22FFFFFFFFFFFFFF
(1768226137.767153) slcan0 671#23FFFF0016FCFFFF
(1768226137.777103) slcan0 671#24FFFFFF01FFFFFF
(1768226137.787196) slcan0 671#25FFFF54FF08FFFF
(1768226137.797122) slcan0 671#2600100007400244
(1768226137.807217) slcan0 671#2700060007000030
(1768226137.818688) slcan0 671#28FFE10D30370BFF
(1768226137.827315) slcan0 671#29FFFFFFFFFFFFFF
(1768226137.837396) slcan0 671#2AFFFFFFFFFFFFFF
(1768226137.849320) slcan0 671#2BFFFFFFFFFFFFFF
(1768226137.857384) slcan0 671#2CFFFFFFFFFFFFFF
(1768226137.867344) slcan0 671#2DFFFFFFFFFFFFFF
(1768226137.877052) slcan0 671#2EFFFFFFFFFF0000
(1768226137.903901) slcan0 271#0221080000000000
(1768226137.919207) slcan0 671#1066610820B900FF
(1768226137.919430) slcan0 271#3000000000000000
(1768226137.927245) slcan0 671#210B22FFFFFFFF80
(1768226137.937121) slcan0 671#22FFFFFFFFFFFFFF
(1768226137.948511) slcan0 671#23FFFF001700FFFF
(1768226137.957745) slcan0 671#24FFFFFF01FFFFFF
(1768226137.967603) slcan0 671#25FFFF54FF08FFFF
(1768226137.977064) slcan0 671#2600100007400244
(1768226137.987143) slcan0 671#2700060007000030
(1768226137.997157) slcan0 671#28FFE10D30370BFF
(1768226138.007280) slcan0 671#29FFFFFFFFFFFFFF
(1768226138.019157) slcan0 671#2AFFFFFFFFFFFFFF
(1768226138.027700) slcan0 671#2BFFFFFFFFFFFFFF
(1768226138.037094) slcan0 671#2CFFFFFFFFFFFFFF
(1768226138.048574) slcan0 671#2DFFFFFFFFFFFFFF
(1768226138.057538) slcan0 671#2EFFFFFFFFFF0000
(1768226138.075014) slcan0 271#0221080000000000
(1768226138.087190) slcan0 671#1066610820B900FF
(1768226138.087424) slcan0 271#3000000000000000
(1768226138.097214) slcan0 671#210B22FFFFFFFF80
(1768226138.107515) slcan0 671#22FFFFFFFFFFFFFF
(1768226138.118971) slcan0 671#23FFFF001706FFFF
(1768226138.127559) slcan0 671#24FFFFFF01FFFFFF
(1768226138.137261) slcan0 671#25FFFF54FF08FFFF
(1768226138.148735) slcan0 671#2600100007400244
(1768226138.157361) slcan0 671#2700060007000030
(1768226138.167335) slcan0 671#28FFE10D30370BFF
(1768226138.176937) slcan0 671#29FFFFFFFFFFFFFF
(1768226138.186952) slcan0 671#2AFFFFFFFFFFFFFF
(1768226138.197353) slcan0 671#2BFFFFFFFFFFFFFF
(1768226138.207534) slcan0 671#2CFFFFFFFFFFFFFF
(1768226138.218893) slcan0 671#2DFFFFFFFFFFFFFF
(1768226138.227318) slcan0 671#2EFFFFFFFFFF0000
(1768226138.274059) slcan0 271#0221080000000000
(1768226138.287120) slcan0 671#1066610820B800FF
(1768226138.287228) slcan0 271#3000000000000000
(1768226138.296992) slcan0 671#210B22FFFFFFFF80
(1768226138.307477) slcan0 671#22FFFFFFFFFFFFFF
(1768226138.319397) slcan0 671#23FFFF00170EFFFF
(1768226138.327489) slcan0 671#24FFFFFF01FFFFFF
(1768226138.337088) slcan0 671#25FFFF54FF08FFFF
(1768226138.348490) slcan0 671#2600100007400244
(1768226138.357443) slcan0 671#2700060007000030
(1768226138.367291) slcan0 671#28FFE10D30370BFF
(1768226138.377191) slcan0 671#29FFFFFFFFFFFFFF
(1768226138.387431) slcan0 671#2AFFFFFFFFFFFFFF
(1768226138.397321) slcan0 671#2BFFFFFFFFFFFFFF
(1768226138.407278) slcan0 671#2CFFFFFFFFFFFFFF
(1768226138.418686) slcan0 671#2DFFFFFFFFFFFFFF
(1768226138.427460) slcan0 671#2EFFFFFFFFFF0000
(1768226138.450184) slcan0 271#0221080000000000
(1768226138.457555) slcan0 671#1066610820B800FF
(1768226138.458006) slcan0 271#3000000000000000
(1768226138.467460) slcan0 671#210B22FFFFFFFF80
(1768226138.477217) slcan0 671#22FFFFFFFFFFFFFF
(1768226138.487048) slcan0 671#23FFFF001710FFFF
(1768226138.497245) slcan0 671#24FFFFFF01FFFFFF
(1768226138.507753) slcan0 671#25FFFF54FF08FFFF
(1768226138.519283) slcan0 671#2600100007400244
(1768226138.527281) slcan0 671#2700060007000030
(1768226138.537161) slcan0 671#28FFE10D30370BFF
(1768226138.548630) slcan0 671#29FFFFFFFFFFFFFF
(1768226138.557768) slcan0 671#2AFFFFFFFFFFFFFF
(1768226138.567569) slcan0 671#2BFFFFFFFFFFFFFF
(1768226138.577073) slcan0 671#2CFFFFFFFFFFFFFF
(1768226138.587281) slcan0 671#2DFFFFFFFFFFFFFF
(1768226138.596956) slcan0 671#2EFFFFFFFFFF0000
(1768226138.632027) slcan0 271#0221080000000000
(1768226138.637161) slcan0 671#1066610820B900FF
(1768226138.637351) slcan0 271#3000000000000000
(1768226138.648431) slcan0 671#210B22FFFFFFFF80
(1768226138.657357) slcan0 671#22FFFFFFFFFFFFFF
(1768226138.667461) slcan0 671#23FFFF00172CFFFF
(1768226138.677154) slcan0 671#24FFFFFF01FFFFFF
(1768226138.687088) slcan0 671#25FFFF54FF08FFFF
(1768226138.696930) slcan0 671#2600100007400244
(1768226138.707271) slcan0 671#2700060007000030
(1768226138.718908) slcan0 671#28FFE10D30370BFF
(1768226138.727229) slcan0 671#29FFFFFFFFFFFFFF
(1768226138.737832) slcan0 671#2AFFFFFFFFFFFFFF
(1768226138.749006) slcan0 671#2BFFFFFFFFFFFFFF
(1768226138.757423) slcan0 671#2CFFFFFFFFFFFFFF
(1768226138.767335) slcan0 671#2DFFFFFFFFFFFFFF
(1768226138.777181) slcan0 671#2EFFFFFFFFFF0000
(1768226138.821225) slcan0 271#0221080000000000
(1768226138.827411) slcan0 671#1066610820B900FF
(1768226138.827648) slcan0 271#3000000000000000
(1768226138.837191) slcan0 671#210B22FFFFFFFF80
(1768226138.848481) slcan0 671#22FFFFFFFFFFFFFF
(1768226138.858011) slcan0 671#23FFFF001726FFFF
(1768226138.867736) slcan0 671#24FFFFFF01FFFFFF
(1768226138.877070) slcan0 671#25FFFF54FF08FFFF
(1768226138.886901) slcan0 671#2600100007400244
(1768226138.896831) slcan0 671#2700060007000030
(1768226138.907254) slcan0 671#28FFE10D30370BFF
(1768226138.919231) slcan0 671#29FFFFFFFFFFFFFF
(1768226138.927468) slcan0 671#2AFFFFFFFFFFFFFF
(1768226138.937775) slcan0 671#2BFFFFFFFFFFFFFF
(1768226138.948384) slcan0 671#2CFFFFFFFFFFFFFF
(1768226138.957520) slcan0 671#2DFFFFFFFFFFFFFF
(1768226138.967462) slcan0 671#2EFFFFFFFFFF0000
(1768226138.998279) slcan0 271#0221080000000000
(1768226139.007345) slcan0 671#1066610820B800FF
(1768226139.007518) slcan0 271#3000000000000000
(1768226139.018998) slcan0 671#210B22FFFFFFFF80
(1768226139.027364) slcan0 671#22FFFFFFFFFFFFFF
(1768226139.038378) slcan0 671#23FFFF001730FFFF
(1768226139.048799) slcan0 671#24FFFFFF01FFFFFF
(1768226139.057968) slcan0 671#25FFFF54FF08FFFF
(1768226139.067490) slcan0 671#2600100007400244
(1768226139.077261) slcan0 671#2700060007000030
(1768226139.086981) slcan0 671#28FFE10D30370BFF
(1768226139.097517) slcan0 671#29FFFFFFFFFFFFFF
(1768226139.107667) slcan0 671#2AFFFFFFFFFFFFFF
(1768226139.121515) slcan0 671#2BFFFFFFFFFFFFFF
(1768226139.127480) slcan0 671#2CFFFFFFFFFFFFFF
(1768226139.138016) slcan0 671#2DFFFFFFFFFFFFFF
(1768226139.148395) slcan0 671#2EFFFFFFFFFF0000
(1768226139.166294) slcan0 271#0221080000000000
(1768226139.177650) slcan0 671#1066610820B800FF
(1768226139.177864) slcan0 271#3000000000000000
(1768226139.186970) slcan0 671#210B22FFFFFFFF80
(1768226139.197083) slcan0 671#22FFFFFFFFFFFFFF
(1768226139.207434) slcan0 671#23FFFF001716FFFF
(1768226139.219215) slcan0 671#24FFFFFF01FFFFFF
(1768226139.227559) slcan0 671#25FFFF54FF08FFFF
(1768226139.238840) slcan0 671#2600100007400244
(1768226139.248409) slcan0 671#2700060007000030
(1768226139.257508) slcan0 671#28FFE10D30370BFF
(1768226139.267584) slcan0 671#29FFFFFFFFFFFFFF
(1768226139.277755) slcan0 671#2AFFFFFFFFFFFFFF
(1768226139.287276) slcan0 671#2BFFFFFFFFFFFFFF
(1768226139.297606) slcan0 671#2CFFFFFFFFFFFFFF
(1768226139.307461) slcan0 671#2DFFFFFFFFFFFFFF
(1768226139.319397) slcan0 671#2EFFFFFFFFFF0000
(1768226139.346371) slcan0 271#0221080000000000
(1768226139.358118) slcan0 671#1066610820B900FF
(1768226139.358254) slcan0 271#3000000000000000
(1768226139.367289) slcan0 671#210B22FFFFFFFF80
(1768226139.377253) slcan0 671#22FFFFFFFFFFFFFF
(1768226139.387128) slcan0 671#23FFFF0016F2FFFF
(1768226139.397639) slcan0 671#24FFFFFF01FFFFFF
(1768226139.407449) slcan0 671#25FFFF54FF08FFFF
(1768226139.421374) slcan0 671#2600100007400244
(1768226139.427421) slcan0 671#2700060007000030
(1768226139.437946) slcan0 671#28FFE10D30370BFF
(1768226139.448429) slcan0 671#29FFFFFFFFFFFFFF
(1768226139.458185) slcan0 671#2AFFFFFFFFFFFFFF
(1768226139.467697) slcan0 671#2BFFFFFFFFFFFFFF
(1768226139.477787) slcan0 671#2CFFFFFFFFFFFFFF
(1768226139.486900) slcan0 671#2DFFFFFFFFFFFFFF
(1768226139.497110) slcan0 671#2EFFFFFFFFFF0000
(1768226139.556347) slcan0 271#0221080000000000
(1768226139.567490) slcan0 671#1066610820B900FF
(1768226139.567692) slcan0 271#3000000000000000
(1768226139.577496) slcan0 671#210B22FFFFFFFF80
(1768226139.587462) slcan0 671#22FFFFFFFFFFFFFF
(1768226139.597567) slcan0 671#23FFFF0016F8FFFF
(1768226139.607230) slcan0 671#24FFFFFF01FFFFFF
(1768226139.619181) slcan0 671#25FFFF54FF08FFFF
(1768226139.627284) slcan0 671#2600100007400244
(1768226139.638234) slcan0 671#2700060007000030
(1768226139.648868) slcan0 671#28FFE10D30370BFF
(1768226139.658002) slcan0 671#29FFFFFFFFFFFFFF
(1768226139.667257) slcan0 671#2AFFFFFFFFFFFFFF
(1768226139.677133) slcan0 671#2BFFFFFFFFFFFFFF
(1768226139.686797) slcan0 671#2CFFFFFFFFFFFFFF
(1768226139.697214) slcan0 671#2DFFFFFFFFFFFFFF
(1768226139.707474) slcan0 671#2EFFFFFFFFFF0000
(1768226139.726497) slcan0 271#041800FF00000000
(1768226139.737956) slcan0 671#100858029134E095
(1768226139.738169) slcan0 271#3000000000000000
(1768226139.748349) slcan0 671#210A600000000000
(1768226139.859375) slcan0 271#0221080000000000
(1768226139.867431) slcan0 671#1066610820B900FF
(1768226139.867564) slcan0 271#3000000000000000
(1768226139.877172) slcan0 671#210B22FFFFFFFF80
(1768226139.887445) slcan0 671#22FFFFFFFFFFFFFF
(1768226139.896878) slcan0 671#23FFFF001716FFFF
(1768226139.907322) slcan0 671#24FFFFFF01FFFFFF
(1768226139.919248) slcan0 671#25FFFF54FF08FFFF
(1768226139.927112) slcan0 671#2600100007400244
(1768226139.937360) slcan0 671#2700060007000030
(1768226139.948682) slcan0 671#28FFE10D30370BFF
(1768226139.957498) slcan0 671#29FFFFFFFFFFFFFF
(1768226139.967601) slcan0 671#2AFFFFFFFFFFFFFF
(1768226139.977083) slcan0 671#2BFFFFFFFFFFFFFF
(1768226139.987143) slcan0 671#2CFFFFFFFFFFFFFF
(1768226139.997201) slcan0 671#2DFFFFFFFFFFFFFF
(1768226140.007579) slcan0 671#2EFFFFFFFFFF0000
(1768226140.027428) slcan0 271#0221080000000000
(1768226140.037212) slcan0 671#1066610820B900FF
(1768226140.037400) slcan0 271#3000000000000000
(1768226140.048213) slcan0 671#210B22FFFFFFFF80
(1768226140.057609) slcan0 671#22FFFFFFFFFFFFFF
(1768226140.067549) slcan0 671#23FFFF00173CFFFF
(1768226140.077113) slcan0 671#24FFFFFF01FFFFFF
(1768226140.086931) slcan0 671#25FFFF54FF08FFFF
(1768226140.096917) slcan0 671#2600100007400244
(1768226140.107626) slcan0 671#2700060007000030
(1768226140.119135) slcan0 671#28FFE10D30370BFF
(1768226140.127542) slcan0 671#29FFFFFFFFFFFFFF
(1768226140.136982) slcan0 671#2AFFFFFFFFFFFFFF
(1768226140.148116) slcan0 671#2BFFFFFFFFFFFFFF
(1768226140.157633) slcan0 671#2CFFFFFFFFFFFFFF
(1768226140.167279) slcan0 671#2DFFFFFFFFFFFFFF
(1768226140.177224) slcan0 671#2EFFFFFFFFFF0000
(1768226140.236508) slcan0 271#0221080000000000
(1768226140.248425) slcan0 671#1066610820B900FF
(1768226140.248554) slcan0 271#3000000000000000
(1768226140.257490) slcan0 671#210B22FFFFFFFF80
(1768226140.267590) slcan0 671#22FFFFFFFFFFFFFF
(1768226140.277119) slcan0 671#23FFFF001714FFFF
(1768226140.287090) slcan0 671#24FFFFFF01FFFFFF
(1768226140.297339) slcan0 671#25FFFF54FF08FFFF
(1768226140.307579) slcan0 671#2600100007400244
(1768226140.319225) slcan0 671#2700060007000030
(1768226140.327110) slcan0 671#28FFE10D30370BFF
(1768226140.337051) slcan0 671#29FFFFFFFFFFFFFF
(1768226140.348402) slcan0 671#2AFFFFFFFFFFFFFF
(1768226140.357687) slcan0 671#2BFFFFFFFFFFFFFF
(1768226140.367504) slcan0 671#2CFFFFFFFFFFFFFF
(1768226140.376961) slcan0 671#2DFFFFFFFFFFFFFF
(1768226140.387116) slcan0 671#2EFFFFFFFFFF0000
(1768226140.425565) slcan0 271#0221080000000000
(1768226140.437025) slcan0 671#1066610820B900FF
(1768226140.437191) slcan0 271#3000000000000000
(1768226140.448125) slcan0 671#210B22FFFFFFFF80
(1768226140.457383) slcan0 671#22FFFFFFFFFFFFFF
(1768226140.467319) slcan0 671#23FFFF001704FFFF
(1768226140.477228) slcan0 671#24FFFFFF01FFFFFF
(1768226140.487296) slcan0 671#25FFFF54FF08FFFF
(1768226140.496928) slcan0 671#2600100007400244
(1768226140.507409) slcan0 671#2700060007000030
(1768226140.518933) slcan0 671#28FFE10D30370BFF
(1768226140.527365) slcan0 671#29FFFFFFFFFFFFFF
(1768226140.537586) slcan0 671#2AFFFFFFFFFFFFFF
(1768226140.548533) slcan0 671#2BFFFFFFFFFFFFFF
(1768226140.557464) slcan0 671#2CFFFFFFFFFFFFFF
(1768226140.567251) slcan0 671#2DFFFFFFFFFFFFFF
(1768226140.576874) slcan0 671#2EFFFFFFFFFF0000
(1768226140.591624) slcan0 271#0221080000000000
(1768226140.597073) slcan0 671#1066610820B900FF
(1768226140.597296) slcan0 271#3000000000000000
(1768226140.607609) slcan0 671#210B22FFFFFFFF80
(1768226140.619064) slcan0 671#22FFFFFFFFFFFFFF
(1768226140.627374) slcan0 671#23FFFF0016F4FFFF
(1768226140.637100) slcan0 671#24FFFFFF01FFFFFF
(1768226140.648334) slcan0 671#25FFFF54FF08FFFF
(1768226140.657714) slcan0 671#2600100007400244
(1768226140.667461) slcan0 671#2700060007000030
(1768226140.676990) slcan0 671#28FFE10D30370BFF
(1768226140.686714) slcan0 671#29FFFFFFFFFFFFFF
(1768226140.696791) slcan0 671#2AFFFFFFFFFFFFFF
(1768226140.707380) slcan0 671#2BFFFFFFFFFFFFFF
(1768226140.719259) slcan0 671#2CFFFFFFFFFFFFFF
(1768226140.727589) slcan0 671#2DFFFFFFFFFFFFFF
(1768226140.736806) slcan0 671#2EFFFFFFFFFF0000
(1768226140.770596) slcan0 271#0221080000000000
(1768226140.777057) slcan0 671#1066610820B800FF
(1768226140.777403) slcan0 271#3000000000000000
(1768226140.787452) slcan0 671#210B22FFFFFFFF80
(1768226140.796853) slcan0 671#22FFFFFFFFFFFFFF
(1768226140.807585) slcan0 671#23FFFF0016F8FFFF
(1768226140.818937) slcan0 671#24FFFFFF01FFFFFF
(1768226140.827467) slcan0 671#25FFFF54FF08FFFF
(1768226140.837412) slcan0 671#2600100007400244
(1768226140.848369) slcan0 671#2700060007000030
(1768226140.857600) slcan0 671#28FFE10D30370BFF
(1768226140.867515) slcan0 671#29FFFFFFFFFFFFFF
(1768226140.876998) slcan0 671#2AFFFFFFFFFFFFFF
(1768226140.886949) slcan0 671#2BFFFFFFFFFFFFFF
(1768226140.897095) slcan0 671#2CFFFFFFFFFFFFFF
(1768226140.907891) slcan0 671#2DFFFFFFFFFFFFFF
(1768226140.921444) slcan0 671#2EFFFFFFFFFF0000
(1768226140.966545) slcan0 271#0221080000000000
(1768226140.977143) slcan0 671#1066610820B800FF
(1768226140.977317) slcan0 271#3000000000000000
(1768226140.986562) slcan0 671#210B22FFFFFFFF80
(1768226140.996813) slcan0 671#22FFFFFFFFFFFFFF
(1768226141.007443) slcan0 671#23FFFF0016F2FFFF
(1768226141.019199) slcan0 671#24FFFFFF01FFFFFF
(1768226141.028114) slcan0 671#25FFFF54FF08FFFF
(1768226141.037287) slcan0 671#2600100007400244
(1768226141.048655) slcan0 671#2700060007000030
(1768226141.057597) slcan0 671#28FFE10D30370BFF
(1768226141.067670) slcan0 671#29FFFFFFFFFFFFFF
(1768226141.077257) slcan0 671#2AFFFFFFFFFFFFFF
(1768226141.087498) slcan0 671#2BFFFFFFFFFFFFFF
(1768226141.096841) slcan0 671#2CFFFFFFFFFFFFFF
(1768226141.107668) slcan0 671#2DFFFFFFFFFFFFFF
(1768226141.119028) slcan0 671#2EFFFFFFFFFF0000
(1768226141.142636) slcan0 271#0221080000000000
(1768226141.151019) slcan0 671#1066610820B900FF
(1768226141.151292) slcan0 271#3000000000000000
(1768226141.157478) slcan0 671#210B22FFFFFFFF80
(1768226141.167814) slcan0 671#22FFFFFFFFFFFFFF
(1768226141.176644) slcan0 671#23FFFF001708FFFF
(1768226141.186542) slcan0 671#24FFFFFF01FFFFFF
(1768226141.196687) slcan0 671#25FFFF54FF08FFFF
(1768226141.207828) slcan0 671#2600100007400244
(1768226141.219168) slcan0 671#2700060007000030
(1768226141.228145) slcan0 671#28FFE10D30370BFF
(1768226141.236729) slcan0 671#29FFFFFFFFFFFFFF
(1768226141.249049) slcan0 671#2AFFFFFFFFFFFFFF
(1768226141.257839) slcan0 671#2BFFFFFFFFFFFFFF
(1768226141.268022) slcan0 671#2CFFFFFFFFFFFFFF
(1768226141.276943) slcan0 671#2DFFFFFFFFFFFFFF
(1768226141.287741) slcan0 671#2EFFFFFFFFFF0000
(1768226141.322711) slcan0 271#0221080000000000
(1768226141.328025) slcan0 671#1066610820B800FF
(1768226141.328387) slcan0 271#3000000000000000
(1768226141.336653) slcan0 671#210B22FFFFFFFF80
(1768226141.351690) slcan0 671#22FFFFFFFFFFFFFF
(1768226141.357899) slcan0 671#23FFFF001720FFFF
(1768226141.367665) slcan0 671#24FFFFFF01FFFFFF
(1768226141.377359) slcan0 671#25FFFF54FF08FFFF
(1768226141.387494) slcan0 671#2600100007400244
(1768226141.396666) slcan0 671#2700060007000030
(1768226141.408269) slcan0 671#28FFE10D30370BFF
(1768226141.418929) slcan0 671#29FFFFFFFFFFFFFF
(1768226141.427814) slcan0 671#2AFFFFFFFFFFFFFF
(1768226141.437552) slcan0 671#2BFFFFFFFFFFFFFF
(1768226141.451073) slcan0 671#2CFFFFFFFFFFFFFF
(1768226141.457593) slcan0 671#2DFFFFFFFFFFFFFF
(1768226141.468325) slcan0 671#2EFFFFFFFFFF0000
(1768226141.525679) slcan0 271#0221080000000000
(1768226141.536787) slcan0 671#1066610820B800FF
(1768226141.537033) slcan0 271#3000000000000000
(1768226141.549191) slcan0 671#210B22FFFFFFFF80
(1768226141.557854) slcan0 671#22FFFFFFFFFFFFFF
(1768226141.567893) slcan0 671#23FFFF001736FFFF
(1768226141.576599) slcan0 671#24FFFFFF01FFFFFF
(1768226141.587618) slcan0 671#25FFFF54FF08FFFF
(1768226141.596636) slcan0 671#2600100007400244
(1768226141.607668) slcan0 671#2700060007000030
(1768226141.619200) slcan0 671#28FFE10D30370BFF
(1768226141.627982) slcan0 671#29FFFFFFFFFFFFFF
(1768226141.636615) slcan0 671#2AFFFFFFFFFFFFFF
(1768226141.651492) slcan0 671#2BFFFFFFFFFFFFFF
(1768226141.657310) slcan0 671#2CFFFFFFFFFFFFFF
(1768226141.667614) slcan0 671#2DFFFFFFFFFFFFFF
(1768226141.676987) slcan0 671#2EFFFFFFFFFF0000
(1768226141.718762) slcan0 271#0221080000000000
(1768226141.727855) slcan0 671#1066610820B900FF
(1768226141.727910) slcan0 271#3000000000000000
(1768226141.736907) slcan0 671#210B22FFFFFFFF80
(1768226141.749231) slcan0 671#22FFFFFFFFFFFFFF
(1768226141.757558) slcan0 671#23FFFF00171EFFFF
(1768226141.768045) slcan0 671#24FFFFFF01FFFFFF
(1768226141.776644) slcan0 671#25FFFF54FF08FFFF
(1768226141.787389) slcan0 671#2600100007400244
(1768226141.796882) slcan0 671#2700060007000030
(1768226141.807880) slcan0 671#28FFE10D30370BFF
(1768226141.819039) slcan0 671#29FFFFFFFFFFFFFF
(1768226141.828273) slcan0 671#2AFFFFFFFFFFFFFF
(1768226141.836836) slcan0 671#2BFFFFFFFFFFFFFF
(1768226141.849070) slcan0 671#2CFFFFFFFFFFFFFF
(1768226141.857933) slcan0 671#2DFFFFFFFFFFFFFF
(1768226141.867792) slcan0 671#2EFFFFFFFFFF0000
(1768226141.893918) slcan0 271#0221080000000000
(1768226141.907507) slcan0 671#1066610820B800FF
(1768226141.907826) slcan0 271#3000000000000000
(1768226141.921262) slcan0 671#210B22FFFFFFFF80
(1768226141.927462) slcan0 671#22FFFFFFFFFFFFFF
(1768226141.936899) slcan0 671#23FFFF00172CFFFF
(1768226141.951702) slcan0 671#24FFFFFF01FFFFFF
(1768226141.957322) slcan0 671#25FFFF54FF08FFFF
(1768226141.967082) slcan0 671#2600100007400244
(1768226141.977108) slcan0 671#2700060007000030
(1768226141.986716) slcan0 671#28FFE10D30370BFF
(1768226141.996773) slcan0 671#29FFFFFFFFFFFFFF
(1768226142.007262) slcan0 671#2AFFFFFFFFFFFFFF
(1768226142.018804) slcan0 671#2BFFFFFFFFFFFFFF
(1768226142.028010) slcan0 671#2CFFFFFFFFFFFFFF
(1768226142.037236) slcan0 671#2DFFFFFFFFFFFFFF
(1768226142.049357) slcan0 671#2EFFFFFFFFFF0000
(1768226142.092954) slcan0 271#0221080000000000
(1768226142.096867) slcan0 671#1066610820B800FF
(1768226142.097139) slcan0 271#3000000000000000
(1768226142.107711) slcan0 671#210B22FFFFFFFF80
(1768226142.119257) slcan0 671#22FFFFFFFFFFFFFF
(1768226142.127147) slcan0 671#23FFFF001712FFFF
(1768226142.136786) slcan0 671#24FFFFFF01FFFFFF
(1768226142.149057) slcan0 671#25FFFF54FF08FFFF
(1768226142.157436) slcan0 671#2600100007400244
(1768226142.167543) slcan0 671#2700060007000030
(1768226142.176697) slcan0 671#28FFE10D30370BFF
(1768226142.186704) slcan0 671#29FFFFFFFFFFFFFF
(1768226142.196611) slcan0 671#2AFFFFFFFFFFFFFF
(1768226142.207056) slcan0 671#2BFFFFFFFFFFFFFF
(1768226142.219130) slcan0 671#2CFFFFFFFFFFFFFF
(1768226142.227511) slcan0 671#2DFFFFFFFFFFFFFF
(1768226142.236671) slcan0 671#2EFFFFFFFFFF0000
(1768226142.333020) slcan0 271#0221080000000000
(1768226142.337029) slcan0 671#1066610820B900FF
(1768226142.337423) slcan0 271#3000000000000000
(1768226142.348357) slcan0 671#210B22FFFFFFFF80
(1768226142.357568) slcan0 671#22FFFFFFFFFFFFFF
(1768226142.367146) slcan0 671#23FFFF001726FFFF
(1768226142.376923) slcan0 671#24FFFFFF01FFFFFF
(1768226142.386562) slcan0 671#25FFFF54FF08FFFF
(1768226142.396860) slcan0 671#2600100007400244
(1768226142.407473) slcan0 671#2700060007000030
(1768226142.418995) slcan0 671#28FFE10D30370BFF
(1768226142.427192) slcan0 671#29FFFFFFFFFFFFFF
(1768226142.436994) slcan0 671#2AFFFFFFFFFFFFFF
(1768226142.447865) slcan0 671#2BFFFFFFFFFFFFFF
(1768226142.457628) slcan0 671#2CFFFFFFFFFFFFFF
(1768226142.467521) slcan0 671#2DFFFFFFFFFFFFFF
(1768226142.476709) slcan0 671#2EFFFFFFFFFF0000
(1768226142.510124) slcan0 271#041800FF00000000
(1768226142.519195) slcan0 671#100858029134E095
(1768226142.519511) slcan0 271#3000000000000000
(1768226142.527406) slcan0 671#210A600000000000
(1768226142.624063) slcan0 271#0221080000000000
(1768226142.636982) slcan0 671#1066610820B800FF
(1768226142.637210) slcan0 271#3000000000000000
(1768226142.648583) slcan0 671#210B22FFFFFFFF80
(1768226142.657244) slcan0 671#22FFFFFFFFFFFFFF
(1768226142.667047) slcan0 671#23FFFF00174EFFFF
(1768226142.676668) slcan0 671#24FFFFFF01FFFFFF
(1768226142.686398) slcan0 671#25FFFF54FF08FFFF
(1768226142.696696) slcan0 671#2600100007400244
(1768226142.707336) slcan0 671#2700060007000030
(1768226142.719169) slcan0 671#28FFE10D30370BFF
(1768226142.727336) slcan0 671#29FFFFFFFFFFFFFF
(1768226142.736650) slcan0 671#2AFFFFFFFFFFFFFF
(1768226142.747815) slcan0 671#2BFFFFFFFFFFFFFF
(1768226142.757554) slcan0 671#2CFFFFFFFFFFFFFF
(1768226142.767342) slcan0 671#2DFFFFFFFFFFFFFF
(1768226142.776689) slcan0 671#2EFFFFFFFFFF0000
(1768226142.809055) slcan0 271#0221080000000000
(1768226142.819033) slcan0 671#1066610820B900FF
(1768226142.819108) slcan0 271#3000000000000000
(1768226142.827467) slcan0 671#210B22FFFFFFFF80
(1768226142.836814) slcan0 671#22FFFFFFFFFFFFFF
(1768226142.847846) slcan0 671#23FFFF001752FFFF
(1768226142.857202) slcan0 671#24FFFFFF01FFFFFF
(1768226142.867437) slcan0 671#25FFFF54FF08FFFF
(1768226142.877044) slcan0 671#2600100007400244
(1768226142.886916) slcan0 671#2700060007000030
(1768226142.896712) slcan0 671#28FFE10D30370BFF
(1768226142.907399) slcan0 671#29FFFFFFFFFFFFFF
(1768226142.919370) slcan0 671#2AFFFFFFFFFFFFFF
(1768226142.927114) slcan0 671#2BFFFFFFFFFFFFFF
(1768226142.937005) slcan0 671#2CFFFFFFFFFFFFFF
(1768226142.948415) slcan0 671#2DFFFFFFFFFFFFFF
(1768226142.957606) slcan0 671#2EFFFFFFFFFF0000
(1768226142.985161) slcan0 271#0221080000000000
(1768226142.996943) slcan0 671#1066610820B800FF
(1768226142.997170) slcan0 271#3000000000000000
(1768226143.007404) slcan0 671#210B22FFFFFFFF80
(1768226143.019010) slcan0 671#22FFFFFFFFFFFFFF
(1768226143.027455) slcan0 671#23FFFF001754FFFF
(1768226143.036842) slcan0 671#24FFFFFF01FFFFFF
(1768226143.047795) slcan0 671#25FFFF54FF08FFFF
(1768226143.057509) slcan0 671#2600100007400244
(1768226143.067457) slcan0 671#2700060007000030
(1768226143.076882) slcan0 671#28FFE10D30370BFF
(1768226143.086602) slcan0 671#29FFFFFFFFFFFFFF
(1768226143.096588) slcan0 671#2AFFFFFFFFFFFFFF
(1768226143.107387) slcan0 671#2BFFFFFFFFFFFFFF
(1768226143.119269) slcan0 671#2CFFFFFFFFFFFFFF
(1768226143.127339) slcan0 671#2DFFFFFFFFFFFFFF
(1768226143.136559) slcan0 671#2EFFFFFFFFFF0000
(1768226143.153129) slcan0 271#0221080000000000
(1768226143.158122) slcan0 671#1066610820B800FF
(1768226143.158487) slcan0 271#3000000000000000
(1768226143.167082) slcan0 671#210B22FFFFFFFF80
(1768226143.176843) slcan0 671#22FFFFFFFFFFFFFF
(1768226143.186745) slcan0 671#23FFFF00173EFFFF
(1768226143.196624) slcan0 671#24FFFFFF01FFFFFF
(1768226143.207235) slcan0 671#25FFFF54FF08FFFF
(1768226143.218530) slcan0 671#2600100007400244
(1768226143.227089) slcan0 671#2700060007000030
(1768226143.236952) slcan0 671#28FFE10D30370BFF
(1768226143.247993) slcan0 671#29FFFFFFFFFFFFFF
(1768226143.258624) slcan0 671#2AFFFFFFFFFFFFFF
(1768226143.267274) slcan0 671#2BFFFFFFFFFFFFFF
(1768226143.277100) slcan0 671#2CFFFFFFFFFFFFFF
(1768226143.286632) slcan0 671#2DFFFFFFFFFFFFFF
(1768226143.296949) slcan0 671#2EFFFFFFFFFF0000
(1768226143.335285) slcan0 271#0221080000000000
(1768226143.347984) slcan0 671#1066610820B800FF
(1768226143.348252) slcan0 271#3000000000000000
(1768226143.358659) slcan0 671#210B22FFFFFFFF80
(1768226143.367327) slcan0 671#22FFFFFFFFFFFFFF
(1768226143.376932) slcan0 671#23FFFF001728FFFF
(1768226143.386469) slcan0 671#24FFFFFF01FFFFFF
(1768226143.397287) slcan0 671#25FFFF54FF08FFFF
(1768226143.407443) slcan0 671#2600100007400244
(1768226143.419050) slcan0 671#2700060007000030
(1768226143.427685) slcan0 671#28FFE10D30370BFF
(1768226143.436823) slcan0 671#29FFFFFFFFFFFFFF
(1768226143.447812) slcan0 671#2AFFFFFFFFFFFFFF
(1768226143.459439) slcan0 671#2BFFFFFFFFFFFFFF
(1768226143.467132) slcan0 671#2CFFFFFFFFFFFFFF
(1768226143.477172) slcan0 671#2DFFFFFFFFFFFFFF
(1768226143.487063) slcan0 671#2EFFFFFFFFFF0000
(1768226143.513274) slcan0 271#0221080000000000
(1768226143.527059) slcan0 671#1066610820B900FF
(1768226143.527330) slcan0 271#3000000000000000
(1768226143.537476) slcan0 671#210B22FFFFFFFF80
(1768226143.548516) slcan0 671#22FFFFFFFFFFFFFF
(1768226143.558645) slcan0 671#23FFFF001722FFFF
(1768226143.567190) slcan0 671#24FFFFFF01FFFFFF
(1768226143.577270) slcan0 671#25FFFF54FF08FFFF
(1768226143.586454) slcan0 671#2600100007400244
(1768226143.596931) slcan0 671#2700060007000030
(1768226143.607551) slcan0 671#28FFE10D30370BFF
(1768226143.621489) slcan0 671#29FFFFFFFFFFFFFF
(1768226143.627190) slcan0 671#2AFFFFFFFFFFFFFF
(1768226143.637477) slcan0 671#2BFFFFFFFFFFFFFF
(1768226143.647842) slcan0 671#2CFFFFFFFFFFFFFF
(1768226143.658695) slcan0 671#2DFFFFFFFFFFFFFF
(1768226143.667381) slcan0 671#2EFFFFFFFFFF0000
(1768226143.695527) slcan0 271#0221080000000000
(1768226143.707352) slcan0 671#1066610820B900FF
(1768226143.707814) slcan0 271#3000000000000000
(1768226143.719342) slcan0 671#210B22FFFFFFFF80
(1768226143.727515) slcan0 671#22FFFFFFFFFFFFFF
(1768226143.736984) slcan0 671#23FFFF00172CFFFF
(1768226143.747914) slcan0 671#24FFFFFF01FFFFFF
(1768226143.759107) slcan0 671#25FFFF54FF08FFFF
(1768226143.767117) slcan0 671#2600100007400244
(1768226143.777071) slcan0 671#2700060007000030
(1768226143.786784) slcan0 671#28FFE10D30370BFF
(1768226143.796520) slcan0 671#29FFFFFFFFFFFFFF
(1768226143.807630) slcan0 671#2AFFFFFFFFFFFFFF
(1768226143.819255) slcan0 671#2BFFFFFFFFFFFFFF
(1768226143.827194) slcan0 671#2CFFFFFFFFFFFFFF
(1768226143.837144) slcan0 671#2DFFFFFFFFFFFFFF
(1768226143.847985) slcan0 671#2EFFFFFFFFFF0000
(1768226143.916431) slcan0 271#0221080000000000
(1768226143.927085) slcan0 671#1066610820B900FF
(1768226143.927250) slcan0 271#3000000000000000
(1768226143.937389) slcan0 671#210B22FFFFFFFF80
(1768226143.947893) slcan0 671#22FFFFFFFFFFFFFF
(1768226143.958869) slcan0 671#23FFFF00173EFFFF
(1768226143.967508) slcan0 671#24FFFFFF01FFFFFF
(1768226143.976511) slcan0 671#25FFFF54FF08FFFF
(1768226143.986794) slcan0 671#2600100007400244
(1768226143.996563) slcan0 671#2700060007000030
(1768226144.007411) slcan0 671#28FFE10D30370BFF
(1768226144.019049) slcan0 671#29FFFFFFFFFFFFFF
(1768226144.027394) slcan0 671#2AFFFFFFFFFFFFFF
(1768226144.036838) slcan0 671#2BFFFFFFFFFFFFFF
(1768226144.047981) slcan0 671#2CFFFFFFFFFFFFFF
(1768226144.059008) slcan0 671#2DFFFFFFFFFFFFFF
(1768226144.067129) slcan0 671#2EFFFFFFFFFF0000
(1768226144.094610) slcan0 271#0221080000000000
(1768226144.107516) slcan0 671#1066610820B900FF
(1768226144.107677) slcan0 271#3000000000000000
(1768226144.121455) slcan0 671#210B22FFFFFFFF80
(1768226144.127286) slcan0 671#22FFFFFFFFFFFFFF
(1768226144.136722) slcan0 671#23FFFF001756FFFF
(1768226144.148097) slcan0 671#24FFFFFF01FFFFFF
(1768226144.157277) slcan0 671#25FFFF54FF08FFFF
(1768226144.167033) slcan0 671#2600100007400244
(1768226144.176583) slcan0 671#2700060007000030
(1768226144.186488) slcan0 671#28FFE10D30370BFF
(1768226144.196684) slcan0 671#29FFFFFFFFFFFFFF
(1768226144.207553) slcan0 671#2AFFFFFFFFFFFFFF
(1768226144.218859) slcan0 671#2BFFFFFFFFFFFFFF
(1768226144.227208) slcan0 671#2CFFFFFFFFFFFFFF
(1768226144.236779) slcan0 671#2DFFFFFFFFFFFFFF
(1768226144.247846) slcan0 671#2EFFFFFFFFFF0000
(1768226144.332715) slcan0 271#0221080000000000
(1768226144.336695) slcan0 671#1066610820B800FF
(1768226144.336870) slcan0 271#3000000000000000
(1768226144.348009) slcan0 671#210B22FFFFFFFF80
(1768226144.357228) slcan0 671#22FFFFFFFFFFFFFF
(1768226144.367156) slcan0 671#23FFFF001754FFFF
(1768226144.376843) slcan0 671#24FFFFFF01FFFFFF
(1768226144.386684) slcan0 671#25FFFF54FF08FFFF
(1768226144.396709) slcan0 671#2600100007400244
(1768226144.407470) slcan0 671#2700060007000030
(1768226144.418552) slcan0 671#28FFE10D30370BFF
(1768226144.427331) slcan0 671#29FFFFFFFFFFFFFF
(1768226144.436851) slcan0 671#2AFFFFFFFFFFFFFF
(1768226144.448158) slcan0 671#2BFFFFFFFFFFFFFF
(1768226144.457222) slcan0 671#2CFFFFFFFFFFFFFF
(1768226144.467245) slcan0 671#2DFFFFFFFFFFFFFF
(1768226144.476772) slcan0 671#2EFFFFFFFFFF0000
(1768226144.571728) slcan0 271#0221080000000000
(1768226144.576540) slcan0 671#1066610820B700FF
(1768226144.576748) slcan0 271#3000000000000000
(1768226144.586391) slcan0 671#210B22FFFFFFFF80
(1768226144.596489) slcan0 671#22FFFFFFFFFFFFFF
(1768226144.607253) slcan0 671#23FFFF00174CFFFF
(1768226144.618672) slcan0 671#24FFFFFF01FFFFFF
(1768226144.627354) slcan0 671#25FFFF54FF08FFFF
(1768226144.636788) slcan0 671#2600100007400244
(1768226144.647667) slcan0 671#2700060007000030
(1768226144.657048) slcan0 671#28FFE10D30370BFF
(1768226144.667195) slcan0 671#29FFFFFFFFFFFFFF
(1768226144.676823) slcan0 671#2AFFFFFFFFFFFFFF
(1768226144.686715) slcan0 671#2BFFFFFFFFFFFFFF
(1768226144.696555) slcan0 671#2CFFFFFFFFFFFFFF
(1768226144.707331) slcan0 671#2DFFFFFFFFFFFFFF
(1768226144.718742) slcan0 671#2EFFFFFFFFFF0000
(1768226144.811838) slcan0 271#0221080000000000
(1768226144.818726) slcan0 671#1066610820B900FF
(1768226144.818907) slcan0 271#3000000000000000
(1768226144.827358) slcan0 671#210B22FFFFFFFF80
(1768226144.836614) slcan0 671#22FFFFFFFFFFFFFF
(1768226144.847774) slcan0 671#23FFFF00173AFFFF
(1768226144.857508) slcan0 671#24FFFFFF01FFFFFF
(1768226144.867374) slcan0 671#25FFFF54FF08FFFF
(1768226144.876611) slcan0 671#2600100007400244
(1768226144.886574) slcan0 671#2700060007000030
(1768226144.896542) slcan0 671#28FFE10D30370BFF
(1768226144.907643) slcan0 671#29FFFFFFFFFFFFFF
(1768226144.919041) slcan0 671#2AFFFFFFFFFFFFFF
(1768226144.927399) slcan0 671#2BFFFFFFFFFFFFFF
(1768226144.936769) slcan0 671#2CFFFFFFFFFFFFFF
(1768226144.947886) slcan0 671#2DFFFFFFFFFFFFFF
(1768226144.957181) slcan0 671#2EFFFFFFFFFF0000
(1768226144.991881) slcan0 271#0221080000000000
(1768226144.996450) slcan0 671#1066610820B900FF
(1768226144.996646) slcan0 271#3000000000000000
(1768226145.007393) slcan0 671#210B22FFFFFFFF80
(1768226145.018663) slcan0 671#22FFFFFFFFFFFFFF
(1768226145.027240) slcan0 671#23FFFF00173CFFFF
(1768226145.037006) slcan0 671#24FFFFFF01FFFFFF
(1768226145.048164) slcan0 671#25FFFF54FF08FFFF
(1768226145.057270) slcan0 671#2600100007400244
(1768226145.067334) slcan0 671#2700060007000030
(1768226145.076658) slcan0 671#28FFE10D30370BFF
(1768226145.086488) slcan0 671#29FFFFFFFFFFFFFF
(1768226145.096791) slcan0 671#2AFFFFFFFFFFFFFF
(1768226145.107685) slcan0 671#2BFFFFFFFFFFFFFF
(1768226145.118876) slcan0 671#2CFFFFFFFFFFFFFF
(1768226145.127042) slcan0 671#2DFFFFFFFFFFFFFF
(1768226145.136573) slcan0 671#2EFFFFFFFFFF0000
(1768226145.184005) slcan0 271#0221080000000000
(1768226145.196440) slcan0 671#1066610820B800FF
(1768226145.196717) slcan0 271#3000000000000000
(1768226145.207332) slcan0 671#210B22FFFFFFFF80
(1768226145.218628) slcan0 671#22FFFFFFFFFFFFFF
(1768226145.227366) slcan0 671#23FFFF001714FFFF
(1768226145.236768) slcan0 671#24FFFFFF01FFFFFF
(1768226145.247833) slcan0 671#25FFFF54FF08FFFF
(1768226145.257297) slcan0 671#2600100007400244
(1768226145.267557) slcan0 671#2700060007000030
(1768226145.276961) slcan0 671#28FFE10D30370BFF
(1768226145.287182) slcan0 671#29FFFFFFFFFFFFFF
(1768226145.296527) slcan0 671#2AFFFFFFFFFFFFFF
(1768226145.307278) slcan0 671#2BFFFFFFFFFFFFFF
(1768226145.318878) slcan0 671#2CFFFFFFFFFFFFFF
(1768226145.326896) slcan0 671#2DFFFFFFFFFFFFFF
(1768226145.336864) slcan0 671#2EFFFFFFFFFF0000
(1768226145.357154) slcan0 271#041800FF00000000
(1768226145.368207) slcan0 671#100858029134E095
(1768226145.368340) slcan0 271#3000000000000000
(1768226145.376540) slcan0 671#210A600000000000
(1768226145.467165) slcan0 271#0221080000000000
(1768226145.476800) slcan0 671#1066610820B800FF
(1768226145.476952) slcan0 271#3000000000000000
(1768226145.486762) slcan0 671#210B22FFFFFFFF80
(1768226145.496565) slcan0 671#22FFFFFFFFFFFFFF
(1768226145.508358) slcan0 671#23FFFF001746FFFF
(1768226145.518897) slcan0 671#24FFFFFF01FFFFFF
(1768226145.527670) slcan0 671#25FFFF54FF08FFFF
(1768226145.536711) slcan0 671#2600100007400244
(1768226145.548088) slcan0 671#2700060007000030
(1768226145.557354) slcan0 671#28FFE10D30370BFF
(1768226145.568390) slcan0 671#29FFFFFFFFFFFFFF
(1768226145.576656) slcan0 671#2AFFFFFFFFFFFFFF
(1768226145.587041) slcan0 671#2BFFFFFFFFFFFFFF
(1768226145.596449) slcan0 671#2CFFFFFFFFFFFFFF
(1768226145.607608) slcan0 671#2DFFFFFFFFFFFFFF
(1768226145.618441) slcan0 671#2EFFFFFFFFFF0000
(1768226145.659130) slcan0 271#0221080000000000
(1768226145.668155) slcan0 671#1066610820B800FF
(1768226145.668532) slcan0 271#3000000000000000
(1768226145.676573) slcan0 671#210B22FFFFFFFF80
(1768226145.687199) slcan0 671#22FFFFFFFFFFFFFF
(1768226145.696463) slcan0 671#23FFFF001742FFFF
(1768226145.707761) slcan0 671#24FFFFFF01FFFFFF
(1768226145.719079) slcan0 671#25FFFF54FF08FFFF
(1768226145.727031) slcan0 671#2600100007400244
(1768226145.736587) slcan0 671#2700060007000030
(1768226145.748586) slcan0 671#28FFE10D30370BFF
(1768226145.757087) slcan0 671#29FFFFFFFFFFFFFF
(1768226145.768350) slcan0 671#2AFFFFFFFFFFFFFF
(1768226145.776644) slcan0 671#2BFFFFFFFFFFFFFF
(1768226145.786835) slcan0 671#2CFFFFFFFFFFFFFF
(1768226145.796621) slcan0 671#2DFFFFFFFFFFFFFF
(1768226145.808023) slcan0 671#2EFFFFFFFFFF0000
(1768226145.885347) slcan0 271#0221080000000000
(1768226145.896496) slcan0 671#1066610820B800FF
(1768226145.896662) slcan0 271#3000000000000000
(1768226145.907639) slcan0 671#210B22FFFFFFFF80
(1768226145.918623) slcan0 671#22FFFFFFFFFFFFFF
(1768226145.927823) slcan0 671#23FFFF0016FCFFFF
(1768226145.936769) slcan0 671#24FFFFFF01FFFFFF
(1768226145.948323) slcan0 671#25FFFF54FF08FFFF
(1768226145.957069) slcan0 671#2600100007400244
(1768226145.966881) slcan0 671#2700060007000030
(1768226145.976585) slcan0 671#28FFE10D30370BFF
