(1768225960.065452) slcan0 7DF#0201010000000000
(1768225960.068869) slcan0 7E8#0641010007610000
(1768225960.164427) slcan0 7DF#0201030000000000
(1768225960.168985) slcan0 7E8#0441030200000000
(1768225960.290661) slcan0 7DF#0201040000000000
(1768225960.298952) slcan0 7E8#0341043800000000
(1768225960.372465) slcan0 7DF#0201050000000000
(1768225960.378973) slcan0 7E8#0341053B00000000
(1768225960.487436) slcan0 7DF#0201060000000000
(1768225960.489097) slcan0 7E8#0341067E00000000
(1768225960.574400) slcan0 7DF#0201070000000000
(1768225960.578936) slcan0 7E8#0341077800000000
(1768225960.669274) slcan0 7DF#02010B0000000000
(1768225960.678722) slcan0 7E8#03410B2B00000000
(1768225960.752454) slcan0 7DF#02010C0000000000
(1768225960.759062) slcan0 7E8#04410C16F0000000
(1768225960.836377) slcan0 7DF#02010D0000000000
(1768225960.838843) slcan0 7E8#03410D0000000000
(1768225960.912421) slcan0 7DF#02010E0000000000
(1768225960.918875) slcan0 7E8#03410E8400000000
(1768225961.031460) slcan0 7DF#02010F0000000000
(1768225961.038727) slcan0 7E8#03410F2000000000
(1768225961.155360) slcan0 7DF#0201100000000000
(1768225961.158890) slcan0 7E8#04411001F9000000
(1768225961.235418) slcan0 7DF#0201110000000000
(1768225961.238957) slcan0 7E8#0341112B00000000
(1768225961.336410) slcan0 7DF#0201130000000000
(1768225961.339060) slcan0 7E8#0341130300000000
(1768225961.416310) slcan0 7DF#0201140000000000
(1768225961.419034) slcan0 7E8#0441143981000000
(1768225961.586430) slcan0 7DF#0201150000000000
(1768225961.589700) slcan0 7E8#044115FFFF000000
(1768225961.674431) slcan0 7DF#02011F0000000000
(1768225961.678839) slcan0 7E8#04411F0080000000
(1768225961.766454) slcan0 7DF#0201210000000000
(1768225961.768749) slcan0 7E8#0441210000000000
(1768225961.847399) slcan0 7DF#0201230000000000
(1768225961.858880) slcan0 7E8#0441230126000000
(1768225961.984145) slcan0 7DF#02012E0000000000
(1768225961.988715) slcan0 7E8#03412E0000000000
(1768225962.086172) slcan0 7DF#0201300000000000
(1768225962.088599) slcan0 7E8#034130FF00000000
(1768225962.191420) slcan0 7DF#0201310000000000
(1768225962.198892) slcan0 7E8#044131867E000000
(1768225962.299386) slcan0 7DF#0201330000000000
(1768225962.308702) slcan0 7E8#0341336100000000
(1768225962.400324) slcan0 7DF#0201420000000000
(1768225962.408750) slcan0 7E8#04414237AD000000
(1768225962.507244) slcan0 7DF#0201430000000000
(1768225962.508736) slcan0 7E8#044143005A000000
(1768225962.635391) slcan0 7DF#0201450000000000
(1768225962.638974) slcan0 7E8#0341451100000000
(1768225962.754375) slcan0 7DF#0201470000000000
(1768225962.758767) slcan0 7E8#0341472A00000000
(1768225962.946242) slcan0 7DF#0201490000000000
(1768225962.948782) slcan0 7E8#0341492600000000
(1768225963.055218) slcan0 7DF#02014A0000000000
(1768225963.058773) slcan0 7E8#03414A1300000000
(1768225963.168154) slcan0 7DF#02014C0000000000
(1768225963.178724) slcan0 7E8#03414C1600000000
(1768225963.307312) slcan0 7DF#0701010304050607
(1768225963.308693) slcan0 7E8#1011410100076100
(1768225963.309014) slcan0 7E0#3000000000000000
(1768225963.313637) slcan0 7E8#210302000439053C
(1768225963.315617) slcan0 7E8#22067F0778000000
(1768225963.479449) slcan0 7DF#07010B0C0D0E0F10
(1768225963.489026) slcan0 7E8#100F410B2C0C1718
(1768225963.489347) slcan0 7E0#3000000000000000
(1768225963.493430) slcan0 7E8#210D000E800F2010
(1768225963.495689) slcan0 7E8#22020A0000000000
(1768225963.603412) slcan0 7DF#0701111314151F21
(1768225963.608939) slcan0 7E8#101141112B130314
(1768225963.609287) slcan0 7E0#3000000000000000
(1768225963.613618) slcan0 7E8#21278215FFFF1F00
(1768225963.614657) slcan0 7E8#2282210000000000
(1768225963.720340) slcan0 7DF#0701232E30313342
(1768225963.729028) slcan0 7E8#1010412301242E00
(1768225963.729215) slcan0 7E0#3000000000000000
(1768225963.733812) slcan0 7E8#2130FF31867E3361
(1768225963.734708) slcan0 7E8#224237C500000000
(1768225963.847248) slcan0 7DF#0701434547494A4C
(1768225963.849011) slcan0 7E8#100E4143005A4511
(1768225963.849161) slcan0 7E0#3000000000000000
(1768225963.854554) slcan0 7E8#21472A49254A134C
(1768225963.856705) slcan0 7E8#2216000000000000
(1768225964.007425) slcan0 7DF#0701010304050607
(1768225964.008815) slcan0 7E8#1011410100076100
(1768225964.008891) slcan0 7E0#3000000000000000
(1768225964.013707) slcan0 7E8#210302000439053C
(1768225964.014616) slcan0 7E8#22067F0778000000
(1768225964.086248) slcan0 7DF#07010B0C0D0E0F10
(1768225964.088686) slcan0 7E8#100F410B2C0C1718
(1768225964.088980) slcan0 7E0#3000000000000000
(1768225964.093214) slcan0 7E8#210D000E810F2010
(1768225964.094465) slcan0 7E8#2201F30000000000
(1768225964.144072) slcan0 7DF#0701111314151F21
(1768225964.148865) slcan0 7E8#101141112B130314
(1768225964.149131) slcan0 7E0#3000000000000000
(1768225964.154558) slcan0 7E8#21977F15FFFF1F00
(1768225964.156659) slcan0 7E8#2283210000000000
(1768225964.252261) slcan0 7DF#0701232E30313342
(1768225964.258750) slcan0 7E8#1010412301292E00
(1768225964.259043) slcan0 7E0#3000000000000000
(1768225964.263667) slcan0 7E8#2130FF31867E3361
(1768225964.265906) slcan0 7E8#224237DC00000000
(1768225964.331052) slcan0 7DF#0701434547494A4C
(1768225964.338628) slcan0 7E8#100E414300594511
(1768225964.338987) slcan0 7E0#3000000000000000
(1768225964.343871) slcan0 7E8#21472A49264A134C
(1768225964.345562) slcan0 7E8#2216000000000000
(1768225964.383908) slcan0 7DF#0103000000000000
(1768225964.388718) slcan0 7E8#0243000000000000
(1768225964.497897) slcan0 7DF#0107000000000000
(1768225964.508616) slcan0 7E8#0247000000000000
(1768225964.609959) slcan0 7DF#010A000000000000
(1768225964.844770) slcan0 7DF#010A000000000000
(1768225965.171735) slcan0 7DF#010A000000000000
(1768225965.602589) slcan0 7DF#010A000000000000
(1768225966.042621) slcan0 7DF#010A000000000000
(1768225966.348617) slcan0 7DF#010A000000000000
(1768225966.717530) slcan0 7DF#010A000000000000
(1768225967.142487) slcan0 7DF#010A000000000000
(1768225967.555400) slcan0 7DF#010A000000000000
(1768225967.955198) slcan0 7DF#010A000000000000
(1768225968.391245) slcan0 7DF#010A000000000000
(1768225968.818007) slcan0 7DF#010A000000000000
(1768225969.229922) slcan0 7DF#010A000000000000
(1768225969.647498) slcan0 7DF#010A000000000000
(1768225970.097474) slcan0 7DF#010A000000000000
(1768225970.595484) slcan0 7DF#010A000000000000
(1768225970.944887) slcan0 7DF#0701010304050607
(1768225970.948838) slcan0 7E8#1011410100076100
(1768225970.949044) slcan0 7E0#3000000000000000
(1768225970.956439) slcan0 7E8#210302000437053D
(1768225970.959023) slcan0 7E8#2206810778000000
(1768225971.042838) slcan0 7DF#07010B0C0D0E0F10
(1768225971.048676) slcan0 7E8#100F410B2B0C171A
(1768225971.048937) slcan0 7E0#3000000000000000
(1768225971.056625) slcan0 7E8#210D000E810F2010
(1768225971.058931) slcan0 7E8#2201F30000000000
(1768225971.144702) slcan0 7DF#0701111314151F21
(1768225971.148746) slcan0 7E8#101141112B130314
(1768225971.149001) slcan0 7E0#3000000000000000
(1768225971.154246) slcan0 7E8#212F8115FFFF1F00
(1768225971.156631) slcan0 7E8#228A210000000000
(1768225971.244887) slcan0 7DF#0701232E30313342
(1768225971.248749) slcan0 7E8#10104123011D2E00
(1768225971.248926) slcan0 7E0#3000000000000000
(1768225971.256390) slcan0 7E8#2130FF31867E3361
(1768225971.259103) slcan0 7E8#224237AD00000000
(1768225971.331776) slcan0 7DF#0701434547494A4C
(1768225971.338510) slcan0 7E8#100E414300554511
(1768225971.338622) slcan0 7E0#3000000000000000
(1768225971.342784) slcan0 7E8#21472A49254A134C
(1768225971.345482) slcan0 7E8#2216000000000000
(1768225971.445580) slcan0 7DF#0701010304050607
(1768225971.448840) slcan0 7E8#1011410100076100
(1768225971.449043) slcan0 7E0#3000000000000000
(1768225971.454170) slcan0 7E8#210302000437053D
(1768225971.456575) slcan0 7E8#2206840778000000
(1768225971.543669) slcan0 7DF#07010B0C0D0E0F10
(1768225971.549185) slcan0 7E8#100F410B2B0C1702
(1768225971.549477) slcan0 7E0#3000000000000000
(1768225971.556771) slcan0 7E8#210D000E810F2010
(1768225971.558893) slcan0 7E8#2201E80000000000
(1768225971.654683) slcan0 7DF#0701111314151F21
(1768225971.659055) slcan0 7E8#101141112B130314
(1768225971.659101) slcan0 7E0#3000000000000000
(1768225971.663041) slcan0 7E8#212A8515FFFF1F00
(1768225971.664181) slcan0 7E8#228A210000000000
(1768225971.765642) slcan0 7DF#0701232E30313342
(1768225971.768495) slcan0 7E8#1010412301182E00
(1768225971.768779) slcan0 7E0#3000000000000000
(1768225971.773337) slcan0 7E8#2130FF31867E3361
(1768225971.774353) slcan0 7E8#2242380B00000000
(1768225971.871499) slcan0 7DF#0701434547494A4C
(1768225971.878340) slcan0 7E8#100E414300554511
(1768225971.878562) slcan0 7E0#3000000000000000
(1768225971.882992) slcan0 7E8#21472A49254A134C
(1768225971.884344) slcan0 7E8#2216000000000000
(1768225971.978524) slcan0 7DF#0701010304050607
(1768225971.988402) slcan0 7E8#1011410100076100
(1768225971.988740) slcan0 7E0#3000000000000000
(1768225971.992955) slcan0 7E8#210302000436053D
(1768225971.994399) slcan0 7E8#2206860778000000
(1768225972.080402) slcan0 7DF#07010B0C0D0E0F10
(1768225972.088461) slcan0 7E8#100F410B2B0C173E
(1768225972.088647) slcan0 7E0#3000000000000000
(1768225972.092952) slcan0 7E8#210D000E800F2010
(1768225972.094166) slcan0 7E8#2201F30000000000
(1768225972.184365) slcan0 7DF#0701111314151F21
(1768225972.188452) slcan0 7E8#101141112B130314
(1768225972.188706) slcan0 7E0#3000000000000000
(1768225972.192943) slcan0 7E8#21478315FFFF1F00
(1768225972.194317) slcan0 7E8#228B210000000000
(1768225972.285335) slcan0 7DF#0701232E30313342
(1768225972.288552) slcan0 7E8#1010412301292E00
(1768225972.288695) slcan0 7E0#3000000000000000
(1768225972.292802) slcan0 7E8#2130FF31867E3361
(1768225972.294328) slcan0 7E8#224237C500000000
(1768225972.369408) slcan0 7DF#0701434547494A4C
(1768225972.378380) slcan0 7E8#100E414300584511
(1768225972.378593) slcan0 7E0#3000000000000000
(1768225972.384324) slcan0 7E8#21472A49254A134C
(1768225972.386402) slcan0 7E8#2216000000000000
(1768225972.473392) slcan0 7DF#0701010304050607
(1768225972.478597) slcan0 7E8#1011410100076100
(1768225972.478613) slcan0 7E0#3000000000000000
(1768225972.483332) slcan0 7E8#210302000438053D
(1768225972.484508) slcan0 7E8#2206820778000000
(1768225972.525355) slcan0 7DF#07010B0C0D0E0F10
(1768225972.528643) slcan0 7E8#100F410B2B0C1730
(1768225972.529001) slcan0 7E0#3000000000000000
(1768225972.533317) slcan0 7E8#210D000E7E0F2010
(1768225972.534394) slcan0 7E8#2201F90000000000
(1768225972.577238) slcan0 7DF#0701111314151F21
(1768225972.578507) slcan0 7E8#101141112B130314
(1768225972.578698) slcan0 7E0#3000000000000000
(1768225972.583137) slcan0 7E8#21A08215FFFF1F00
(1768225972.584413) slcan0 7E8#228B210000000000
(1768225972.622141) slcan0 7DF#0701232E30313342
(1768225972.628682) slcan0 7E8#1010412301192E00
(1768225972.628932) slcan0 7E0#3000000000000000
(1768225972.633481) slcan0 7E8#2130FF31867E3361
(1768225972.634328) slcan0 7E8#224237AD00000000
(1768225972.667075) slcan0 7DF#0701434547494A4C
(1768225972.668351) slcan0 7E8#100E414300584511
(1768225972.668629) slcan0 7E0#3000000000000000
(1768225972.673242) slcan0 7E8#21472A49254A134C
(1768225972.674217) slcan0 7E8#2216000000000000
(1768225972.733159) slcan0 7DF#0701010304050607
(1768225972.738388) slcan0 7E8#1011410100076100
(1768225972.738529) slcan0 7E0#3000000000000000
(1768225972.743605) slcan0 7E8#210302000438053D
(1768225972.744341) slcan0 7E8#2206820778000000
(1768225972.791025) slcan0 7DF#07010B0C0D0E0F10
(1768225972.798414) slcan0 7E8#100F410B2B0C172C
(1768225972.798529) slcan0 7E0#3000000000000000
(1768225972.803552) slcan0 7E8#210D000E800F2010
(1768225972.804462) slcan0 7E8#2201F10000000000
(1768225972.828287) slcan0 7DF#0701111314151F21
(1768225972.838487) slcan0 7E8#101141112B130314
(1768225972.838615) slcan0 7E0#3000000000000000
(1768225972.843376) slcan0 7E8#21908115FFFF1F00
(1768225972.844288) slcan0 7E8#228C210000000000
(1768225972.868183) slcan0 7DF#0701232E30313342
(1768225972.878469) slcan0 7E8#1010412301232E00
(1768225972.878688) slcan0 7E0#3000000000000000
(1768225972.883329) slcan0 7E8#2130FF31867E3361
(1768225972.884298) slcan0 7E8#224237DC00000000
(1768225972.911052) slcan0 7DF#0701434547494A4C
(1768225972.918513) slcan0 7E8#100E414300594511
(1768225972.918747) slcan0 7E0#3000000000000000
(1768225972.926390) slcan0 7E8#21472A49254A134C
(1768225972.928833) slcan0 7E8#2216000000000000
(1768225972.993217) slcan0 7DF#0701010304050607
(1768225972.998568) slcan0 7E8#1011410100076100
(1768225972.998728) slcan0 7E0#3000000000000000
(1768225973.003214) slcan0 7E8#210302000439053D
(1768225973.004282) slcan0 7E8#2206810778000000
(1768225973.055942) slcan0 7DF#07010B0C0D0E0F10
(1768225973.058558) slcan0 7E8#100F410B2B0C1706
(1768225973.058888) slcan0 7E0#3000000000000000
(1768225973.065473) slcan0 7E8#210D000E7E0F2010
(1768225973.066228) slcan0 7E8#2201E80000000000
(1768225973.106909) slcan0 7DF#0701111314151F21
(1768225973.108348) slcan0 7E8#101141112B130314
(1768225973.108639) slcan0 7E0#3000000000000000
(1768225973.113325) slcan0 7E8#218F8015FFFF1F00
(1768225973.114163) slcan0 7E8#228C210000000000
(1768225973.133001) slcan0 7DF#0701232E30313342
(1768225973.138333) slcan0 7E8#1010412301202E00
(1768225973.138646) slcan0 7E0#3000000000000000
(1768225973.142908) slcan0 7E8#2130FF31867E3361
(1768225973.144291) slcan0 7E8#2242380B00000000
(1768225973.161997) slcan0 7DF#0701434547494A4C
(1768225973.168494) slcan0 7E8#100E414300584511
(1768225973.168809) slcan0 7E0#3000000000000000
(1768225973.173627) slcan0 7E8#21472A49254A134C
(1768225973.174356) slcan0 7E8#2216000000000000
(1768225973.215930) slcan0 7DF#0701010304050607
(1768225973.218318) slcan0 7E8#1011410100076100
(1768225973.218711) slcan0 7E0#3000000000000000
(1768225973.226171) slcan0 7E8#21030200043A053D
(1768225973.228633) slcan0 7E8#2206800778000000
(1768225973.264876) slcan0 7DF#07010B0C0D0E0F10
(1768225973.268555) slcan0 7E8#100F410B2B0C16F4
(1768225973.268709) slcan0 7E0#3000000000000000
(1768225973.273501) slcan0 7E8#210D000E800F2010
(1768225973.274337) slcan0 7E8#2201FF0000000000
(1768225973.301950) slcan0 7DF#0701111314151F21
(1768225973.308369) slcan0 7E8#101141112B130314
(1768225973.308699) slcan0 7E0#3000000000000000
(1768225973.313096) slcan0 7E8#212D8015FFFF1F00
(1768225973.314178) slcan0 7E8#228C210000000000
(1768225973.355984) slcan0 7DF#0701232E30313342
(1768225973.358766) slcan0 7E8#10104123011B2E00
(1768225973.359034) slcan0 7E0#3000000000000000
(1768225973.363204) slcan0 7E8#2130FF31867E3361
(1768225973.365861) slcan0 7E8#224237C500000000
(1768225973.400894) slcan0 7DF#0701434547494A4C
(1768225973.408491) slcan0 7E8#100E414300584510
(1768225973.408744) slcan0 7E0#3000000000000000
(1768225973.413561) slcan0 7E8#21472A49264A134C
(1768225973.414367) slcan0 7E8#2216000000000000
(1768225973.445830) slcan0 7DF#0701010304050607
(1768225973.448780) slcan0 7E8#1011410100076100
(1768225973.449036) slcan0 7E0#3000000000000000
(1768225973.454428) slcan0 7E8#210302000439053D
(1768225973.456315) slcan0 7E8#2206830778000000
(1768225973.486817) slcan0 7DF#07010B0C0D0E0F10
(1768225973.488485) slcan0 7E8#100F410B2B0C16E0
(1768225973.488676) slcan0 7E0#3000000000000000
(1768225973.493103) slcan0 7E8#210D000E810F2010
(1768225973.494384) slcan0 7E8#2201EE0000000000
(1768225973.539868) slcan0 7DF#0701111314151F21
(1768225973.549179) slcan0 7E8#101141112A130314
(1768225973.549196) slcan0 7E0#3000000000000000
(1768225973.555690) slcan0 7E8#212A8315FFFF1F00
(1768225973.556325) slcan0 7E8#228C210000000000
(1768225973.572848) slcan0 7DF#0701232E30313342
(1768225973.578545) slcan0 7E8#1010412301172E00
(1768225973.578609) slcan0 7E0#3000000000000000
(1768225973.583195) slcan0 7E8#2130FF31867E3361
(1768225973.586069) slcan0 7E8#224237AD00000000
(1768225973.634927) slcan0 7DF#0701434547494A4C
(1768225973.638485) slcan0 7E8#100E414300554510
(1768225973.638655) slcan0 7E0#3000000000000000
(1768225973.643164) slcan0 7E8#21472A49254A134C
(1768225973.646278) slcan0 7E8#2216000000000000
(1768225973.701758) slcan0 7DF#0701010304050607
(1768225973.708453) slcan0 7E8#1011410100076100
(1768225973.708698) slcan0 7E0#3000000000000000
(1768225973.713505) slcan0 7E8#210302000436053D
(1768225973.714207) slcan0 7E8#2206840778000000
(1768225973.750780) slcan0 7DF#07010B0C0D0E0F10
(1768225973.758823) slcan0 7E8#100F410B2A0C1714
(1768225973.758838) slcan0 7E0#3000000000000000
(1768225973.763374) slcan0 7E8#210D000E810F2010
(1768225973.764326) slcan0 7E8#2201EE0000000000
(1768225973.792828) slcan0 7DF#0701111314151F21
(1768225973.798333) slcan0 7E8#101141112A130314
(1768225973.798597) slcan0 7E0#3000000000000000
(1768225973.802903) slcan0 7E8#215D8415FFFF1F00
(1768225973.805202) slcan0 7E8#228C210000000000
(1768225973.835764) slcan0 7DF#0701232E30313342
(1768225973.838231) slcan0 7E8#10104123012B2E00
(1768225973.838583) slcan0 7E0#3000000000000000
(1768225973.843221) slcan0 7E8#2130FF31867E3361
(1768225973.844400) slcan0 7E8#224237DC00000000
(1768225973.861035) slcan0 7DF#0701434547494A4C
(1768225973.868616) slcan0 7E8#100E414300554510
(1768225973.868864) slcan0 7E0#3000000000000000
(1768225973.873566) slcan0 7E8#21472A49254A134C
(1768225973.874401) slcan0 7E8#2216000000000000
(1768225973.897797) slcan0 7DF#0701010304050607
(1768225973.908523) slcan0 7E8#1011410100076100
(1768225973.908769) slcan0 7E0#3000000000000000
(1768225973.913397) slcan0 7E8#210302000437053D
(1768225973.914357) slcan0 7E8#2206810778000000
(1768225973.939822) slcan0 7DF#07010B0C0D0E0F10
(1768225973.948947) slcan0 7E8#100F410B2A0C171C
(1768225973.948978) slcan0 7E0#3000000000000000
(1768225973.955745) slcan0 7E8#210D000E810F2010
(1768225973.956344) slcan0 7E8#2201F30000000000
(1768225973.990974) slcan0 7DF#0701111314151F21
(1768225973.998456) slcan0 7E8#101141112A130314
(1768225973.998667) slcan0 7E0#3000000000000000
(1768225974.002954) slcan0 7E8#21A48115FFFF1F00
(1768225974.004261) slcan0 7E8#228D210000000000
(1768225974.048695) slcan0 7DF#0701232E30313342
(1768225974.058647) slcan0 7E8#1010412301262E00
(1768225974.058938) slcan0 7E0#3000000000000000
(1768225974.063213) slcan0 7E8#2130FF31867E3361
(1768225974.064357) slcan0 7E8#224237DC00000000
(1768225974.080557) slcan0 7DF#0701434547494A4C
(1768225974.088423) slcan0 7E8#100E414300564510
(1768225974.088761) slcan0 7E0#3000000000000000
(1768225974.093014) slcan0 7E8#21472A49254A134C
(1768225974.094110) slcan0 7E8#2216000000000000
(1768225974.139726) slcan0 7DF#0701010304050607
(1768225974.148415) slcan0 7E8#1011410100076100
(1768225974.148631) slcan0 7E0#3000000000000000
(1768225974.154401) slcan0 7E8#210302000436053D
(1768225974.156354) slcan0 7E8#2206800778000000
(1768225974.193691) slcan0 7DF#07010B0C0D0E0F10
(1768225974.198434) slcan0 7E8#100F410B2A0C171C
(1768225974.198499) slcan0 7E0#3000000000000000
(1768225974.202910) slcan0 7E8#210D000E810F2010
(1768225974.204361) slcan0 7E8#2201E60000000000
(1768225974.266757) slcan0 7DF#0701111314151F21
(1768225974.269060) slcan0 7E8#101141112B130314
(1768225974.269318) slcan0 7E0#3000000000000000
(1768225974.274192) slcan0 7E8#21A28015FFFF1F00
(1768225974.276377) slcan0 7E8#228D210000000000
(1768225974.328495) slcan0 7DF#0701232E30313342
(1768225974.338266) slcan0 7E8#10104123011A2E00
(1768225974.338544) slcan0 7E0#3000000000000000
(1768225974.342973) slcan0 7E8#2130FF31867E3361
(1768225974.344238) slcan0 7E8#224237AD00000000
(1768225974.373646) slcan0 7DF#0701434547494A4C
(1768225974.378372) slcan0 7E8#100E414300574510
(1768225974.378611) slcan0 7E0#3000000000000000
(1768225974.380227) slcan0 7E8#21472A49254A134C
(1768225974.384167) slcan0 7E8#2216000000000000
(1768225974.409633) slcan0 7DF#0701010304050607
(1768225974.418548) slcan0 7E8#1011410100076100
(1768225974.418758) slcan0 7E0#3000000000000000
(1768225974.425437) slcan0 7E8#210302000437053D
(1768225974.426351) slcan0 7E8#2206800778000000
(1768225974.444585) slcan0 7DF#07010B0C0D0E0F10
(1768225974.448209) slcan0 7E8#100F410B2B0C1726
(1768225974.448524) slcan0 7E0#3000000000000000
(1768225974.454393) slcan0 7E8#210D000E810F2010
(1768225974.456348) slcan0 7E8#2201EB0000000000
(1768225974.489621) slcan0 7DF#0701111314151F21
(1768225974.498403) slcan0 7E8#101141112B130314
(1768225974.498634) slcan0 7E0#3000000000000000
(1768225974.502896) slcan0 7E8#21428015FFFF1F00
(1768225974.504342) slcan0 7E8#228D210000000000
(1768225974.538597) slcan0 7DF#0701232E30313342
(1768225974.548346) slcan0 7E8#10104123011D2E00
(1768225974.548553) slcan0 7E0#3000000000000000
(1768225974.555908) slcan0 7E8#2130FF31867E3361
(1768225974.556203) slcan0 7E8#224237AD00000000
(1768225974.573616) slcan0 7DF#0701434547494A4C
(1768225974.578387) slcan0 7E8#100E414300564510
(1768225974.578627) slcan0 7E0#3000000000000000
(1768225974.583253) slcan0 7E8#21472A49254A134C
(1768225974.584327) slcan0 7E8#2216000000000000
(1768225974.611527) slcan0 7DF#0701010304050607
(1768225974.618512) slcan0 7E8#1011410100076100
(1768225974.618882) slcan0 7E0#3000000000000000
(1768225974.625759) slcan0 7E8#210302000438053D
(1768225974.626344) slcan0 7E8#2206800778000000
(1768225974.639631) slcan0 7DF#07010B0C0D0E0F10
(1768225974.648286) slcan0 7E8#100F410B2B0C170C
(1768225974.648487) slcan0 7E0#3000000000000000
(1768225974.655521) slcan0 7E8#210D000E810F2010
(1768225974.656366) slcan0 7E8#2201F10000000000
(1768225974.670485) slcan0 7DF#0701111314151F21
(1768225974.678174) slcan0 7E8#101141112B130314
(1768225974.678545) slcan0 7E0#3000000000000000
(1768225974.683853) slcan0 7E8#21328015FFFF1F00
(1768225974.684165) slcan0 7E8#228D210000000000
(1768225974.708483) slcan0 7DF#0701232E30313342
(1768225974.718559) slcan0 7E8#1010412301162E00
(1768225974.718779) slcan0 7E0#3000000000000000
(1768225974.725637) slcan0 7E8#2130FF31867E3361
(1768225974.726223) slcan0 7E8#2242379500000000
(1768225974.745652) slcan0 7DF#0701434547494A4C
(1768225974.748366) slcan0 7E8#100E414300574510
(1768225974.748610) slcan0 7E0#3000000000000000
(1768225974.755749) slcan0 7E8#21472A49254A134C
(1768225974.756193) slcan0 7E8#2216000000000000
(1768225974.824390) slcan0 7DF#0701010304050607
(1768225974.828593) slcan0 7E8#1011410100076100
(1768225974.828874) slcan0 7E0#3000000000000000
(1768225974.833688) slcan0 7E8#210302000438053D
(1768225974.834167) slcan0 7E8#2206820778000000
(1768225974.893499) slcan0 7DF#07010B0C0D0E0F10
(1768225974.898441) slcan0 7E8#100F410B2B0C16E4
(1768225974.898562) slcan0 7E0#3000000000000000
(1768225974.902974) slcan0 7E8#210D000E810F2010
(1768225974.904367) slcan0 7E8#2201EB0000000000
(1768225974.938485) slcan0 7DF#0701111314151F21
(1768225974.948370) slcan0 7E8#101141112B130314
(1768225974.948628) slcan0 7E0#3000000000000000
(1768225974.955658) slcan0 7E8#21288315FFFF1F00
(1768225974.956253) slcan0 7E8#228E210000000000
(1768225974.980378) slcan0 7DF#0701232E30313342
(1768225974.988389) slcan0 7E8#1010412301192E00
(1768225974.988491) slcan0 7E0#3000000000000000
(1768225974.993237) slcan0 7E8#2130FF31867E3361
(1768225974.994190) slcan0 7E8#2242373700000000
(1768225975.022468) slcan0 7DF#0701434547494A4C
(1768225975.028711) slcan0 7E8#100E414300564510
(1768225975.028970) slcan0 7E0#3000000000000000
(1768225975.035444) slcan0 7E8#21472A49254A134C
(1768225975.036221) slcan0 7E8#2216000000000000
(1768225975.078010) slcan0 7DF#0103000000000000
(1768225975.088173) slcan0 7E8#0243000000000000
(1768225975.171140) slcan0 7DF#0107000000000000
(1768225975.178388) slcan0 7E8#0247000000000000
(1768225975.285374) slcan0 7DF#0701010304050607
(1768225975.288366) slcan0 7E8#1011410100076100
(1768225975.288635) slcan0 7E0#3000000000000000
(1768225975.293220) slcan0 7E8#210302000438053E
(1768225975.294366) slcan0 7E8#2206840778000000
(1768225975.327279) slcan0 7DF#07010B0C0D0E0F10
(1768225975.338200) slcan0 7E8#100F410B2B0C170E
(1768225975.338409) slcan0 7E0#3000000000000000
(1768225975.342773) slcan0 7E8#210D000E810F2010
(1768225975.344090) slcan0 7E8#2201F90000000000
(1768225975.365257) slcan0 7DF#0701111314151F21
(1768225975.368231) slcan0 7E8#101141112B130314
(1768225975.368478) slcan0 7E0#3000000000000000
(1768225975.373404) slcan0 7E8#217D8415FFFF1F00
(1768225975.375997) slcan0 7E8#228E210000000000
(1768225975.408256) slcan0 7DF#0701232E30313342
(1768225975.418527) slcan0 7E8#10104123011D2E00
(1768225975.418812) slcan0 7E0#3000000000000000
(1768225975.425572) slcan0 7E8#2130FF31867E3361
(1768225975.426197) slcan0 7E8#2242382300000000
(1768225975.452146) slcan0 7DF#0701434547494A4C
(1768225975.458649) slcan0 7E8#100E414300564510
(1768225975.458853) slcan0 7E0#3000000000000000
(1768225975.463417) slcan0 7E8#21472A49254A134C
(1768225975.464259) slcan0 7E8#2216000000000000
(1768225975.505152) slcan0 7DF#0701010304050607
(1768225975.508323) slcan0 7E8#1011410100076100
(1768225975.508478) slcan0 7E0#3000000000000000
(1768225975.514067) slcan0 7E8#210302000436053E
(1768225975.516092) slcan0 7E8#2206810778000000
(1768225975.547207) slcan0 7DF#07010B0C0D0E0F10
(1768225975.548910) slcan0 7E8#100F410B2B0C1716
(1768225975.549170) slcan0 7E0#3000000000000000
(1768225975.555901) slcan0 7E8#210D000E810F2010
(1768225975.556076) slcan0 7E8#2201E30000000000
(1768225975.604277) slcan0 7DF#0701111314151F21
(1768225975.608579) slcan0 7E8#101141112B130314
(1768225975.608805) slcan0 7E0#3000000000000000
(1768225975.613174) slcan0 7E8#21A48115FFFF1F00
(1768225975.614256) slcan0 7E8#228E210000000000
(1768225975.658345) slcan0 7DF#0701232E30313342
(1768225975.668262) slcan0 7E8#1010412301192E00
(1768225975.668507) slcan0 7E0#3000000000000000
(1768225975.673472) slcan0 7E8#2130FF31867E3361
(1768225975.674180) slcan0 7E8#224236C100000000
(1768225975.694323) slcan0 7DF#0701434547494A4C
(1768225975.698257) slcan0 7E8#100E414300564511
(1768225975.698518) slcan0 7E0#3000000000000000
(1768225975.702708) slcan0 7E8#21472A49254A134C
(1768225975.704274) slcan0 7E8#2216000000000000
(1768225975.762385) slcan0 7DF#0701010304050607
(1768225975.768338) slcan0 7E8#1011410100076100
(1768225975.768500) slcan0 7E0#3000000000000000
(1768225975.773559) slcan0 7E8#210302000438053E
(1768225975.774230) slcan0 7E8#2206800778000000
(1768225975.818409) slcan0 7DF#07010B0C0D0E0F10
(1768225975.828731) slcan0 7E8#100F410B2B0C1720
(1768225975.828866) slcan0 7E0#3000000000000000
(1768225975.833286) slcan0 7E8#210D000E800F2010
(1768225975.834149) slcan0 7E8#2201F10000000000
(1768225975.862204) slcan0 7DF#0701111314151F21
(1768225975.868351) slcan0 7E8#101141112B130314
(1768225975.868550) slcan0 7E0#3000000000000000
(1768225975.873778) slcan0 7E8#217F8015FFFF1F00
(1768225975.874140) slcan0 7E8#228F210000000000
(1768225975.895329) slcan0 7DF#0701232E30313342
(1768225975.898346) slcan0 7E8#1010412301282E00
(1768225975.898581) slcan0 7E0#3000000000000000
(1768225975.902952) slcan0 7E8#2130FF31867E3361
(1768225975.904122) slcan0 7E8#224237AD00000000
(1768225975.932232) slcan0 7DF#0701434547494A4C
(1768225975.938354) slcan0 7E8#100E414300554510
(1768225975.938604) slcan0 7E0#3000000000000000
(1768225975.942780) slcan0 7E8#21472A49254A134C
(1768225975.945144) slcan0 7E8#2216000000000000
(1768225975.974335) slcan0 7DF#0701010304050607
(1768225975.978316) slcan0 7E8#1011410100076100
(1768225975.978560) slcan0 7E0#3000000000000000
(1768225975.983437) slcan0 7E8#210302000436053E
(1768225975.984180) slcan0 7E8#2206800778000000
(1768225976.013337) slcan0 7DF#07010B0C0D0E0F10
(1768225976.018605) slcan0 7E8#100F410B2B0C170E
(1768225976.018634) slcan0 7E0#3000000000000000
(1768225976.025406) slcan0 7E8#210D000E830F2010
(1768225976.026270) slcan0 7E8#2201E00000000000
(1768225976.043364) slcan0 7DF#0701111314151F21
(1768225976.048240) slcan0 7E8#101141112B130314
(1768225976.048403) slcan0 7E0#3000000000000000
(1768225976.055441) slcan0 7E8#21418015FFFF1F00
(1768225976.056588) slcan0 7E8#228F210000000000
(1768225976.089157) slcan0 7DF#0701232E30313342
(1768225976.098216) slcan0 7E8#1010412301152E00
(1768225976.098474) slcan0 7E0#3000000000000000
(1768225976.102343) slcan0 7E8#2130FF31867E3361
(1768225976.105008) slcan0 7E8#2242380B00000000
(1768225976.125166) slcan0 7DF#0701434547494A4C
(1768225976.128601) slcan0 7E8#100E414300574510
(1768225976.128865) slcan0 7E0#3000000000000000
(1768225976.133140) slcan0 7E8#21472A49264A134C
(1768225976.134097) slcan0 7E8#2216000000000000
(1768225976.150173) slcan0 7DF#0701010304050607
(1768225976.158667) slcan0 7E8#1011410100076100
(1768225976.158849) slcan0 7E0#3000000000000000
(1768225976.163120) slcan0 7E8#210302000438053E
(1768225976.165440) slcan0 7E8#2206820778000000
(1768225976.183261) slcan0 7DF#07010B0C0D0E0F10
(1768225976.188253) slcan0 7E8#100F410B2B0C170E
(1768225976.188525) slcan0 7E0#3000000000000000
(1768225976.192921) slcan0 7E8#210D000E810F2010
(1768225976.194142) slcan0 7E8#2201E80000000000
(1768225976.221147) slcan0 7DF#0701111314151F21
(1768225976.228738) slcan0 7E8#101141112B130314
(1768225976.228786) slcan0 7E0#3000000000000000
(1768225976.233512) slcan0 7E8#21268315FFFF1F00
(1768225976.234012) slcan0 7E8#228F210000000000
(1768225976.261183) slcan0 7DF#0701232E30313342
(1768225976.268325) slcan0 7E8#1010412301242E00
(1768225976.268498) slcan0 7E0#3000000000000000
(1768225976.273912) slcan0 7E8#2130FF31867E3361
(1768225976.274183) slcan0 7E8#224237DC00000000
(1768225976.337123) slcan0 7DF#0701434547494A4C
(1768225976.338184) slcan0 7E8#100E414300584511
(1768225976.338405) slcan0 7E0#3000000000000000
(1768225976.342514) slcan0 7E8#21472A49264A134C
(1768225976.345132) slcan0 7E8#2216000000000000
(1768225976.392246) slcan0 7DF#0701010304050607
(1768225976.398584) slcan0 7E8#1011410100076100
(1768225976.398756) slcan0 7E0#3000000000000000
(1768225976.403018) slcan0 7E8#210302000438053E
(1768225976.405215) slcan0 7E8#2206830778000000
(1768225976.428349) slcan0 7DF#07010B0C0D0E0F10
(1768225976.438194) slcan0 7E8#100F410B2B0C1710
(1768225976.438515) slcan0 7E0#3000000000000000
(1768225976.442632) slcan0 7E8#210D000E800F2010
(1768225976.444184) slcan0 7E8#2201F90000000000
(1768225976.471990) slcan0 7DF#0701111314151F21
(1768225976.479212) slcan0 7E8#101141112B130314
(1768225976.479453) slcan0 7E0#3000000000000000
(1768225976.485046) slcan0 7E8#212D8415FFFF1F00
(1768225976.486176) slcan0 7E8#228F210000000000
(1768225976.509209) slcan0 7DF#0701232E30313342
(1768225976.518393) slcan0 7E8#1010412301282E00
(1768225976.518651) slcan0 7E0#3000000000000000
(1768225976.525526) slcan0 7E8#2130FF31867E3361
(1768225976.526148) slcan0 7E8#224237C500000000
(1768225976.574156) slcan0 7DF#0701434547494A4C
(1768225976.578206) slcan0 7E8#100E414300584510
(1768225976.578515) slcan0 7E0#3000000000000000
(1768225976.583790) slcan0 7E8#21472A49254A134C
(1768225976.585269) slcan0 7E8#2216000000000000
(1768225976.647337) slcan0 7DF#0701010304050607
(1768225976.648528) slcan0 7E8#1011410100076100
(1768225976.648736) slcan0 7E0#3000000000000000
(1768225976.655515) slcan0 7E8#210302000437053E
(1768225976.655987) slcan0 7E8#2206810778000000
(1768225976.691013) slcan0 7DF#07010B0C0D0E0F10
(1768225976.698086) slcan0 7E8#100F410B2B0C1730
(1768225976.698360) slcan0 7E0#3000000000000000
(1768225976.702551) slcan0 7E8#210D000E810F2010
(1768225976.704027) slcan0 7E8#2201E30000000000
(1768225976.726151) slcan0 7DF#0701111314151F21
(1768225976.728389) slcan0 7E8#101141112B130314
(1768225976.728579) slcan0 7E0#3000000000000000
(1768225976.732827) slcan0 7E8#21A68115FFFF1F00
(1768225976.735398) slcan0 7E8#228F210000000000
(1768225976.764162) slcan0 7DF#0701232E30313342
(1768225976.768139) slcan0 7E8#1010412301252E00
(1768225976.768568) slcan0 7E0#3000000000000000
(1768225976.773780) slcan0 7E8#2130FF31867E3361
(1768225976.774010) slcan0 7E8#224237DC00000000
(1768225976.807122) slcan0 7DF#0701434547494A4C
(1768225976.808207) slcan0 7E8#100E414300554510
(1768225976.808490) slcan0 7E0#3000000000000000
(1768225976.812769) slcan0 7E8#21472A49254A134C
(1768225976.814159) slcan0 7E8#2216000000000000
(1768225976.852175) slcan0 7DF#0701010304050607
(1768225976.858653) slcan0 7E8#1011410100076100
(1768225976.858917) slcan0 7E0#3000000000000000
(1768225976.863112) slcan0 7E8#210302000436053E
(1768225976.864138) slcan0 7E8#2206810778000000
(1768225976.896217) slcan0 7DF#07010B0C0D0E0F10
(1768225976.898250) slcan0 7E8#100F410B2B0C1726
(1768225976.898460) slcan0 7E0#3000000000000000
(1768225976.903860) slcan0 7E8#210D000E800F2010
(1768225976.904105) slcan0 7E8#2201EB0000000000
(1768225976.937194) slcan0 7DF#0701111314151F21
(1768225976.938172) slcan0 7E8#101141112B130314
(1768225976.938522) slcan0 7E0#3000000000000000
(1768225976.942845) slcan0 7E8#219D8015FFFF1F00
(1768225976.944197) slcan0 7E8#2290210000000000
(1768225976.981227) slcan0 7DF#0701232E30313342
(1768225976.988241) slcan0 7E8#1010412301172E00
(1768225976.988459) slcan0 7E0#3000000000000000
(1768225976.993125) slcan0 7E8#2130FF31867E3361
(1768225976.994285) slcan0 7E8#224237C500000000
(1768225977.021163) slcan0 7DF#0701434547494A4C
(1768225977.028513) slcan0 7E8#100E414300564510
(1768225977.028736) slcan0 7E0#3000000000000000
(1768225977.032949) slcan0 7E8#21472A49264A134C
(1768225977.034169) slcan0 7E8#2216000000000000
(1768225977.082044) slcan0 7DF#0701010304050607
(1768225977.088199) slcan0 7E8#1011410100076100
(1768225977.088460) slcan0 7E0#3000000000000000
(1768225977.092578) slcan0 7E8#210302000437053E
(1768225977.094090) slcan0 7E8#2206800778000000
(1768225977.153290) slcan0 7DF#07010B0C0D0E0F10
(1768225977.158694) slcan0 7E8#100F410B2B0C1722
(1768225977.158914) slcan0 7E0#3000000000000000
(1768225977.163179) slcan0 7E8#210D000E800F2010
(1768225977.164196) slcan0 7E8#2201E30000000000
(1768225977.228191) slcan0 7DF#0701111314151F21
(1768225977.238255) slcan0 7E8#101141112B130314
(1768225977.238452) slcan0 7E0#3000000000000000
(1768225977.242875) slcan0 7E8#21288015FFFF1F00
(1768225977.244198) slcan0 7E8#2290210000000000
(1768225977.286228) slcan0 7DF#0701232E30313342
(1768225977.288236) slcan0 7E8#1010412301162E00
(1768225977.288506) slcan0 7E0#3000000000000000
(1768225977.292699) slcan0 7E8#2130FF31867E3361
(1768225977.294270) slcan0 7E8#2242372000000000
(1768225977.356183) slcan0 7DF#0701434547494A4C
(1768225977.358991) slcan0 7E8#100E414300584510
(1768225977.359181) slcan0 7E0#3000000000000000
(1768225977.363444) slcan0 7E8#21472A49254A134C
(1768225977.364157) slcan0 7E8#2216000000000000
(1768225977.444085) slcan0 7DF#0701010304050607
(1768225977.448258) slcan0 7E8#1011410100076100
(1768225977.448478) slcan0 7E0#3000000000000000
(1768225977.454219) slcan0 7E8#210302000439053E
(1768225977.456119) slcan0 7E8#2206830778000000
(1768225977.481167) slcan0 7DF#07010B0C0D0E0F10
(1768225977.488198) slcan0 7E8#100F410B2B0C16EC
(1768225977.488394) slcan0 7E0#3000000000000000
(1768225977.492880) slcan0 7E8#210D000E800F2010
(1768225977.494199) slcan0 7E8#2201EE0000000000
(1768225977.521159) slcan0 7DF#0701111314151F21
(1768225977.528631) slcan0 7E8#101141112B130314
(1768225977.528842) slcan0 7E0#3000000000000000
(1768225977.532926) slcan0 7E8#212B8315FFFF1F00
(1768225977.534136) slcan0 7E8#2290210000000000
(1768225977.562158) slcan0 7DF#0701232E30313342
(1768225977.568193) slcan0 7E8#1010412301292E00
(1768225977.568486) slcan0 7E0#3000000000000000
(1768225977.573071) slcan0 7E8#2130FF31867E3361
(1768225977.574227) slcan0 7E8#224236C100000000
(1768225977.608216) slcan0 7DF#0701434547494A4C
(1768225977.618637) slcan0 7E8#100E414300584510
(1768225977.618835) slcan0 7E0#3000000000000000
(1768225977.626269) slcan0 7E8#21472A49264A134C
(1768225977.628592) slcan0 7E8#2216000000000000
(1768225977.643165) slcan0 7DF#0701010304050607
(1768225977.648339) slcan0 7E8#1011410100076100
(1768225977.648352) slcan0 7E0#3000000000000000
(1768225977.654203) slcan0 7E8#210302000438053E
(1768225977.656141) slcan0 7E8#2206840778000000
(1768225977.680970) slcan0 7DF#07010B0C0D0E0F10
(1768225977.688199) slcan0 7E8#100F410B2B0C172E
(1768225977.688353) slcan0 7E0#3000000000000000
(1768225977.692829) slcan0 7E8#210D000E800F2010
(1768225977.695617) slcan0 7E8#2201F30000000000
(1768225977.714156) slcan0 7DF#0701111314151F21
(1768225977.718456) slcan0 7E8#101141112B130314
(1768225977.718720) slcan0 7E0#3000000000000000
(1768225977.725883) slcan0 7E8#219F8115FFFF1F00
(1768225977.726130) slcan0 7E8#2290210000000000
(1768225977.756069) slcan0 7DF#0701232E30313342
(1768225977.758810) slcan0 7E8#1010412301292E00
(1768225977.758910) slcan0 7E0#3000000000000000
(1768225977.762865) slcan0 7E8#2130FF31867E3361
(1768225977.764163) slcan0 7E8#224237DC00000000
(1768225977.861034) slcan0 7DF#0701434547494A4C
(1768225977.868266) slcan0 7E8#100E414300564510
(1768225977.868481) slcan0 7E0#3000000000000000
(1768225977.873337) slcan0 7E8#21472A49254A134C
(1768225977.874268) slcan0 7E8#2216000000000000
(1768225977.906000) slcan0 7DF#0701010304050607
(1768225977.908139) slcan0 7E8#1011410100076100
(1768225977.908380) slcan0 7E0#3000000000000000
(1768225977.913381) slcan0 7E8#210302000437053E
(1768225977.914132) slcan0 7E8#2206810778000000
(1768225977.954081) slcan0 7DF#07010B0C0D0E0F10
(1768225977.958854) slcan0 7E8#100F410B2B0C1724
(1768225977.959218) slcan0 7E0#3000000000000000
(1768225977.963123) slcan0 7E8#210D000E800F2010
(1768225977.963987) slcan0 7E8#2201E80000000000
(1768225978.013881) slcan0 7DF#0701111314151F21
(1768225978.018431) slcan0 7E8#101141112A130314
(1768225978.018700) slcan0 7E0#3000000000000000
(1768225978.023990) slcan0 7E8#219A8015FFFF1F00
(1768225978.026025) slcan0 7E8#2291210000000000
(1768225978.043059) slcan0 7DF#0701232E30313342
(1768225978.048144) slcan0 7E8#10104123011B2E00
(1768225978.048340) slcan0 7E0#3000000000000000
(1768225978.054167) slcan0 7E8#2130FF31867E3361
(1768225978.056075) slcan0 7E8#224237F400000000
(1768225978.086953) slcan0 7DF#0701434547494A4C
(1768225978.088108) slcan0 7E8#100E414300554510
(1768225978.088368) slcan0 7E0#3000000000000000
(1768225978.093126) slcan0 7E8#21472A49254A134C
(1768225978.094082) slcan0 7E8#2216000000000000
(1768225978.136993) slcan0 7DF#0701010304050607
(1768225978.138167) slcan0 7E8#1011410100076100
(1768225978.138358) slcan0 7E0#3000000000000000
(1768225978.143099) slcan0 7E8#210302000437053E
(1768225978.144159) slcan0 7E8#2206800778000000
(1768225978.192091) slcan0 7DF#07010B0C0D0E0F10
(1768225978.198257) slcan0 7E8#100F410B2A0C1722
(1768225978.198432) slcan0 7E0#3000000000000000
(1768225978.202834) slcan0 7E8#210D000E810F2010
(1768225978.204219) slcan0 7E8#2201E80000000000
(1768225978.239914) slcan0 7DF#0701111314151F21
(1768225978.248244) slcan0 7E8#101141112A130314
(1768225978.248512) slcan0 7E0#3000000000000000
(1768225978.254257) slcan0 7E8#21757F15FFFF1F00
(1768225978.256318) slcan0 7E8#2291210000000000
(1768225978.282073) slcan0 7DF#0701232E30313342
(1768225978.288197) slcan0 7E8#10104123011A2E00
(1768225978.288385) slcan0 7E0#3000000000000000
(1768225978.292887) slcan0 7E8#2130FF31867E3361
(1768225978.294269) slcan0 7E8#2242377E00000000
(1768225978.322034) slcan0 7DF#0701434547494A4C
(1768225978.328408) slcan0 7E8#100E414300544510
(1768225978.328630) slcan0 7E0#3000000000000000
(1768225978.332912) slcan0 7E8#21472A49254A134C
(1768225978.334031) slcan0 7E8#2216000000000000
(1768225978.362888) slcan0 7DF#0701010304050607
(1768225978.368145) slcan0 7E8#1011410100076100
(1768225978.368458) slcan0 7E0#3000000000000000
(1768225978.373028) slcan0 7E8#210302000436053E
(1768225978.374124) slcan0 7E8#22067F0778000000
(1768225978.394824) slcan0 7DF#07010B0C0D0E0F10
(1768225978.398143) slcan0 7E8#100F410B2A0C170A
(1768225978.398395) slcan0 7E0#3000000000000000
(1768225978.402737) slcan0 7E8#210D000E830F2010
(1768225978.404122) slcan0 7E8#2201DD0000000000
(1768225978.426087) slcan0 7DF#0701111314151F21
(1768225978.428492) slcan0 7E8#101141112A130314
(1768225978.428536) slcan0 7E0#3000000000000000
(1768225978.432808) slcan0 7E8#212C7F15FFFF1F00
(1768225978.434144) slcan0 7E8#2291210000000000
(1768225978.467992) slcan0 7DF#0701232E30313342
(1768225978.478165) slcan0 7E8#1010412301182E00
(1768225978.478419) slcan0 7E0#3000000000000000
(1768225978.482773) slcan0 7E8#2130FF31867E3361
(1768225978.484097) slcan0 7E8#224237C500000000
(1768225978.512845) slcan0 7DF#0701434547494A4C
(1768225978.518517) slcan0 7E8#100E414300554510
(1768225978.518755) slcan0 7E0#3000000000000000
(1768225978.525606) slcan0 7E8#21472A49254A134C
(1768225978.526071) slcan0 7E8#2216000000000000
(1768225978.565548) slcan0 7DF#0103000000000000
(1768225978.568118) slcan0 7E8#0243000000000000
(1768225978.661445) slcan0 7DF#0107000000000000
(1768225978.668177) slcan0 7E8#0247000000000000
(1768225978.745962) slcan0 7DF#0701010304050607
(1768225978.748278) slcan0 7E8#1011410100076100
(1768225978.748439) slcan0 7E0#3000000000000000
(1768225978.756065) slcan0 7E8#210302000436053E
(1768225978.758834) slcan0 7E8#2206830778000000
(1768225978.790946) slcan0 7DF#07010B0C0D0E0F10
(1768225978.798239) slcan0 7E8#100F410B2A0C1724
(1768225978.798479) slcan0 7E0#3000000000000000
(1768225978.802594) slcan0 7E8#210D000E810F2010
(1768225978.804260) slcan0 7E8#2201E60000000000
(1768225978.837980) slcan0 7DF#0701111314151F21
(1768225978.848275) slcan0 7E8#101141112A130314
(1768225978.848416) slcan0 7E0#3000000000000000
(1768225978.855573) slcan0 7E8#212B8315FFFF1F00
(1768225978.856074) slcan0 7E8#2292210000000000
(1768225978.886862) slcan0 7DF#0701232E30313342
(1768225978.888087) slcan0 7E8#10104123011D2E00
(1768225978.888345) slcan0 7E0#3000000000000000
(1768225978.893980) slcan0 7E8#2130FF31867E3361
(1768225978.896070) slcan0 7E8#224237AD00000000
(1768225978.936954) slcan0 7DF#0701434547494A4C
(1768225978.938135) slcan0 7E8#100E414300554510
(1768225978.938492) slcan0 7E0#3000000000000000
(1768225978.943138) slcan0 7E8#21472A49254A134C
(1768225978.944118) slcan0 7E8#2216000000000000
(1768225978.965878) slcan0 7DF#0701010304050607
(1768225978.968221) slcan0 7E8#1011410100076100
(1768225978.968425) slcan0 7E0#3000000000000000
(1768225978.973066) slcan0 7E8#210302000436053E
(1768225978.974170) slcan0 7E8#2206840778000000
(1768225979.011913) slcan0 7DF#07010B0C0D0E0F10
(1768225979.018507) slcan0 7E8#100F410B2A0C1726
(1768225979.018786) slcan0 7E0#3000000000000000
(1768225979.023944) slcan0 7E8#210D000E810F2010
(1768225979.026197) slcan0 7E8#2201DA0000000000
(1768225979.045885) slcan0 7DF#0701111314151F21
(1768225979.048183) slcan0 7E8#101141112A130314
(1768225979.048480) slcan0 7E0#3000000000000000
(1768225979.055932) slcan0 7E8#212E8415FFFF1F00
(1768225979.058807) slcan0 7E8#2292210000000000
(1768225979.127862) slcan0 7DF#0701232E30313342
(1768225979.138181) slcan0 7E8#1010412301292E00
(1768225979.138418) slcan0 7E0#3000000000000000
(1768225979.142805) slcan0 7E8#2130FF31867E3361
(1768225979.144203) slcan0 7E8#2242379500000000
(1768225979.160853) slcan0 7DF#0701434547494A4C
(1768225979.168280) slcan0 7E8#100E414300544510
(1768225979.168455) slcan0 7E0#3000000000000000
(1768225979.173748) slcan0 7E8#21472A49254A134C
(1768225979.174126) slcan0 7E8#2216000000000000
(1768225979.226787) slcan0 7DF#0701010304050607
(1768225979.228433) slcan0 7E8#1011410100076100
(1768225979.228673) slcan0 7E0#3000000000000000
(1768225979.233488) slcan0 7E8#210302000436053E
(1768225979.234156) slcan0 7E8#2206820778000000
(1768225979.277807) slcan0 7DF#07010B0C0D0E0F10
(1768225979.288206) slcan0 7E8#100F410B2A0C172C
(1768225979.288406) slcan0 7E0#3000000000000000
(1768225979.294065) slcan0 7E8#210D000E810F2010
(1768225979.296237) slcan0 7E8#2201EE0000000000
(1768225979.349774) slcan0 7DF#0701111314151F21
(1768225979.358870) slcan0 7E8#101141112A130314
(1768225979.358993) slcan0 7E0#3000000000000000
(1768225979.363215) slcan0 7E8#21958115FFFF1F00
(1768225979.364160) slcan0 7E8#2292210000000000
(1768225979.406857) slcan0 7DF#0701232E30313342
(1768225979.408194) slcan0 7E8#10104123012A2E00
(1768225979.408416) slcan0 7E0#3000000000000000
(1768225979.413483) slcan0 7E8#2130FF31867E3361
(1768225979.414147) slcan0 7E8#2242380B00000000
(1768225979.454820) slcan0 7DF#0701434547494A4C
(1768225979.459151) slcan0 7E8#100E414300544510
(1768225979.459358) slcan0 7E0#3000000000000000
(1768225979.464184) slcan0 7E8#21472A49254A134C
(1768225979.466083) slcan0 7E8#2216000000000000
(1768225979.529705) slcan0 7DF#0701010304050607
(1768225979.538123) slcan0 7E8#1011410100076100
(1768225979.538378) slcan0 7E0#3000000000000000
(1768225979.542973) slcan0 7E8#210302000436053E
(1768225979.543994) slcan0 7E8#2206810778000000
(1768225979.575743) slcan0 7DF#07010B0C0D0E0F10
(1768225979.578139) slcan0 7E8#100F410B2A0C1726
(1768225979.578344) slcan0 7E0#3000000000000000
(1768225979.583109) slcan0 7E8#210D000E810F2010
(1768225979.584243) slcan0 7E8#2201EB0000000000
(1768225979.620652) slcan0 7DF#0701111314151F21
(1768225979.628298) slcan0 7E8#101141112A130314
(1768225979.628576) slcan0 7E0#3000000000000000
(1768225979.633336) slcan0 7E8#212E8115FFFF1F00
(1768225979.634173) slcan0 7E8#2292210000000000
(1768225979.651817) slcan0 7DF#0701232E30313342
(1768225979.658675) slcan0 7E8#10104123012A2E00
(1768225979.659016) slcan0 7E0#3000000000000000
(1768225979.662989) slcan0 7E8#2130FF31867E3361
(1768225979.663928) slcan0 7E8#2242382300000000
(1768225979.683581) slcan0 7DF#0701434547494A4C
(1768225979.688127) slcan0 7E8#100E414300544510
(1768225979.688411) slcan0 7E0#3000000000000000
(1768225979.693947) slcan0 7E8#21472A49254A134C
(1768225979.696269) slcan0 7E8#2216000000000000
(1768225979.725748) slcan0 7DF#0701010304050607
(1768225979.728422) slcan0 7E8#1011410100076100
(1768225979.728663) slcan0 7E0#3000000000000000
(1768225979.732753) slcan0 7E8#210302000436053E
(1768225979.734080) slcan0 7E8#2206810778000000
(1768225979.781694) slcan0 7DF#07010B0C0D0E0F10
(1768225979.788107) slcan0 7E8#100F410B2A0C170E
(1768225979.788474) slcan0 7E0#3000000000000000
(1768225979.792947) slcan0 7E8#210D000E830F2010
(1768225979.796128) slcan0 7E8#2201E00000000000
(1768225979.818693) slcan0 7DF#0701111314151F21
(1768225979.828489) slcan0 7E8#101141112A130314
(1768225979.828691) slcan0 7E0#3000000000000000
(1768225979.833205) slcan0 7E8#21288115FFFF1F00
(1768225979.834180) slcan0 7E8#2293210000000000
(1768225979.864577) slcan0 7DF#0701232E30313342
(1768225979.868120) slcan0 7E8#1010412301272E00
(1768225979.868332) slcan0 7E0#3000000000000000
(1768225979.873021) slcan0 7E8#2130FF31867E3361
(1768225979.874063) slcan0 7E8#224237AD00000000
(1768225979.941578) slcan0 7DF#0701434547494A4C
(1768225979.948021) slcan0 7E8#100E414300564510
(1768225979.948329) slcan0 7E0#3000000000000000
(1768225979.955888) slcan0 7E8#21472A49254A134C
(1768225979.958767) slcan0 7E8#2216000000000000
(1768225979.978551) slcan0 7DF#0701010304050607
(1768225979.988116) slcan0 7E8#1011410100076100
(1768225979.988323) slcan0 7E0#3000000000000000
(1768225979.992758) slcan0 7E8#210302000437053E
(1768225979.994026) slcan0 7E8#2206840778000000
(1768225980.040609) slcan0 7DF#07010B0C0D0E0F10
(1768225980.048038) slcan0 7E8#100F410B2A0C171A
(1768225980.048268) slcan0 7E0#3000000000000000
(1768225980.054151) slcan0 7E8#210D000E810F2010
(1768225980.055944) slcan0 7E8#2201DD0000000000
(1768225980.105486) slcan0 7DF#0701111314151F21
(1768225980.107926) slcan0 7E8#101141112A130314
(1768225980.108236) slcan0 7E0#3000000000000000
(1768225980.112913) slcan0 7E8#21388415FFFF1F00
(1768225980.113952) slcan0 7E8#2293210000000000
(1768225980.164563) slcan0 7DF#0701232E30313342
(1768225980.167993) slcan0 7E8#1010412301272E00
(1768225980.168275) slcan0 7E0#3000000000000000
(1768225980.172936) slcan0 7E8#2130FF31867E3361
(1768225980.174062) slcan0 7E8#224237AD00000000
(1768225980.211720) slcan0 7DF#0701434547494A4C
(1768225980.218496) slcan0 7E8#100E414300564510
(1768225980.218762) slcan0 7E0#3000000000000000
(1768225980.223991) slcan0 7E8#21472A49264A134C
(1768225980.226043) slcan0 7E8#2216000000000000
(1768225980.283605) slcan0 7DF#0701010304050607
(1768225980.288228) slcan0 7E8#1011410100076100
(1768225980.288267) slcan0 7E0#3000000000000000
(1768225980.292739) slcan0 7E8#210302000436053E
(1768225980.294081) slcan0 7E8#2206820778000000
(1768225980.330655) slcan0 7DF#07010B0C0D0E0F10
(1768225980.338102) slcan0 7E8#100F410B2A0C1718
(1768225980.338234) slcan0 7E0#3000000000000000
(1768225980.342863) slcan0 7E8#210D000E810F2010
(1768225980.344147) slcan0 7E8#2201DD0000000000
(1768225980.359574) slcan0 7DF#0701111314151F21
(1768225980.368236) slcan0 7E8#101141112A130314
(1768225980.368263) slcan0 7E0#3000000000000000
(1768225980.373148) slcan0 7E8#219D8115FFFF1F00
(1768225980.374090) slcan0 7E8#2293210000000000
(1768225980.415620) slcan0 7DF#0701232E30313342
(1768225980.418772) slcan0 7E8#1010412301252E00
(1768225980.418893) slcan0 7E0#3000000000000000
(1768225980.426111) slcan0 7E8#2130FF31867E3361
(1768225980.428496) slcan0 7E8#224237F400000000
(1768225980.458568) slcan0 7DF#0701434547494A4C
(1768225980.468200) slcan0 7E8#100E414300554510
(1768225980.468473) slcan0 7E0#3000000000000000
(1768225980.470109) slcan0 7E8#21472A49254A134C
(1768225980.473560) slcan0 7E8#2216000000000000
(1768225980.503525) slcan0 7DF#0701010304050607
(1768225980.508090) slcan0 7E8#1011410100076100
(1768225980.508348) slcan0 7E0#3000000000000000
(1768225980.513186) slcan0 7E8#210302000436053E
(1768225980.514193) slcan0 7E8#2206810778000000
(1768225980.551618) slcan0 7DF#07010B0C0D0E0F10
(1768225980.559100) slcan0 7E8#100F410B2A0C1722
(1768225980.559187) slcan0 7E0#3000000000000000
(1768225980.564090) slcan0 7E8#210D000E810F2010
(1768225980.565978) slcan0 7E8#2201E80000000000
(1768225980.595630) slcan0 7DF#0701111314151F21
(1768225980.598167) slcan0 7E8#101141112A130314
(1768225980.598404) slcan0 7E0#3000000000000000
(1768225980.602523) slcan0 7E8#21998115FFFF1F00
(1768225980.604113) slcan0 7E8#2293210000000000
(1768225980.658573) slcan0 7DF#0701232E30313342
(1768225980.668156) slcan0 7E8#10104123011A2E00
(1768225980.668320) slcan0 7E0#3000000000000000
(1768225980.673116) slcan0 7E8#2130FF31867E3361
(1768225980.674012) slcan0 7E8#2242382300000000
(1768225980.725593) slcan0 7DF#0701434547494A4C
(1768225980.728439) slcan0 7E8#100E414300574510
(1768225980.728659) slcan0 7E0#3000000000000000
(1768225980.732801) slcan0 7E8#21472A49254A134C
(1768225980.734027) slcan0 7E8#2216000000000000
(1768225980.785608) slcan0 7DF#0701010304050607
(1768225980.788072) slcan0 7E8#1011410100076100
(1768225980.788249) slcan0 7E0#3000000000000000
(1768225980.792983) slcan0 7E8#210302000438053E
(1768225980.794115) slcan0 7E8#2206800778000000
(1768225980.828631) slcan0 7DF#07010B0C0D0E0F10
(1768225980.838148) slcan0 7E8#100F410B2B0C16F6
(1768225980.838296) slcan0 7E0#3000000000000000
(1768225980.842624) slcan0 7E8#210D000E810F2010
(1768225980.844147) slcan0 7E8#2201F30000000000
(1768225980.866590) slcan0 7DF#0701111314151F21
(1768225980.868046) slcan0 7E8#101141112A130314
(1768225980.868291) slcan0 7E0#3000000000000000
(1768225980.872993) slcan0 7E8#212A8015FFFF1F00
(1768225980.874013) slcan0 7E8#2294210000000000
(1768225980.913355) slcan0 7DF#0701232E30313342
(1768225980.918407) slcan0 7E8#10104123011C2E00
(1768225980.918727) slcan0 7E0#3000000000000000
(1768225980.925562) slcan0 7E8#2130FF31867E3361
(1768225980.925874) slcan0 7E8#224236F100000000
(1768225980.970421) slcan0 7DF#0701434547494A4C
(1768225980.977984) slcan0 7E8#100E414300564510
(1768225980.978223) slcan0 7E0#3000000000000000
(1768225980.982970) slcan0 7E8#21472A49254A134C
(1768225980.984969) slcan0 7E8#2216000000000000
(1768225981.010459) slcan0 7DF#0701010304050607
(1768225981.018571) slcan0 7E8#1011410100076100
(1768225981.018867) slcan0 7E0#3000000000000000
(1768225981.025872) slcan0 7E8#210302000438053E
(1768225981.028303) slcan0 7E8#2206830778000000
(1768225981.051432) slcan0 7DF#07010B0C0D0E0F10
(1768225981.058661) slcan0 7E8#100F410B2B0C1700
(1768225981.059043) slcan0 7E0#3000000000000000
(1768225981.064015) slcan0 7E8#210D000E800F2010
(1768225981.065906) slcan0 7E8#2201E80000000000
(1768225981.091438) slcan0 7DF#0701111314151F21
(1768225981.097965) slcan0 7E8#101141112A130314
(1768225981.098214) slcan0 7E0#3000000000000000
(1768225981.103770) slcan0 7E8#21288315FFFF1F00
(1768225981.105909) slcan0 7E8#2294210000000000
(1768225981.133484) slcan0 7DF#0701232E30313342
(1768225981.137914) slcan0 7E8#1010412301242E00
(1768225981.138217) slcan0 7E0#3000000000000000
(1768225981.142799) slcan0 7E8#2130FF31867E3361
(1768225981.143878) slcan0 7E8#2242376600000000
(1768225981.160630) slcan0 7DF#0701434547494A4C
(1768225981.167971) slcan0 7E8#100E414300564510
(1768225981.168275) slcan0 7E0#3000000000000000
(1768225981.172878) slcan0 7E8#21472A49254A134C
(1768225981.173986) slcan0 7E8#2216000000000000
(1768225981.193670) slcan0 7DF#0701010304050607
(1768225981.198087) slcan0 7E8#1011410100076100
(1768225981.198326) slcan0 7E0#3000000000000000
(1768225981.203451) slcan0 7E8#210302000438053E
(1768225981.203995) slcan0 7E8#2206830778000000
(1768225981.220574) slcan0 7DF#07010B0C0D0E0F10
(1768225981.228412) slcan0 7E8#100F410B2B0C16F6
(1768225981.228680) slcan0 7E0#3000000000000000
(1768225981.232849) slcan0 7E8#210D000E810F2010
(1768225981.234007) slcan0 7E8#2201E80000000000
(1768225981.251681) slcan0 7DF#0701111314151F21
(1768225981.259127) slcan0 7E8#101141112A130314
(1768225981.259396) slcan0 7E0#3000000000000000
(1768225981.264042) slcan0 7E8#212D8415FFFF1F00
(1768225981.266125) slcan0 7E8#2294210000000000
(1768225981.280662) slcan0 7DF#0701232E30313342
(1768225981.287958) slcan0 7E8#1010412301252E00
(1768225981.288231) slcan0 7E0#3000000000000000
(1768225981.292985) slcan0 7E8#2130FF31867E3361
(1768225981.294055) slcan0 7E8#2242380B00000000
(1768225981.321769) slcan0 7DF#0701434547494A4C
(1768225981.328558) slcan0 7E8#100E414300564510
(1768225981.328709) slcan0 7E0#3000000000000000
(1768225981.333037) slcan0 7E8#21472A49254A134C
(1768225981.333954) slcan0 7E8#2216000000000000
(1768225981.364532) slcan0 7DF#0701010304050607
(1768225981.368078) slcan0 7E8#1011410100076100
(1768225981.368315) slcan0 7E0#3000000000000000
(1768225981.372865) slcan0 7E8#210302000437053E
(1768225981.373987) slcan0 7E8#2206840778000000
(1768225981.409658) slcan0 7DF#07010B0C0D0E0F10
(1768225981.418553) slcan0 7E8#100F410B2A0C172C
(1768225981.418819) slcan0 7E0#3000000000000000
(1768225981.425855) slcan0 7E8#210D000E810F2010
(1768225981.428622) slcan0 7E8#2201EB0000000000
(1768225981.453649) slcan0 7DF#0701111314151F21
(1768225981.458799) slcan0 7E8#101141112A130314
(1768225981.458991) slcan0 7E0#3000000000000000
(1768225981.464189) slcan0 7E8#213E8415FFFF1F00
(1768225981.466141) slcan0 7E8#2294210000000000
(1768225981.484604) slcan0 7DF#0701232E30313342
(1768225981.488214) slcan0 7E8#10104123011C2E00
(1768225981.488447) slcan0 7E0#3000000000000000
(1768225981.492404) slcan0 7E8#2130FF31867E3361
(1768225981.493987) slcan0 7E8#224237AD00000000
(1768225981.530623) slcan0 7DF#0701434547494A4C
(1768225981.538193) slcan0 7E8#100E414300554510
(1768225981.538258) slcan0 7E0#3000000000000000
(1768225981.543557) slcan0 7E8#21472A49264A134C
(1768225981.543942) slcan0 7E8#2216000000000000
(1768225981.561507) slcan0 7DF#0701010304050607
(1768225981.568032) slcan0 7E8#1011410100076100
(1768225981.568216) slcan0 7E0#3000000000000000
(1768225981.573153) slcan0 7E8#210302000436053E
(1768225981.574019) slcan0 7E8#2206850778000000
(1768225981.589527) slcan0 7DF#07010B0C0D0E0F10
(1768225981.598045) slcan0 7E8#100F410B2A0C1722
(1768225981.598394) slcan0 7E0#3000000000000000
(1768225981.604161) slcan0 7E8#210D000E810F2010
(1768225981.606322) slcan0 7E8#2201DD0000000000
(1768225981.620474) slcan0 7DF#0701111314151F21
(1768225981.628551) slcan0 7E8#101141112A130314
(1768225981.628705) slcan0 7E0#3000000000000000
(1768225981.633041) slcan0 7E8#21978215FFFF1F00
(1768225981.634025) slcan0 7E8#2294210000000000
(1768225981.650567) slcan0 7DF#0701232E30313342
(1768225981.658897) slcan0 7E8#1010412301292E00
(1768225981.659130) slcan0 7E0#3000000000000000
(1768225981.664000) slcan0 7E8#2130FF31867E3361
(1768225981.666009) slcan0 7E8#2242380B00000000
(1768225981.690490) slcan0 7DF#0701434547494A4C
(1768225981.698051) slcan0 7E8#100E414300554510
(1768225981.698298) slcan0 7E0#3000000000000000
(1768225981.702484) slcan0 7E8#21472A49254A134C
(1768225981.703902) slcan0 7E8#2216000000000000
(1768225981.723436) slcan0 7DF#0701010304050607
(1768225981.728482) slcan0 7E8#1011410100076100
(1768225981.728762) slcan0 7E0#3000000000000000
(1768225981.732813) slcan0 7E8#210302000436053E
(1768225981.733988) slcan0 7E8#2206820778000000
(1768225981.759580) slcan0 7DF#07010B0C0D0E0F10
(1768225981.768082) slcan0 7E8#100F410B2A0C1722
(1768225981.768244) slcan0 7E0#3000000000000000
(1768225981.773039) slcan0 7E8#210D000E800F2010
(1768225981.773957) slcan0 7E8#2201EB0000000000
(1768225981.789505) slcan0 7DF#0701111314151F21
(1768225981.798346) slcan0 7E8#101141112A130314
(1768225981.798568) slcan0 7E0#3000000000000000
(1768225981.802373) slcan0 7E8#21A38215FFFF1F00
(1768225981.803990) slcan0 7E8#2294210000000000
(1768225981.820537) slcan0 7DF#0701232E30313342
(1768225981.828994) slcan0 7E8#1010412301232E00
(1768225981.829158) slcan0 7E0#3000000000000000
(1768225981.833961) slcan0 7E8#2130FF31867E3361
(1768225981.835922) slcan0 7E8#2242373700000000
(1768225981.851477) slcan0 7DF#0701434547494A4C
(1768225981.859116) slcan0 7E8#100E414300564510
(1768225981.859378) slcan0 7E0#3000000000000000
(1768225981.863866) slcan0 7E8#21472A49254A134C
(1768225981.865874) slcan0 7E8#2216000000000000
(1768225981.881166) slcan0 7DF#0103000000000000
(1768225981.887976) slcan0 7E8#0243000000000000
(1768225981.987235) slcan0 7DF#0107000000000000
(1768225981.997921) slcan0 7E8#0247000000000000
(1768225982.071508) slcan0 7DF#0701010304050607
(1768225982.077885) slcan0 7E8#1011410100076100
(1768225982.078175) slcan0 7E0#3000000000000000
(1768225982.082569) slcan0 7E8#210302000437053E
(1768225982.083889) slcan0 7E8#2206810778000000
(1768225982.130604) slcan0 7DF#07010B0C0D0E0F10
(1768225982.138229) slcan0 7E8#100F410B2A0C1732
(1768225982.138520) slcan0 7E0#3000000000000000
(1768225982.142403) slcan0 7E8#210D000E810F2010
(1768225982.144070) slcan0 7E8#2201F10000000000
(1768225982.172465) slcan0 7DF#0701111314151F21
(1768225982.178080) slcan0 7E8#101141112A130314
(1768225982.178246) slcan0 7E0#3000000000000000
(1768225982.183073) slcan0 7E8#21978015FFFF1F00
(1768225982.184063) slcan0 7E8#2295210000000000
(1768225982.209574) slcan0 7DF#0701232E30313342
(1768225982.219084) slcan0 7E8#1010412301242E00
(1768225982.219287) slcan0 7E0#3000000000000000
(1768225982.226017) slcan0 7E8#2130FF31867E3361
(1768225982.227995) slcan0 7E8#224237AD00000000
(1768225982.249647) slcan0 7DF#0701434547494A4C
(1768225982.259135) slcan0 7E8#100E414300564510
(1768225982.259382) slcan0 7E0#3000000000000000
(1768225982.264165) slcan0 7E8#21472A49264A134C
(1768225982.266351) slcan0 7E8#2216000000000000
(1768225982.294560) slcan0 7DF#0701010304050607
(1768225982.298175) slcan0 7E8#1011410100076100
(1768225982.298194) slcan0 7E0#3000000000000000
(1768225982.302531) slcan0 7E8#210302000437053E
(1768225982.304018) slcan0 7E8#2206800778000000
(1768225982.334473) slcan0 7DF#07010B0C0D0E0F10
(1768225982.338336) slcan0 7E8#100F410B2A0C1732
(1768225982.338619) slcan0 7E0#3000000000000000
(1768225982.342418) slcan0 7E8#210D000E800F2010
(1768225982.343907) slcan0 7E8#2201E60000000000
(1768225982.371510) slcan0 7DF#0701111314151F21
(1768225982.377910) slcan0 7E8#101141112A130314
(1768225982.378161) slcan0 7E0#3000000000000000
(1768225982.382501) slcan0 7E8#21378015FFFF1F00
(1768225982.383903) slcan0 7E8#2295210000000000
(1768225982.428626) slcan0 7DF#0701232E30313342
(1768225982.438018) slcan0 7E8#1010412301272E00
(1768225982.438258) slcan0 7E0#3000000000000000
(1768225982.442410) slcan0 7E8#2130FF31867E3361
(1768225982.443929) slcan0 7E8#224237AD00000000
(1768225982.499564) slcan0 7DF#0701434547494A4C
(1768225982.507956) slcan0 7E8#100E414300554510
(1768225982.508352) slcan0 7E0#3000000000000000
(1768225982.512653) slcan0 7E8#21472A49254A134C
(1768225982.514006) slcan0 7E8#2216000000000000
(1768225982.546597) slcan0 7DF#0701010304050607
(1768225982.548016) slcan0 7E8#1011410100076100
(1768225982.548150) slcan0 7E0#3000000000000000
(1768225982.555625) slcan0 7E8#210302000437053F
(1768225982.555999) slcan0 7E8#2206800778000000
(1768225982.579631) slcan0 7DF#07010B0C0D0E0F10
(1768225982.588009) slcan0 7E8#100F410B2B0C170E
(1768225982.588151) slcan0 7E0#3000000000000000
(1768225982.592741) slcan0 7E8#210D000E810F2010
(1768225982.594009) slcan0 7E8#2201E80000000000
(1768225982.623622) slcan0 7DF#0701111314151F21
(1768225982.628395) slcan0 7E8#101141112A130314
(1768225982.628542) slcan0 7E0#3000000000000000
(1768225982.632712) slcan0 7E8#21288315FFFF1F00
(1768225982.634036) slcan0 7E8#2295210000000000
(1768225982.674523) slcan0 7DF#0701232E30313342
(1768225982.677928) slcan0 7E8#1010412301232E00
(1768225982.678150) slcan0 7E0#3000000000000000
(1768225982.682517) slcan0 7E8#2130FF31867E3361
(1768225982.683891) slcan0 7E8#2242380B00000000
(1768225982.700582) slcan0 7DF#0701434547494A4C
(1768225982.708006) slcan0 7E8#100E414300574510
(1768225982.708148) slcan0 7E0#3000000000000000
(1768225982.712995) slcan0 7E8#21472A49254A134C
(1768225982.714041) slcan0 7E8#2216000000000000
(1768225982.733690) slcan0 7DF#0701010304050607
(1768225982.738096) slcan0 7E8#1011410100076100
(1768225982.738168) slcan0 7E0#3000000000000000
(1768225982.742415) slcan0 7E8#210302000438053F
(1768225982.744036) slcan0 7E8#2206830778000000
(1768225982.773647) slcan0 7DF#07010B0C0D0E0F10
(1768225982.777986) slcan0 7E8#100F410B2B0C170E
(1768225982.778332) slcan0 7E0#3000000000000000
(1768225982.782837) slcan0 7E8#210D000E800F2010
(1768225982.784022) slcan0 7E8#2201F90000000000
(1768225982.814709) slcan0 7DF#0701111314151F21
(1768225982.818735) slcan0 7E8#101141112A130314
(1768225982.819012) slcan0 7E0#3000000000000000
(1768225982.826113) slcan0 7E8#21278315FFFF1F00
(1768225982.828024) slcan0 7E8#2296210000000000
(1768225982.859712) slcan0 7DF#0701232E30313342
(1768225982.868571) slcan0 7E8#1010412301252E00
(1768225982.868732) slcan0 7E0#3000000000000000
(1768225982.873014) slcan0 7E8#2130FF31867E3361
(1768225982.873999) slcan0 7E8#2242373700000000
(1768225982.899676) slcan0 7DF#0701434547494A4C
(1768225982.908085) slcan0 7E8#100E414300554510
(1768225982.908240) slcan0 7E0#3000000000000000
(1768225982.915218) slcan0 7E8#21472A49254A134C
(1768225982.916011) slcan0 7E8#2216000000000000
(1768225982.961955) slcan0 7DF#0701010304050607
(1768225982.968095) slcan0 7E8#1011410100076100
(1768225982.968346) slcan0 7E0#3000000000000000
(1768225982.973114) slcan0 7E8#210302000436053F
(1768225982.975194) slcan0 7E8#2206840778000000
(1768225983.005796) slcan0 7DF#07010B0C0D0E0F10
(1768225983.008150) slcan0 7E8#100F410B2A0C172C
(1768225983.008327) slcan0 7E0#3000000000000000
(1768225983.013997) slcan0 7E8#210D000E800F2010
(1768225983.016117) slcan0 7E8#2201E60000000000
(1768225983.051679) slcan0 7DF#0701111314151F21
(1768225983.058847) slcan0 7E8#101141112A130314
(1768225983.059122) slcan0 7E0#3000000000000000
(1768225983.064069) slcan0 7E8#21448415FFFF1F00
(1768225983.065869) slcan0 7E8#2296210000000000
(1768225983.088743) slcan0 7DF#0701232E30313342
(1768225983.097923) slcan0 7E8#1010412301202E00
(1768225983.098202) slcan0 7E0#3000000000000000
(1768225983.102407) slcan0 7E8#2130FF31867E3361
(1768225983.103965) slcan0 7E8#224237AD00000000
(1768225983.129672) slcan0 7DF#0701434547494A4C
(1768225983.137986) slcan0 7E8#100E414300564510
(1768225983.138226) slcan0 7E0#3000000000000000
(1768225983.142548) slcan0 7E8#21472A49254A134C
(1768225983.144123) slcan0 7E8#2216000000000000
(1768225983.166824) slcan0 7DF#0701010304050607
(1768225983.168036) slcan0 7E8#1011410100076100
(1768225983.168263) slcan0 7E0#3000000000000000
(1768225983.173635) slcan0 7E8#210302000437053F
(1768225983.174050) slcan0 7E8#2206850778000000
(1768225983.203788) slcan0 7DF#07010B0C0D0E0F10
(1768225983.208044) slcan0 7E8#100F410B2A0C1726
(1768225983.208223) slcan0 7E0#3000000000000000
(1768225983.213618) slcan0 7E8#210D000E7E0F2010
(1768225983.215410) slcan0 7E8#2201F10000000000
(1768225983.241758) slcan0 7DF#0701111314151F21
(1768225983.248089) slcan0 7E8#101141112A130314
(1768225983.248111) slcan0 7E0#3000000000000000
(1768225983.255736) slcan0 7E8#215E8515FFFF1F00
(1768225983.257960) slcan0 7E8#2296210000000000
(1768225983.280742) slcan0 7DF#0701232E30313342
(1768225983.288087) slcan0 7E8#10104123011F2E00
(1768225983.288319) slcan0 7E0#3000000000000000
(1768225983.293251) slcan0 7E8#2130FF31867E3361
(1768225983.295178) slcan0 7E8#2242377E00000000
(1768225983.318707) slcan0 7DF#0701434547494A4C
(1768225983.328044) slcan0 7E8#100E414300544510
(1768225983.328117) slcan0 7E0#3000000000000000
(1768225983.332897) slcan0 7E8#21472A49254A134C
(1768225983.335003) slcan0 7E8#2216000000000000
(1768225983.363703) slcan0 7DF#0701010304050607
(1768225983.368010) slcan0 7E8#1011410100076100
(1768225983.368184) slcan0 7E0#3000000000000000
(1768225983.373451) slcan0 7E8#210302000436053F
(1768225983.373881) slcan0 7E8#2206850778000000
(1768225983.390885) slcan0 7DF#07010B0C0D0E0F10
(1768225983.398063) slcan0 7E8#100F410B2A0C1730
(1768225983.398222) slcan0 7E0#3000000000000000
(1768225983.402382) slcan0 7E8#210D000E800F2010
(1768225983.404011) slcan0 7E8#2201F10000000000
(1768225983.428621) slcan0 7DF#0701111314151F21
(1768225983.438009) slcan0 7E8#101141112A130314
(1768225983.438161) slcan0 7E0#3000000000000000
(1768225983.442725) slcan0 7E8#219A8315FFFF1F00
(1768225983.443894) slcan0 7E8#2296210000000000
(1768225983.469624) slcan0 7DF#0701232E30313342
(1768225983.477909) slcan0 7E8#10104123011B2E00
(1768225983.478189) slcan0 7E0#3000000000000000
(1768225983.482781) slcan0 7E8#2130FF31867E3361
(1768225983.483875) slcan0 7E8#224237AD00000000
(1768225983.514609) slcan0 7DF#0701434547494A4C
(1768225983.518499) slcan0 7E8#100E414300554510
(1768225983.518776) slcan0 7E0#3000000000000000
(1768225983.525392) slcan0 7E8#21472A49254A134C
(1768225983.525903) slcan0 7E8#2216000000000000
(1768225983.558495) slcan0 7DF#0701010304050607
(1768225983.568005) slcan0 7E8#1011410100076100
(1768225983.568201) slcan0 7E0#3000000000000000
(1768225983.573330) slcan0 7E8#210302000437053F
(1768225983.574989) slcan0 7E8#2206820778000000
(1768225983.621696) slcan0 7DF#07010B0C0D0E0F10
(1768225983.627986) slcan0 7E8#100F410B2A0C172A
(1768225983.628157) slcan0 7E0#3000000000000000
(1768225983.633181) slcan0 7E8#210D000E800F2010
(1768225983.635012) slcan0 7E8#2201E30000000000
(1768225983.664563) slcan0 7DF#0701111314151F21
(1768225983.667992) slcan0 7E8#101141112A130314
(1768225983.668147) slcan0 7E0#3000000000000000
(1768225983.673596) slcan0 7E8#213A8215FFFF1F00
(1768225983.675804) slcan0 7E8#2296210000000000
(1768225983.703490) slcan0 7DF#0701232E30313342
(1768225983.707986) slcan0 7E8#1010412301262E00
(1768225983.708183) slcan0 7E0#3000000000000000
(1768225983.715650) slcan0 7E8#2130FF31867E3361
(1768225983.718535) slcan0 7E8#2242380B00000000
(1768225983.753584) slcan0 7DF#0701434547494A4C
(1768225983.758116) slcan0 7E8#100E414300554510
(1768225983.758234) slcan0 7E0#3000000000000000
(1768225983.762817) slcan0 7E8#21472A49264A134C
(1768225983.764014) slcan0 7E8#2216000000000000
(1768225983.801724) slcan0 7DF#0701010304050607
(1768225983.808025) slcan0 7E8#1011410100076100
(1768225983.808203) slcan0 7E0#3000000000000000
(1768225983.812812) slcan0 7E8#210302000436053F
(1768225983.815664) slcan0 7E8#2206820778000000
(1768225983.838633) slcan0 7DF#07010B0C0D0E0F10
(1768225983.848074) slcan0 7E8#100F410B2A0C172A
(1768225983.848239) slcan0 7E0#3000000000000000
(1768225983.855924) slcan0 7E8#210D000E810F2010
(1768225983.857968) slcan0 7E8#2201E30000000000
(1768225983.874611) slcan0 7DF#0701111314151F21
(1768225983.878060) slcan0 7E8#101141112A130314
(1768225983.878247) slcan0 7E0#3000000000000000
(1768225983.883083) slcan0 7E8#21348215FFFF1F00
(1768225983.883878) slcan0 7E8#2297210000000000
(1768225983.914620) slcan0 7DF#0701232E30313342
(1768225983.918609) slcan0 7E8#10104123011C2E00
(1768225983.918810) slcan0 7E0#3000000000000000
(1768225983.925875) slcan0 7E8#2130FF31867E3361
(1768225983.927932) slcan0 7E8#2242370800000000
(1768225983.955566) slcan0 7DF#0701434547494A4C
(1768225983.958885) slcan0 7E8#100E414300564510
(1768225983.958935) slcan0 7E0#3000000000000000
(1768225983.964004) slcan0 7E8#21472A49254A134C
(1768225983.966001) slcan0 7E8#2216000000000000
(1768225984.004561) slcan0 7DF#0701010304050607
(1768225984.008070) slcan0 7E8#1011410100076100
(1768225984.008297) slcan0 7E0#3000000000000000
(1768225984.012846) slcan0 7E8#210302000437053F
(1768225984.015617) slcan0 7E8#2206850778000000
(1768225984.038442) slcan0 7DF#07010B0C0D0E0F10
(1768225984.048069) slcan0 7E8#100F410B2A0C1722
(1768225984.048205) slcan0 7E0#3000000000000000
(1768225984.055856) slcan0 7E8#210D000E7E0F2010
(1768225984.057966) slcan0 7E8#2201EB0000000000
(1768225984.076678) slcan0 7DF#0701111314151F21
(1768225984.077840) slcan0 7E8#101141112A130314
(1768225984.078092) slcan0 7E0#3000000000000000
(1768225984.082717) slcan0 7E8#212D8515FFFF1F00
(1768225984.083970) slcan0 7E8#2297210000000000
(1768225984.121438) slcan0 7DF#0701232E30313342
(1768225984.128072) slcan0 7E8#1010412301192E00
(1768225984.128128) slcan0 7E0#3000000000000000
(1768225984.132883) slcan0 7E8#2130FF31867E3361
(1768225984.135393) slcan0 7E8#224237C500000000
(1768225984.153634) slcan0 7DF#0701434547494A4C
(1768225984.157911) slcan0 7E8#100E414300544510
(1768225984.158156) slcan0 7E0#3000000000000000
(1768225984.163073) slcan0 7E8#21472A49254A134C
(1768225984.164106) slcan0 7E8#2216000000000000
(1768225984.181609) slcan0 7DF#0701010304050607
(1768225984.188038) slcan0 7E8#1011410100076100
(1768225984.188219) slcan0 7E0#3000000000000000
(1768225984.192835) slcan0 7E8#210302000436053F
(1768225984.195980) slcan0 7E8#2206860778000000
(1768225984.213461) slcan0 7DF#07010B0C0D0E0F10
(1768225984.218656) slcan0 7E8#100F410B2A0C1734
(1768225984.218891) slcan0 7E0#3000000000000000
(1768225984.226090) slcan0 7E8#210D000E810F2010
(1768225984.228054) slcan0 7E8#2201D20000000000
(1768225984.264842) slcan0 7DF#0701111314151F21
(1768225984.268000) slcan0 7E8#101141112A130314
(1768225984.268243) slcan0 7E0#3000000000000000
(1768225984.273488) slcan0 7E8#21488615FFFF1F00
(1768225984.273888) slcan0 7E8#2297210000000000
(1768225984.343551) slcan0 7DF#0701232E30313342
(1768225984.348058) slcan0 7E8#1010412301182E00
(1768225984.348197) slcan0 7E0#3000000000000000
(1768225984.356127) slcan0 7E8#2130FF31867E3361
(1768225984.357812) slcan0 7E8#2242380B00000000
(1768225984.390540) slcan0 7DF#0701434547494A4C
(1768225984.398078) slcan0 7E8#100E414300534510
(1768225984.398101) slcan0 7E0#3000000000000000
(1768225984.402695) slcan0 7E8#21472A49254A134C
(1768225984.403981) slcan0 7E8#2216000000000000
(1768225984.440578) slcan0 7DF#0701010304050607
(1768225984.448107) slcan0 7E8#1011410100076100
(1768225984.448280) slcan0 7E0#3000000000000000
(1768225984.455731) slcan0 7E8#210302000435053F
(1768225984.457877) slcan0 7E8#2206830778000000
(1768225984.505578) slcan0 7DF#07010B0C0D0E0F10
(1768225984.507991) slcan0 7E8#100F410B2A0C173E
(1768225984.508176) slcan0 7E0#3000000000000000
(1768225984.513089) slcan0 7E8#210D000E810F2010
(1768225984.513896) slcan0 7E8#2201E00000000000
(1768225984.555503) slcan0 7DF#0701111314151F21
(1768225984.557934) slcan0 7E8#101141112A130314
(1768225984.558148) slcan0 7E0#3000000000000000
(1768225984.562776) slcan0 7E8#219E8315FFFF1F00
(1768225984.563909) slcan0 7E8#2297210000000000
(1768225984.611603) slcan0 7DF#0701232E30313342
(1768225984.618562) slcan0 7E8#1010412301182E00
(1768225984.618810) slcan0 7E0#3000000000000000
(1768225984.625204) slcan0 7E8#2130FF31867E3361
(1768225984.625889) slcan0 7E8#224237DC00000000
(1768225984.658445) slcan0 7DF#0701434547494A4C
(1768225984.667875) slcan0 7E8#100E414300544510
(1768225984.668088) slcan0 7E0#3000000000000000
(1768225984.673082) slcan0 7E8#21472A49254A134C
(1768225984.673811) slcan0 7E8#2216000000000000
(1768225984.698358) slcan0 7DF#0701010304050607
(1768225984.707973) slcan0 7E8#1011410100076100
(1768225984.708097) slcan0 7E0#3000000000000000
(1768225984.712962) slcan0 7E8#210302000436053F
(1768225984.714057) slcan0 7E8#2206820778000000
(1768225984.734503) slcan0 7DF#07010B0C0D0E0F10
(1768225984.738074) slcan0 7E8#100F410B2A0C1712
(1768225984.738214) slcan0 7E0#3000000000000000
(1768225984.742993) slcan0 7E8#210D000E810F2010
(1768225984.743821) slcan0 7E8#2201D80000000000
(1768225984.764404) slcan0 7DF#0701111314151F21
(1768225984.768011) slcan0 7E8#101141112A130314
(1768225984.768149) slcan0 7E0#3000000000000000
(1768225984.773230) slcan0 7E8#215D8215FFFF1F00
(1768225984.773997) slcan0 7E8#2297210000000000
(1768225984.789515) slcan0 7DF#0701232E30313342
(1768225984.798049) slcan0 7E8#1010412301272E00
(1768225984.798206) slcan0 7E0#3000000000000000
(1768225984.802566) slcan0 7E8#2130FF31867E3361
(1768225984.803864) slcan0 7E8#224237AD00000000
(1768225984.832524) slcan0 7DF#0701434547494A4C
(1768225984.838038) slcan0 7E8#100E414300544510
(1768225984.838099) slcan0 7E0#3000000000000000
(1768225984.842905) slcan0 7E8#21472A49254A134C
(1768225984.843936) slcan0 7E8#2216000000000000
(1768225984.870523) slcan0 7DF#0701010304050607
(1768225984.878059) slcan0 7E8#1011410100076100
(1768225984.878202) slcan0 7E0#3000000000000000
(1768225984.883161) slcan0 7E8#210302000436053F
(1768225984.883851) slcan0 7E8#2206820778000000
(1768225984.920556) slcan0 7DF#07010B0C0D0E0F10
(1768225984.928068) slcan0 7E8#100F410B2A0C1732
(1768225984.928265) slcan0 7E0#3000000000000000
(1768225984.933199) slcan0 7E8#210D000E800F2010
(1768225984.934005) slcan0 7E8#2201E30000000000
(1768225984.988452) slcan0 7DF#0701111314151F21
(1768225984.998128) slcan0 7E8#101141112A130314
(1768225984.998287) slcan0 7E0#3000000000000000
(1768225985.002672) slcan0 7E8#21328215FFFF1F00
(1768225985.003949) slcan0 7E8#2298210000000000
(1768225985.049470) slcan0 7DF#0701232E30313342
(1768225985.058015) slcan0 7E8#1010412301282E00
(1768225985.058213) slcan0 7E0#3000000000000000
(1768225985.063042) slcan0 7E8#2130FF31867E3361
(1768225985.063873) slcan0 7E8#224237DC00000000
(1768225985.080442) slcan0 7DF#0701434547494A4C
(1768225985.087910) slcan0 7E8#100E414300554510
(1768225985.088177) slcan0 7E0#3000000000000000
(1768225985.092668) slcan0 7E8#21472A49264A134C
(1768225985.093784) slcan0 7E8#2216000000000000
(1768225985.145029) slcan0 7DF#0103000000000000
(1768225985.147976) slcan0 7E8#0243000000000000
(1768225985.243066) slcan0 7DF#0107000000000000
(1768225985.248013) slcan0 7E8#0247000000000000
(1768225985.392376) slcan0 7DF#0701010304050607
(1768225985.398011) slcan0 7E8#1011410100076100
(1768225985.398151) slcan0 7E0#3000000000000000
(1768225985.403148) slcan0 7E8#210302000436053F
(1768225985.403912) slcan0 7E8#2206860778000000
(1768225985.523372) slcan0 7DF#07010B0C0D0E0F10
(1768225985.528007) slcan0 7E8#100F410B2A0C171A
(1768225985.528125) slcan0 7E0#3000000000000000
(1768225985.533084) slcan0 7E8#210D000E800F2010
(1768225985.533728) slcan0 7E8#2201EE0000000000
(1768225985.643224) slcan0 7DF#0701111314151F21
(1768225985.648012) slcan0 7E8#101141112A130314
(1768225985.648211) slcan0 7E0#3000000000000000
(1768225985.655190) slcan0 7E8#21A58315FFFF1F00
(1768225985.655770) slcan0 7E8#2298210000000000
(1768225985.697658) slcan0 7DF#0701232E30313342
(1768225985.707983) slcan0 7E8#1010412301272E00
(1768225985.708197) slcan0 7E0#3000000000000000
(1768225985.713022) slcan0 7E8#2130FF31867E3361
(1768225985.713817) slcan0 7E8#224237F400000000
(1768225985.837253) slcan0 7DF#0701434547494A4C
(1768225985.848027) slcan0 7E8#100E414300554510
(1768225985.848047) slcan0 7E0#3000000000000000
(1768225985.855357) slcan0 7E8#21472A49254A134C
(1768225985.855977) slcan0 7E8#2216000000000000
(1768225985.898280) slcan0 7DF#0701010304050607
(1768225985.908062) slcan0 7E8#1011410100076100
(1768225985.908249) slcan0 7E0#3000000000000000
(1768225985.912832) slcan0 7E8#210302000437053F
(1768225985.913765) slcan0 7E8#2206820778000000
(1768225986.006215) slcan0 7DF#07010B0C0D0E0F10
(1768225986.008064) slcan0 7E8#100F410B2A0C1714
(1768225986.008243) slcan0 7E0#3000000000000000
(1768225986.012863) slcan0 7E8#210D000E810F2010
(1768225986.013793) slcan0 7E8#2201E00000000000
(1768225986.064250) slcan0 7DF#0701111314151F21
(1768225986.067936) slcan0 7E8#101141112A130314
(1768225986.068182) slcan0 7E0#3000000000000000
(1768225986.073141) slcan0 7E8#219D8115FFFF1F00
(1768225986.073802) slcan0 7E8#2299210000000000
(1768225986.122118) slcan0 7DF#0701232E30313342
(1768225986.127878) slcan0 7E8#1010412301172E00
(1768225986.128083) slcan0 7E0#3000000000000000
(1768225986.132736) slcan0 7E8#2130FF31867E3361
(1768225986.133771) slcan0 7E8#2242379500000000
(1768225986.168096) slcan0 7DF#0701434547494A4C
(1768225986.177883) slcan0 7E8#100E414300544510
(1768225986.178173) slcan0 7E0#3000000000000000
(1768225986.182996) slcan0 7E8#21472A49254A134C
(1768225986.185102) slcan0 7E8#2216000000000000
(1768225986.221142) slcan0 7DF#0701010304050607
(1768225986.228052) slcan0 7E8#1011410100076100
(1768225986.228207) slcan0 7E0#3000000000000000
(1768225986.233041) slcan0 7E8#210302000437053F
(1768225986.233846) slcan0 7E8#2206800778000000
(1768225986.268210) slcan0 7DF#07010B0C0D0E0F10
(1768225986.278051) slcan0 7E8#100F410B2A0C16FC
(1768225986.278148) slcan0 7E0#3000000000000000
(1768225986.282810) slcan0 7E8#210D000E810F2010
(1768225986.283877) slcan0 7E8#2201EE0000000000
(1768225986.313186) slcan0 7DF#0701111314151F21
(1768225986.317971) slcan0 7E8#101141112A130314
(1768225986.318231) slcan0 7E0#3000000000000000
(1768225986.326553) slcan0 7E8#21278015FFFF1F00
(1768225986.328034) slcan0 7E8#2299210000000000
(1768225986.374029) slcan0 7DF#0701232E30313342
(1768225986.378029) slcan0 7E8#10104123011A2E00
(1768225986.378131) slcan0 7E0#3000000000000000
(1768225986.383043) slcan0 7E8#2130FF31867E3361
(1768225986.383866) slcan0 7E8#224237DC00000000
(1768225986.425943) slcan0 7DF#0701434547494A4C
(1768225986.427803) slcan0 7E8#100E414300554510
(1768225986.428121) slcan0 7E0#3000000000000000
(1768225986.432787) slcan0 7E8#21472A49264A134C
(1768225986.433827) slcan0 7E8#2216000000000000
(1768225986.457034) slcan0 7DF#0701010304050607
(1768225986.468003) slcan0 7E8#1011410100076100
(1768225986.468153) slcan0 7E0#3000000000000000
(1768225986.473068) slcan0 7E8#210302000437053F
(1768225986.473860) slcan0 7E8#2206800778000000
(1768225986.512022) slcan0 7DF#07010B0C0D0E0F10
(1768225986.517793) slcan0 7E8#100F410B2A0C16D2
(1768225986.518138) slcan0 7E0#3000000000000000
(1768225986.525143) slcan0 7E8#210D000E830F2010
(1768225986.526865) slcan0 7E8#2201DD0000000000
(1768225986.563009) slcan0 7DF#0701111314151F21
(1768225986.567846) slcan0 7E8#101141112A130314
(1768225986.568136) slcan0 7E0#3000000000000000
(1768225986.572936) slcan0 7E8#21288315FFFF1F00
(1768225986.573764) slcan0 7E8#2299210000000000
(1768225986.606973) slcan0 7DF#0701232E30313342
(1768225986.617892) slcan0 7E8#1010412301192E00
(1768225986.618162) slcan0 7E0#3000000000000000
(1768225986.626299) slcan0 7E8#2130FF31867E3361
(1768225986.627748) slcan0 7E8#2242380B00000000
(1768225986.641028) slcan0 7DF#0701434547494A4C
(1768225986.647870) slcan0 7E8#100E414300534510
(1768225986.648143) slcan0 7E0#3000000000000000
(1768225986.653964) slcan0 7E8#21472949254A134C
(1768225986.655712) slcan0 7E8#2216000000000000
(1768225986.695975) slcan0 7DF#0701010304050607
(1768225986.697851) slcan0 7E8#1011410100076100
(1768225986.698092) slcan0 7E0#3000000000000000
(1768225986.702371) slcan0 7E8#210302000436053F
(1768225986.703823) slcan0 7E8#2206830778000000
(1768225986.742022) slcan0 7DF#07010B0C0D0E0F10
(1768225986.747938) slcan0 7E8#100F410B2A0C16CA
(1768225986.748149) slcan0 7E0#3000000000000000
(1768225986.755529) slcan0 7E8#210D000E830F2010
(1768225986.755750) slcan0 7E8#2201E60000000000
(1768225986.777026) slcan0 7DF#0701111314151F21
(1768225986.778017) slcan0 7E8#101141112A130314
(1768225986.778182) slcan0 7E0#3000000000000000
(1768225986.782564) slcan0 7E8#21288415FFFF1F00
(1768225986.783834) slcan0 7E8#2299210000000000
(1768225986.835942) slcan0 7DF#0701232E30313342
(1768225986.837878) slcan0 7E8#1010412301192E00
(1768225986.838110) slcan0 7E0#3000000000000000
(1768225986.842545) slcan0 7E8#2130FF31867E3361
(1768225986.843842) slcan0 7E8#2242382300000000
(1768225986.867047) slcan0 7DF#0701434547494A4C
(1768225986.877914) slcan0 7E8#100E414300534510
(1768225986.878191) slcan0 7E0#3000000000000000
(1768225986.882463) slcan0 7E8#21472A49254A134C
(1768225986.883769) slcan0 7E8#2216000000000000
(1768225986.910912) slcan0 7DF#0701010304050607
(1768225986.917975) slcan0 7E8#1011410100076100
(1768225986.918132) slcan0 7E0#3000000000000000
(1768225986.925388) slcan0 7E8#210302000435053F
(1768225986.925783) slcan0 7E8#2206840778000000
(1768225986.951076) slcan0 7DF#07010B0C0D0E0F10
(1768225986.958022) slcan0 7E8#100F410B2A0C16FA
(1768225986.958346) slcan0 7E0#3000000000000000
(1768225986.962508) slcan0 7E8#210D000E810F2010
(1768225986.963873) slcan0 7E8#2201EB0000000000
(1768225986.982779) slcan0 7DF#0701111314151F21
(1768225986.987817) slcan0 7E8#101141112A130314
(1768225986.988019) slcan0 7E0#3000000000000000
(1768225986.992614) slcan0 7E8#21288415FFFF1F00
(1768225986.993765) slcan0 7E8#229A210000000000
(1768225987.017862) slcan0 7DF#0701232E30313342
(1768225987.029580) slcan0 7E8#1010412301192E00
(1768225987.029844) slcan0 7E0#3000000000000000
(1768225987.033704) slcan0 7E8#2130FF31867E3361
(1768225987.035760) slcan0 7E8#224237C500000000
(1768225987.081722) slcan0 7DF#0701434547494A4C
(1768225987.087857) slcan0 7E8#100E414300544510
(1768225987.088260) slcan0 7E0#3000000000000000
(1768225987.092505) slcan0 7E8#21472A49264A134C
(1768225987.093614) slcan0 7E8#2216000000000000
(1768225987.121753) slcan0 7DF#0701010304050607
(1768225987.127876) slcan0 7E8#1011410100076100
(1768225987.128044) slcan0 7E0#3000000000000000
(1768225987.133875) slcan0 7E8#210302000435053F
(1768225987.135746) slcan0 7E8#2206850778000000
(1768225987.172820) slcan0 7DF#07010B0C0D0E0F10
(1768225987.178000) slcan0 7E8#100F410B2A0C1732
(1768225987.178163) slcan0 7E0#3000000000000000
(1768225987.182541) slcan0 7E8#210D000E810F2010
(1768225987.183829) slcan0 7E8#2201DD0000000000
(1768225987.211785) slcan0 7DF#0701111314151F21
(1768225987.217850) slcan0 7E8#101141112A130314
(1768225987.218087) slcan0 7E0#3000000000000000
(1768225987.225137) slcan0 7E8#212D8515FFFF1F00
(1768225987.225849) slcan0 7E8#229A210000000000
(1768225987.252852) slcan0 7DF#0701232E30313342
(1768225987.257852) slcan0 7E8#1010412301272E00
(1768225987.258150) slcan0 7E0#3000000000000000
(1768225987.262551) slcan0 7E8#2130FF31867E3361
(1768225987.263816) slcan0 7E8#2242380B00000000
(1768225987.285875) slcan0 7DF#0701434547494A4C
(1768225987.287919) slcan0 7E8#100E414300544510
(1768225987.288162) slcan0 7E0#3000000000000000
(1768225987.292613) slcan0 7E8#21472A49254A134C
(1768225987.293800) slcan0 7E8#2216000000000000
(1768225987.341861) slcan0 7DF#0701010304050607
(1768225987.347852) slcan0 7E8#1011410100076100
(1768225987.348002) slcan0 7E0#3000000000000000
(1768225987.355334) slcan0 7E8#210302000435053F
(1768225987.355842) slcan0 7E8#2206860778000000
(1768225987.379827) slcan0 7DF#07010B0C0D0E0F10
(1768225987.387863) slcan0 7E8#100F410B2A0C1758
(1768225987.388036) slcan0 7E0#3000000000000000
(1768225987.393846) slcan0 7E8#210D000E810F2010
(1768225987.395848) slcan0 7E8#2201D80000000000
(1768225987.431828) slcan0 7DF#0701111314151F21
(1768225987.437967) slcan0 7E8#101141112A130314
(1768225987.438206) slcan0 7E0#3000000000000000
(1768225987.442517) slcan0 7E8#219F8315FFFF1F00
(1768225987.443839) slcan0 7E8#229A210000000000
(1768225987.470836) slcan0 7DF#0701232E30313342
(1768225987.477927) slcan0 7E8#10104123012A2E00
(1768225987.478182) slcan0 7E0#3000000000000000
(1768225987.482513) slcan0 7E8#2130FF31867E3361
(1768225987.483815) slcan0 7E8#2242372000000000
(1768225987.527865) slcan0 7DF#0701434547494A4C
(1768225987.537921) slcan0 7E8#100E414300534510
(1768225987.538159) slcan0 7E0#3000000000000000
(1768225987.542338) slcan0 7E8#21472A49254A134C
(1768225987.543726) slcan0 7E8#2216000000000000
(1768225987.585848) slcan0 7DF#0701010304050607
(1768225987.587867) slcan0 7E8#1011410100076100
(1768225987.588010) slcan0 7E0#3000000000000000
(1768225987.592881) slcan0 7E8#210302000434053F
(1768225987.593761) slcan0 7E8#2206830778000000
(1768225987.631629) slcan0 7DF#07010B0C0D0E0F10
(1768225987.637978) slcan0 7E8#100F410B2A0C1734
(1768225987.638095) slcan0 7E0#3000000000000000
(1768225987.642883) slcan0 7E8#210D000E800F2010
(1768225987.643589) slcan0 7E8#2201EB0000000000
(1768225987.665653) slcan0 7DF#0701111314151F21
(1768225987.667690) slcan0 7E8#101141112A130314
(1768225987.668001) slcan0 7E0#3000000000000000
(1768225987.673069) slcan0 7E8#21A38315FFFF1F00
(1768225987.673598) slcan0 7E8#229A210000000000
(1768225987.691566) slcan0 7DF#0701232E30313342
(1768225987.697878) slcan0 7E8#1010412301192E00
(1768225987.698178) slcan0 7E0#3000000000000000
(1768225987.702273) slcan0 7E8#2130FF31867E3361
(1768225987.703822) slcan0 7E8#224237F400000000
(1768225987.724813) slcan0 7DF#0701434547494A4C
(1768225987.727903) slcan0 7E8#100E414300544510
(1768225987.728146) slcan0 7E0#3000000000000000
(1768225987.733391) slcan0 7E8#21472A49254A134C
(1768225987.735030) slcan0 7E8#2216000000000000
(1768225987.776658) slcan0 7DF#0701010304050607
(1768225987.777899) slcan0 7E8#1011410100076100
(1768225987.778202) slcan0 7E0#3000000000000000
(1768225987.782483) slcan0 7E8#210302000436053F
(1768225987.784956) slcan0 7E8#2206820778000000
(1768225987.835745) slcan0 7DF#07010B0C0D0E0F10
(1768225987.837906) slcan0 7E8#100F410B2A0C173C
(1768225987.838203) slcan0 7E0#3000000000000000
(1768225987.842597) slcan0 7E8#210D000E800F2010
(1768225987.844993) slcan0 7E8#2201E30000000000
(1768225987.890582) slcan0 7DF#0701111314151F21
(1768225987.897865) slcan0 7E8#101141112A130314
(1768225987.898118) slcan0 7E0#3000000000000000
(1768225987.902138) slcan0 7E8#21948215FFFF1F00
(1768225987.904833) slcan0 7E8#229B210000000000
(1768225987.931586) slcan0 7DF#0701232E30313342
(1768225987.937976) slcan0 7E8#1010412301222E00
(1768225987.938192) slcan0 7E0#3000000000000000
(1768225987.942880) slcan0 7E8#2130FF31867E3361
(1768225987.945022) slcan0 7E8#2242380B00000000
(1768225987.984648) slcan0 7DF#0701434547494A4C
(1768225987.987962) slcan0 7E8#100E414300544510
(1768225987.987997) slcan0 7E0#3000000000000000
(1768225987.993408) slcan0 7E8#21472A49264A134C
(1768225987.993771) slcan0 7E8#2216000000000000
(1768225988.043602) slcan0 7DF#0701010304050607
(1768225988.047819) slcan0 7E8#1011410100076100
(1768225988.048195) slcan0 7E0#3000000000000000
(1768225988.055828) slcan0 7E8#210302000436053F
(1768225988.057676) slcan0 7E8#2206810778000000
(1768225988.096628) slcan0 7DF#07010B0C0D0E0F10
(1768225988.097776) slcan0 7E8#100F410B2A0C1710
(1768225988.098029) slcan0 7E0#3000000000000000
(1768225988.102058) slcan0 7E8#210D000E800F2010
(1768225988.103667) slcan0 7E8#2201E30000000000
(1768225988.148490) slcan0 7DF#0701111314151F21
(1768225988.157891) slcan0 7E8#101141112A130314
(1768225988.158128) slcan0 7E0#3000000000000000
(1768225988.162518) slcan0 7E8#21988015FFFF1F00
(1768225988.163734) slcan0 7E8#229B210000000000
(1768225988.190618) slcan0 7DF#0701232E30313342
(1768225988.197889) slcan0 7E8#10104123012A2E00
(1768225988.198018) slcan0 7E0#3000000000000000
(1768225988.202062) slcan0 7E8#2130FF31867E3361
(1768225988.203818) slcan0 7E8#224237C500000000
(1768225988.234656) slcan0 7DF#0701434547494A4C
(1768225988.237847) slcan0 7E8#100E414300554510
(1768225988.238136) slcan0 7E0#3000000000000000
(1768225988.242416) slcan0 7E8#21472A49254A134C
(1768225988.243793) slcan0 7E8#2216000000000000
(1768225988.275604) slcan0 7DF#0701010304050607
(1768225988.277942) slcan0 7E8#1011410100076100
(1768225988.278098) slcan0 7E0#3000000000000000
(1768225988.282616) slcan0 7E8#210302000436053F
(1768225988.283714) slcan0 7E8#2206800778000000
(1768225988.311756) slcan0 7DF#07010B0C0D0E0F10
(1768225988.317937) slcan0 7E8#100F410B2A0C1718
(1768225988.318117) slcan0 7E0#3000000000000000
(1768225988.325635) slcan0 7E8#210D000E800F2010
(1768225988.327878) slcan0 7E8#2201E80000000000
(1768225988.354567) slcan0 7DF#0701111314151F21
(1768225988.357781) slcan0 7E8#101141112A130314
(1768225988.358026) slcan0 7E0#3000000000000000
(1768225988.362583) slcan0 7E8#21898015FFFF1F00
(1768225988.363715) slcan0 7E8#229B210000000000
(1768225988.396599) slcan0 7DF#0701232E30313342
(1768225988.397900) slcan0 7E8#1010412301252E00
(1768225988.398147) slcan0 7E0#3000000000000000
(1768225988.402022) slcan0 7E8#2130FF31867E3361
(1768225988.403755) slcan0 7E8#2242379500000000
(1768225988.448554) slcan0 7DF#0701434547494A4C
(1768225988.457811) slcan0 7E8#100E414300544510
(1768225988.458181) slcan0 7E0#3000000000000000
(1768225988.462462) slcan0 7E8#21472A49254A134C
(1768225988.463797) slcan0 7E8#2216000000000000
(1768225988.509630) slcan0 7DF#0701010304050607
(1768225988.518620) slcan0 7E8#1011410100076100
(1768225988.518830) slcan0 7E0#3000000000000000
(1768225988.525700) slcan0 7E8#210302000437053F
(1768225988.527894) slcan0 7E8#22067F0778000000
(1768225988.564584) slcan0 7DF#07010B0C0D0E0F10
(1768225988.567785) slcan0 7E8#100F410B2A0C16F0
(1768225988.568076) slcan0 7E0#3000000000000000
(1768225988.572674) slcan0 7E8#210D000E810F2010
(1768225988.573763) slcan0 7E8#2201DD0000000000
(1768225988.603586) slcan0 7DF#0701111314151F21
(1768225988.607842) slcan0 7E8#101141112A130314
(1768225988.608108) slcan0 7E0#3000000000000000
(1768225988.612457) slcan0 7E8#21287F15FFFF1F00
(1768225988.613712) slcan0 7E8#229B210000000000
(1768225988.656550) slcan0 7DF#0701232E30313342
(1768225988.657942) slcan0 7E8#1010412301262E00
(1768225988.658236) slcan0 7E0#3000000000000000
(1768225988.662765) slcan0 7E8#2130FF31867E3361
(1768225988.663581) slcan0 7E8#224237DC00000000
(1768225988.716615) slcan0 7DF#0701434547494A4C
(1768225988.718768) slcan0 7E8#100E414300544510
(1768225988.718946) slcan0 7E0#3000000000000000
(1768225988.725704) slcan0 7E8#21472A49254A134C
(1768225988.727806) slcan0 7E8#2216000000000000
(1768225988.799624) slcan0 7DF#0701010304050607
(1768225988.807887) slcan0 7E8#1011410100076100
(1768225988.808083) slcan0 7E0#3000000000000000
(1768225988.812696) slcan0 7E8#210302000437053F
(1768225988.813677) slcan0 7E8#2206820778000000
(1768225988.849654) slcan0 7DF#07010B0C0D0E0F10
(1768225988.857844) slcan0 7E8#100F410B2A0C16E4
(1768225988.858082) slcan0 7E0#3000000000000000
(1768225988.862816) slcan0 7E8#210D000E810F2010
(1768225988.863784) slcan0 7E8#2201EB0000000000
(1768225988.900534) slcan0 7DF#0701111314151F21
(1768225988.907820) slcan0 7E8#101141112A130314
(1768225988.908031) slcan0 7E0#3000000000000000
(1768225988.912482) slcan0 7E8#21258315FFFF1F00
(1768225988.913693) slcan0 7E8#229C210000000000
(1768225988.931597) slcan0 7DF#0701232E30313342
(1768225988.937986) slcan0 7E8#1010412301272E00
(1768225988.937995) slcan0 7E0#3000000000000000
(1768225988.942412) slcan0 7E8#2130FF31867E3361
(1768225988.943651) slcan0 7E8#224237AD00000000
(1768225988.979614) slcan0 7DF#0701434547494A4C
(1768225988.987903) slcan0 7E8#100E414300554510
(1768225988.988093) slcan0 7E0#3000000000000000
(1768225988.992325) slcan0 7E8#21472A49254A134C
(1768225988.993777) slcan0 7E8#2216000000000000
(1768225989.011328) slcan0 7DF#0103000000000000
(1768225989.017906) slcan0 7E8#0243000000000000
(1768225989.099262) slcan0 7DF#0107000000000000
(1768225989.107965) slcan0 7E8#0247000000000000
(1768225989.201662) slcan0 7DF#0701010304050607
(1768225989.207808) slcan0 7E8#1011410100076100
(1768225989.208101) slcan0 7E0#3000000000000000
(1768225989.212561) slcan0 7E8#210302000436053F
(1768225989.214023) slcan0 7E8#2206840778000000
(1768225989.240637) slcan0 7DF#07010B0C0D0E0F10
(1768225989.247881) slcan0 7E8#100F410B2A0C1712
(1768225989.247949) slcan0 7E0#3000000000000000
(1768225989.253961) slcan0 7E8#210D000E810F2010
(1768225989.255737) slcan0 7E8#2201E80000000000
(1768225989.278667) slcan0 7DF#0701111314151F21
(1768225989.287905) slcan0 7E8#101141112A130314
(1768225989.288064) slcan0 7E0#3000000000000000
(1768225989.292260) slcan0 7E8#212A8415FFFF1F00
(1768225989.294905) slcan0 7E8#229C210000000000
(1768225989.315632) slcan0 7DF#0701232E30313342
(1768225989.319324) slcan0 7E8#1010412301272E00
(1768225989.319476) slcan0 7E0#3000000000000000
(1768225989.325787) slcan0 7E8#2130FF31867E3361
(1768225989.327789) slcan0 7E8#224237DC00000000
(1768225989.373483) slcan0 7DF#0701434547494A4C
(1768225989.377800) slcan0 7E8#100E414300554510
(1768225989.378039) slcan0 7E0#3000000000000000
(1768225989.382911) slcan0 7E8#21472A49254A134C
(1768225989.383799) slcan0 7E8#2216000000000000
(1768225989.410599) slcan0 7DF#0701010304050607
(1768225989.417876) slcan0 7E8#1011410100076100
(1768225989.418005) slcan0 7E0#3000000000000000
(1768225989.423661) slcan0 7E8#210302000436053F
(1768225989.425708) slcan0 7E8#2206850778000000
(1768225989.467440) slcan0 7DF#07010B0C0D0E0F10
(1768225989.477800) slcan0 7E8#100F410B2A0C1714
(1768225989.477976) slcan0 7E0#3000000000000000
(1768225989.482740) slcan0 7E8#210D000E810F2010
(1768225989.483698) slcan0 7E8#2201DD0000000000
(1768225989.512477) slcan0 7DF#0701111314151F21
(1768225989.517925) slcan0 7E8#101141112A130314
(1768225989.517958) slcan0 7E0#3000000000000000
(1768225989.525083) slcan0 7E8#212F8515FFFF1F00
(1768225989.525739) slcan0 7E8#229C210000000000
(1768225989.547338) slcan0 7DF#0701232E30313342
(1768225989.557713) slcan0 7E8#1010412301282E00
(1768225989.557924) slcan0 7E0#3000000000000000
(1768225989.563578) slcan0 7E8#2130FF31867E3361
(1768225989.565511) slcan0 7E8#224237F400000000
(1768225989.580421) slcan0 7DF#0701434547494A4C
(1768225989.587819) slcan0 7E8#100E414300554510
(1768225989.587999) slcan0 7E0#3000000000000000
(1768225989.592331) slcan0 7E8#21472A49254A134C
(1768225989.593761) slcan0 7E8#2216000000000000
(1768225989.629582) slcan0 7DF#0701010304050607
(1768225989.637837) slcan0 7E8#1011410100076100
(1768225989.638019) slcan0 7E0#3000000000000000
(1768225989.642827) slcan0 7E8#210302000436053F
(1768225989.643733) slcan0 7E8#2206860778000000
(1768225989.665581) slcan0 7DF#07010B0C0D0E0F10
(1768225989.667652) slcan0 7E8#100F410B2A0C1726
(1768225989.667963) slcan0 7E0#3000000000000000
(1768225989.672757) slcan0 7E8#210D000E810F2010
(1768225989.673551) slcan0 7E8#2201E00000000000
(1768225989.695644) slcan0 7DF#0701111314151F21
(1768225989.697856) slcan0 7E8#101141112A130314
(1768225989.698111) slcan0 7E0#3000000000000000
(1768225989.702414) slcan0 7E8#218B8315FFFF1F00
(1768225989.703780) slcan0 7E8#229C210000000000
(1768225989.739571) slcan0 7DF#0701232E30313342
(1768225989.747811) slcan0 7E8#1010412301282E00
(1768225989.748135) slcan0 7E0#3000000000000000
(1768225989.755171) slcan0 7E8#2130FF31867E3361
(1768225989.755735) slcan0 7E8#224237DC00000000
(1768225989.789616) slcan0 7DF#0701434547494A4C
(1768225989.797813) slcan0 7E8#100E414300514510
(1768225989.797965) slcan0 7E0#3000000000000000
(1768225989.803085) slcan0 7E8#21472A49254A134C
(1768225989.803849) slcan0 7E8#2216000000000000
(1768225989.824882) slcan0 7DF#0701010304050607
(1768225989.827837) slcan0 7E8#1011410100076100
(1768225989.828040) slcan0 7E0#3000000000000000
(1768225989.832692) slcan0 7E8#210302000434053F
(1768225989.833759) slcan0 7E8#2206830778000000
(1768225989.867487) slcan0 7DF#07010B0C0D0E0F10
(1768225989.877787) slcan0 7E8#100F410B2A0C1728
(1768225989.878023) slcan0 7E0#3000000000000000
(1768225989.882735) slcan0 7E8#210D000E830F2010
(1768225989.883802) slcan0 7E8#2201DD0000000000
(1768225989.902477) slcan0 7DF#0701111314151F21
(1768225989.907630) slcan0 7E8#101141112A130314
(1768225989.907940) slcan0 7E0#3000000000000000
(1768225989.912562) slcan0 7E8#21908215FFFF1F00
(1768225989.913580) slcan0 7E8#229D210000000000
(1768225989.955450) slcan0 7DF#0701232E30313342
(1768225989.957641) slcan0 7E8#1010412301202E00
(1768225989.957944) slcan0 7E0#3000000000000000
(1768225989.962604) slcan0 7E8#2130FF31867E3361
(1768225989.963642) slcan0 7E8#224237AD00000000
(1768225990.014450) slcan0 7DF#0701434547494A4C
(1768225990.017848) slcan0 7E8#100E414300534510
(1768225990.018045) slcan0 7E0#3000000000000000
(1768225990.023786) slcan0 7E8#21472A49254A134C
(1768225990.025652) slcan0 7E8#2216000000000000
(1768225990.083396) slcan0 7DF#0701010304050607
(1768225990.087697) slcan0 7E8#1011410100076100
(1768225990.087978) slcan0 7E0#3000000000000000
(1768225990.092103) slcan0 7E8#210302000434053F
(1768225990.093487) slcan0 7E8#2206820778000000
(1768225990.145429) slcan0 7DF#07010B0C0D0E0F10
(1768225990.147679) slcan0 7E8#100F410B2A0C1744
(1768225990.147993) slcan0 7E0#3000000000000000
(1768225990.155182) slcan0 7E8#210D000E810F2010
(1768225990.155629) slcan0 7E8#2201E30000000000
(1768225990.194371) slcan0 7DF#0701111314151F21
(1768225990.197679) slcan0 7E8#101141112A130314
(1768225990.197984) slcan0 7E0#3000000000000000
(1768225990.201980) slcan0 7E8#21278215FFFF1F00
(1768225990.203618) slcan0 7E8#229D210000000000
(1768225990.240289) slcan0 7DF#0701232E30313342
(1768225990.247706) slcan0 7E8#10104123011C2E00
(1768225990.248065) slcan0 7E0#3000000000000000
(1768225990.253918) slcan0 7E8#2130FF31867E3361
(1768225990.255626) slcan0 7E8#224237DC00000000
(1768225990.283493) slcan0 7DF#0701434547494A4C
(1768225990.287770) slcan0 7E8#100E414300534510
(1768225990.287972) slcan0 7E0#3000000000000000
(1768225990.292128) slcan0 7E8#21472A49254A134C
(1768225990.293726) slcan0 7E8#2216000000000000
(1768225990.360263) slcan0 7DF#0701010304050607
(1768225990.367694) slcan0 7E8#1011410100076100
(1768225990.367923) slcan0 7E0#3000000000000000
(1768225990.372609) slcan0 7E8#2103020004360540
(1768225990.373800) slcan0 7E8#2206850778000000
(1768225990.389392) slcan0 7DF#07010B0C0D0E0F10
(1768225990.397785) slcan0 7E8#100F410B2A0C1724
(1768225990.398008) slcan0 7E0#3000000000000000
(1768225990.402443) slcan0 7E8#210D000E810F2010
(1768225990.403698) slcan0 7E8#2201E80000000000
(1768225990.432258) slcan0 7DF#0701111314151F21
(1768225990.437699) slcan0 7E8#101141112A130314
(1768225990.437995) slcan0 7E0#3000000000000000
(1768225990.442211) slcan0 7E8#21268515FFFF1F00
(1768225990.443640) slcan0 7E8#229D210000000000
(1768225990.473279) slcan0 7DF#0701232E30313342
(1768225990.477715) slcan0 7E8#1010412301272E00
(1768225990.477980) slcan0 7E0#3000000000000000
(1768225990.482402) slcan0 7E8#2130FF31867E3361
(1768225990.483483) slcan0 7E8#224236D900000000
(1768225990.514231) slcan0 7DF#0701434547494A4C
(1768225990.517651) slcan0 7E8#100E414300554510
(1768225990.517939) slcan0 7E0#3000000000000000
(1768225990.525873) slcan0 7E8#21472A49254A134C
(1768225990.527545) slcan0 7E8#2216000000000000
(1768225990.558251) slcan0 7DF#0701010304050607
(1768225990.567632) slcan0 7E8#1011410100076100
(1768225990.567949) slcan0 7E0#3000000000000000
(1768225990.572802) slcan0 7E8#2103020004360540
(1768225990.573772) slcan0 7E8#2206860778000000
(1768225990.651273) slcan0 7DF#07010B0C0D0E0F10
(1768225990.657663) slcan0 7E8#100F410B2A0C1728
(1768225990.657837) slcan0 7E0#3000000000000000
(1768225990.662437) slcan0 7E8#210D000E810F2010
(1768225990.663486) slcan0 7E8#2201D50000000000
(1768225990.693059) slcan0 7DF#0701111314151F21
(1768225990.697541) slcan0 7E8#101141112A130314
(1768225990.697827) slcan0 7E0#3000000000000000
(1768225990.702266) slcan0 7E8#213D8715FFFF1F00
(1768225990.703495) slcan0 7E8#229D210000000000
(1768225990.726199) slcan0 7DF#0701232E30313342
(1768225990.727941) slcan0 7E8#1010412301252E00
(1768225990.728114) slcan0 7E0#3000000000000000
(1768225990.732486) slcan0 7E8#2130FF31867E3361
(1768225990.733727) slcan0 7E8#224237DC00000000
(1768225990.764206) slcan0 7DF#0701434547494A4C
(1768225990.767668) slcan0 7E8#100E414300544510
(1768225990.767929) slcan0 7E0#3000000000000000
(1768225990.772541) slcan0 7E8#21472A49254A134C
(1768225990.773632) slcan0 7E8#2216000000000000
(1768225990.804097) slcan0 7DF#0701010304050607
(1768225990.807568) slcan0 7E8#1011410100076100
(1768225990.807895) slcan0 7E0#3000000000000000
(1768225990.812514) slcan0 7E8#2103020004350540
(1768225990.813572) slcan0 7E8#2206840778000000
(1768225990.847109) slcan0 7DF#07010B0C0D0E0F10
(1768225990.857533) slcan0 7E8#100F410B2A0C1744
(1768225990.857827) slcan0 7E0#3000000000000000
